Vivado Simulator 2017.4
Time resolution is 1 ps
INFO: ID width is 16 bigger than 16, AXI protocol Checker will not be instantiated in this case 
XilinxAXIVIP: Found at Path: TB_MemorEDF.DUT.design_1_i.axi_vip_0.inst
INFO: ID width is 16 bigger than 16, AXI protocol Checker will not be instantiated in this case 
XilinxAXIVIP: Found at Path: TB_MemorEDF.DUT.design_1_i.axi_vip_1.inst
INFO: ID width is 16 bigger than 16, AXI protocol Checker will not be instantiated in this case 
XilinxAXIVIP: Found at Path: TB_MemorEDF.DUT.design_1_i.axi_vip_2.inst
INFO: ID width is 16 bigger than 16, AXI protocol Checker will not be instantiated in this case 
XilinxAXIVIP: Found at Path: TB_MemorEDF.DUT.design_1_i.axi_vip_3.inst
b master depth 00000000000000000000000000001000
b master depth 00000000000000000000000000001000
c master depth 00000000000000000000000000001000
c master depth 00000000000000000000000000001000
INFO: [Master VIP_rd_driver] (.axi_vip_pkg.axi_mst_rd_driver(C_AXI_ADDR_WIDTH=40,C_AXI_WDATA_WIDTH=128,C_AXI_RDATA_WIDTH=128,C_AXI_WID_WIDTH=16,C_AXI_RID_WIDTH=16,C_AXI_AWUSER_WIDTH=16,C_AXI_ARUSER_WIDTH=16)::run_phase.Block10873_331.) 25001 : run()
INFO: [Master VIP_wr_driver] (.axi_vip_pkg.axi_mst_wr_driver(C_AXI_ADDR_WIDTH=40,C_AXI_WDATA_WIDTH=128,C_AXI_RDATA_WIDTH=128,C_AXI_WID_WIDTH=16,C_AXI_RID_WIDTH=16,C_AXI_AWUSER_WIDTH=16,C_AXI_ARUSER_WIDTH=16)::run_phase.Block9793_285.) 25001 : run()
INFO: [Master VIP_monitor] (.axi_vip_pkg.axi_monitor(C_AXI_ADDR_WIDTH=40,C_AXI_WDATA_WIDTH=128,C_AXI_RDATA_WIDTH=128,C_AXI_WID_WIDTH=16,C_AXI_RID_WIDTH=16,C_AXI_AWUSER_WIDTH=16,C_AXI_ARUSER_WIDTH=16)::run_phase.Block8620_252.) 25001 : run()
INFO: [Slave VIP_rd_driver] (.axi_vip_pkg.axi_slv_rd_driver(C_AXI_ADDR_WIDTH=40,C_AXI_WDATA_WIDTH=128,C_AXI_RDATA_WIDTH=128,C_AXI_WID_WIDTH=16,C_AXI_RID_WIDTH=16,C_AXI_AWUSER_WIDTH=1,C_AXI_ARUSER_WIDTH=1,C_AXI_HAS_REGION=0)::run_phase.Block14104_429.) 25001 : run()
INFO: [Slave VIP_wr_driver] (.axi_vip_pkg.axi_slv_wr_driver(C_AXI_ADDR_WIDTH=40,C_AXI_WDATA_WIDTH=128,C_AXI_RDATA_WIDTH=128,C_AXI_WID_WIDTH=16,C_AXI_RID_WIDTH=16,C_AXI_AWUSER_WIDTH=1,C_AXI_ARUSER_WIDTH=1,C_AXI_HAS_REGION=0)::run_phase.Block12612_378.) 25001 : run()
INFO: [Slave VIP_monitor] (.axi_vip_pkg.axi_monitor(C_AXI_ADDR_WIDTH=40,C_AXI_WDATA_WIDTH=128,C_AXI_RDATA_WIDTH=128,C_AXI_WID_WIDTH=16,C_AXI_RID_WIDTH=16,C_AXI_AWUSER_WIDTH=1,C_AXI_ARUSER_WIDTH=1,C_AXI_HAS_REGION=0)::run_phase.Block8620_269.) 25001 : run()
INFO: [Master VIP_rd_driver] (.axi_vip_pkg.axi_mst_rd_driver(C_AXI_ADDR_WIDTH=40,C_AXI_WDATA_WIDTH=128,C_AXI_RDATA_WIDTH=128,C_AXI_WID_WIDTH=16,C_AXI_RID_WIDTH=16,C_AXI_AWUSER_WIDTH=16,C_AXI_ARUSER_WIDTH=16)::run_phase.Block10873_331.) 25001 : run()
INFO: [Master VIP_wr_driver] (.axi_vip_pkg.axi_mst_wr_driver(C_AXI_ADDR_WIDTH=40,C_AXI_WDATA_WIDTH=128,C_AXI_RDATA_WIDTH=128,C_AXI_WID_WIDTH=16,C_AXI_RID_WIDTH=16,C_AXI_AWUSER_WIDTH=16,C_AXI_ARUSER_WIDTH=16)::run_phase.Block9793_285.) 25001 : run()
INFO: [Master VIP_monitor] (.axi_vip_pkg.axi_monitor(C_AXI_ADDR_WIDTH=40,C_AXI_WDATA_WIDTH=128,C_AXI_RDATA_WIDTH=128,C_AXI_WID_WIDTH=16,C_AXI_RID_WIDTH=16,C_AXI_AWUSER_WIDTH=16,C_AXI_ARUSER_WIDTH=16)::run_phase.Block8620_252.) 25001 : run()
INFO: [Master VIP_rd_driver] (.axi_vip_pkg.axi_mst_rd_driver(C_AXI_ADDR_WIDTH=40,C_AXI_WDATA_WIDTH=128,C_AXI_RDATA_WIDTH=128,C_AXI_WID_WIDTH=16,C_AXI_RID_WIDTH=16,C_AXI_AWUSER_WIDTH=16,C_AXI_ARUSER_WIDTH=16)::run_phase.Block10873_331.) 25001 : run()
INFO: [Master VIP_wr_driver] (.axi_vip_pkg.axi_mst_wr_driver(C_AXI_ADDR_WIDTH=40,C_AXI_WDATA_WIDTH=128,C_AXI_RDATA_WIDTH=128,C_AXI_WID_WIDTH=16,C_AXI_RID_WIDTH=16,C_AXI_AWUSER_WIDTH=16,C_AXI_ARUSER_WIDTH=16)::run_phase.Block9793_285.) 25001 : run()
INFO: [Master VIP_monitor] (.axi_vip_pkg.axi_monitor(C_AXI_ADDR_WIDTH=40,C_AXI_WDATA_WIDTH=128,C_AXI_RDATA_WIDTH=128,C_AXI_WID_WIDTH=16,C_AXI_RID_WIDTH=16,C_AXI_AWUSER_WIDTH=16,C_AXI_ARUSER_WIDTH=16)::run_phase.Block8620_252.) 25001 : run()
INFO: [Master VIP_wr_driver] (axi_vip_pkg.axi_mst_wr_driver(C_AXI_ADDR_WIDTH=40,C_AXI_WDATA_WIDTH=128,C_AXI_RDATA_WIDTH=128,C_AXI_WID_WIDTH=16,C_AXI_RID_WIDTH=16,C_AXI_AWUSER_WIDTH=16,C_AXI_ARUSER_WIDTH=16)::get_and_drive.GET_AND_DRIVE) 40000 : Sending transaction: 
INFO: [Master VIP_wr_driver] (axi_vip_pkg.axi_mst_wr_driver(C_AXI_ADDR_WIDTH=40,C_AXI_WDATA_WIDTH=128,C_AXI_RDATA_WIDTH=128,C_AXI_WID_WIDTH=16,C_AXI_RID_WIDTH=16,C_AXI_AWUSER_WIDTH=16,C_AXI_ARUSER_WIDTH=16)::get_and_drive.GET_AND_DRIVE) 40000 : ---------------------------------------------------------------------------------------------
  Name                         Value
---------------------------------------------------------------------------------------------
  CMD                          XIL_AXI_WRITE
  ADDR                         0x0000000000000000 
  WID                          0x00000000
  LEN                          0x00
  SIZE                         0x100
  BURST                        0x01
  CACHE                        0x0000
  LOCK                         0x00
  PROT                         0x000
  REGION                       0x0000
  QOS                          0x0000
  AWUSER                       0x0000
  BRESP                        XIL_AXI_RESP_OKAY
  DRIVER_RETURN_ITEM           XIL_AXI_PAYLOAD_RETURN 
  CREATION_TIME                40000
  SUBMIT_TIME                  0
  PAYLOAD                      16
    BEAT[          0]          0x00000020000000200000002000000020 (strb : 0b1111111111111111) :beat_delay:         0
--------------------------------------------------------------------------------------------
INFO: [Master VIP_wr_driver] (axi_vip_pkg.axi_mst_wr_driver(C_AXI_ADDR_WIDTH=40,C_AXI_WDATA_WIDTH=128,C_AXI_RDATA_WIDTH=128,C_AXI_WID_WIDTH=16,C_AXI_RID_WIDTH=16,C_AXI_AWUSER_WIDTH=16,C_AXI_ARUSER_WIDTH=16)::w_channel.W_CHANNEL.Block10274_317.Block10274_318) 115000 : WREADY+WLAST (         0) id=0x00000000
INFO: [Master VIP_wr_driver] (axi_vip_pkg.axi_mst_wr_driver(C_AXI_ADDR_WIDTH=40,C_AXI_WDATA_WIDTH=128,C_AXI_RDATA_WIDTH=128,C_AXI_WID_WIDTH=16,C_AXI_RID_WIDTH=16,C_AXI_AWUSER_WIDTH=16,C_AXI_ARUSER_WIDTH=16)::service_done_q.SERVICE_DONE_Q) 125000 : SERVICE_DONE_Q: XIL_AXI_WRITE (0) A:0x0000000000000000 ID:0x00000000 len:0x00 XIL_AXI_SIZE_16BYTE XIL_AXI_BURST_TYPE_INCR C:0b0000 L:XIL_AXI_ALOCK_NOLOCK P:0b000
INFO: [Master VIP_wr_driver] (axi_vip_pkg.axi_mst_wr_driver(C_AXI_ADDR_WIDTH=40,C_AXI_WDATA_WIDTH=128,C_AXI_RDATA_WIDTH=128,C_AXI_WID_WIDTH=16,C_AXI_RID_WIDTH=16,C_AXI_AWUSER_WIDTH=16,C_AXI_ARUSER_WIDTH=16)::get_and_drive.GET_AND_DRIVE) 145000 : Sending transaction: 
INFO: [Master VIP_wr_driver] (axi_vip_pkg.axi_mst_wr_driver(C_AXI_ADDR_WIDTH=40,C_AXI_WDATA_WIDTH=128,C_AXI_RDATA_WIDTH=128,C_AXI_WID_WIDTH=16,C_AXI_RID_WIDTH=16,C_AXI_AWUSER_WIDTH=16,C_AXI_ARUSER_WIDTH=16)::get_and_drive.GET_AND_DRIVE) 145000 : ---------------------------------------------------------------------------------------------
  Name                         Value
---------------------------------------------------------------------------------------------
  CMD                          XIL_AXI_WRITE
  ADDR                         0x0000000000000010 
  WID                          0x00000000
  LEN                          0x00
  SIZE                         0x100
  BURST                        0x01
  CACHE                        0x0000
  LOCK                         0x00
  PROT                         0x000
  REGION                       0x0000
  QOS                          0x0000
  AWUSER                       0x0000
  BRESP                        XIL_AXI_RESP_OKAY
  DRIVER_RETURN_ITEM           XIL_AXI_PAYLOAD_RETURN 
  CREATION_TIME                145000
  SUBMIT_TIME                  0
  PAYLOAD                      16
    BEAT[          0]          0x00000007000000070000000700000007 (strb : 0b1111111111111111) :beat_delay:         0
--------------------------------------------------------------------------------------------
INFO: [Master VIP_wr_driver] (axi_vip_pkg.axi_mst_wr_driver(C_AXI_ADDR_WIDTH=40,C_AXI_WDATA_WIDTH=128,C_AXI_RDATA_WIDTH=128,C_AXI_WID_WIDTH=16,C_AXI_RID_WIDTH=16,C_AXI_AWUSER_WIDTH=16,C_AXI_ARUSER_WIDTH=16)::w_channel.W_CHANNEL.Block10274_317.Block10274_318) 225000 : WREADY+WLAST (         0) id=0x00000000
INFO: [Master VIP_wr_driver] (axi_vip_pkg.axi_mst_wr_driver(C_AXI_ADDR_WIDTH=40,C_AXI_WDATA_WIDTH=128,C_AXI_RDATA_WIDTH=128,C_AXI_WID_WIDTH=16,C_AXI_RID_WIDTH=16,C_AXI_AWUSER_WIDTH=16,C_AXI_ARUSER_WIDTH=16)::service_done_q.SERVICE_DONE_Q) 235000 : SERVICE_DONE_Q: XIL_AXI_WRITE (4) A:0x0000000000000010 ID:0x00000000 len:0x00 XIL_AXI_SIZE_16BYTE XIL_AXI_BURST_TYPE_INCR C:0b0000 L:XIL_AXI_ALOCK_NOLOCK P:0b000
INFO: [Master VIP_wr_driver] (axi_vip_pkg.axi_mst_wr_driver(C_AXI_ADDR_WIDTH=40,C_AXI_WDATA_WIDTH=128,C_AXI_RDATA_WIDTH=128,C_AXI_WID_WIDTH=16,C_AXI_RID_WIDTH=16,C_AXI_AWUSER_WIDTH=16,C_AXI_ARUSER_WIDTH=16)::get_and_drive.GET_AND_DRIVE) 255000 : Sending transaction: 
INFO: [Master VIP_wr_driver] (axi_vip_pkg.axi_mst_wr_driver(C_AXI_ADDR_WIDTH=40,C_AXI_WDATA_WIDTH=128,C_AXI_RDATA_WIDTH=128,C_AXI_WID_WIDTH=16,C_AXI_RID_WIDTH=16,C_AXI_AWUSER_WIDTH=16,C_AXI_ARUSER_WIDTH=16)::get_and_drive.GET_AND_DRIVE) 255000 : ---------------------------------------------------------------------------------------------
  Name                         Value
---------------------------------------------------------------------------------------------
  CMD                          XIL_AXI_WRITE
  ADDR                         0x0000000000000020 
  WID                          0x00000000
  LEN                          0x00
  SIZE                         0x100
  BURST                        0x01
  CACHE                        0x0000
  LOCK                         0x00
  PROT                         0x000
  REGION                       0x0000
  QOS                          0x0000
  AWUSER                       0x0000
  BRESP                        XIL_AXI_RESP_OKAY
  DRIVER_RETURN_ITEM           XIL_AXI_PAYLOAD_RETURN 
  CREATION_TIME                255000
  SUBMIT_TIME                  0
  PAYLOAD                      16
    BEAT[          0]          0x0000000c00000080000000500f0c0e0d (strb : 0b1111111111111111) :beat_delay:         0
--------------------------------------------------------------------------------------------
INFO: [Master VIP_wr_driver] (axi_vip_pkg.axi_mst_wr_driver(C_AXI_ADDR_WIDTH=40,C_AXI_WDATA_WIDTH=128,C_AXI_RDATA_WIDTH=128,C_AXI_WID_WIDTH=16,C_AXI_RID_WIDTH=16,C_AXI_AWUSER_WIDTH=16,C_AXI_ARUSER_WIDTH=16)::w_channel.W_CHANNEL.Block10274_317.Block10274_318) 335000 : WREADY+WLAST (         0) id=0x00000000
INFO: [Master VIP_wr_driver] (axi_vip_pkg.axi_mst_wr_driver(C_AXI_ADDR_WIDTH=40,C_AXI_WDATA_WIDTH=128,C_AXI_RDATA_WIDTH=128,C_AXI_WID_WIDTH=16,C_AXI_RID_WIDTH=16,C_AXI_AWUSER_WIDTH=16,C_AXI_ARUSER_WIDTH=16)::service_done_q.SERVICE_DONE_Q) 345000 : SERVICE_DONE_Q: XIL_AXI_WRITE (8) A:0x0000000000000020 ID:0x00000000 len:0x00 XIL_AXI_SIZE_16BYTE XIL_AXI_BURST_TYPE_INCR C:0b0000 L:XIL_AXI_ALOCK_NOLOCK P:0b000
INFO: [Master VIP_wr_driver] (axi_vip_pkg.axi_mst_wr_driver(C_AXI_ADDR_WIDTH=40,C_AXI_WDATA_WIDTH=128,C_AXI_RDATA_WIDTH=128,C_AXI_WID_WIDTH=16,C_AXI_RID_WIDTH=16,C_AXI_AWUSER_WIDTH=16,C_AXI_ARUSER_WIDTH=16)::get_and_drive.GET_AND_DRIVE) 365000 : Sending transaction: 
INFO: [Master VIP_wr_driver] (axi_vip_pkg.axi_mst_wr_driver(C_AXI_ADDR_WIDTH=40,C_AXI_WDATA_WIDTH=128,C_AXI_RDATA_WIDTH=128,C_AXI_WID_WIDTH=16,C_AXI_RID_WIDTH=16,C_AXI_AWUSER_WIDTH=16,C_AXI_ARUSER_WIDTH=16)::get_and_drive.GET_AND_DRIVE) 365000 : ---------------------------------------------------------------------------------------------
  Name                         Value
---------------------------------------------------------------------------------------------
  CMD                          XIL_AXI_WRITE
  ADDR                         0x0000000000000030 
  WID                          0x00000000
  LEN                          0x00
  SIZE                         0x100
  BURST                        0x01
  CACHE                        0x0000
  LOCK                         0x00
  PROT                         0x000
  REGION                       0x0000
  QOS                          0x0000
  AWUSER                       0x0000
  BRESP                        XIL_AXI_RESP_OKAY
  DRIVER_RETURN_ITEM           XIL_AXI_PAYLOAD_RETURN 
  CREATION_TIME                365000
  SUBMIT_TIME                  0
  PAYLOAD                      16
    BEAT[          0]          0x00000000000000030000000000000080 (strb : 0b1111111111111111) :beat_delay:         0
--------------------------------------------------------------------------------------------
INFO: [Master VIP_wr_driver] (axi_vip_pkg.axi_mst_wr_driver(C_AXI_ADDR_WIDTH=40,C_AXI_WDATA_WIDTH=128,C_AXI_RDATA_WIDTH=128,C_AXI_WID_WIDTH=16,C_AXI_RID_WIDTH=16,C_AXI_AWUSER_WIDTH=16,C_AXI_ARUSER_WIDTH=16)::w_channel.W_CHANNEL.Block10274_317.Block10274_318) 445000 : WREADY+WLAST (         0) id=0x00000000
INFO: [Master VIP_wr_driver] (axi_vip_pkg.axi_mst_wr_driver(C_AXI_ADDR_WIDTH=40,C_AXI_WDATA_WIDTH=128,C_AXI_RDATA_WIDTH=128,C_AXI_WID_WIDTH=16,C_AXI_RID_WIDTH=16,C_AXI_AWUSER_WIDTH=16,C_AXI_ARUSER_WIDTH=16)::service_done_q.SERVICE_DONE_Q) 455000 : SERVICE_DONE_Q: XIL_AXI_WRITE (12) A:0x0000000000000030 ID:0x00000000 len:0x00 XIL_AXI_SIZE_16BYTE XIL_AXI_BURST_TYPE_INCR C:0b0000 L:XIL_AXI_ALOCK_NOLOCK P:0b000
INFO: [Master VIP_wr_driver] (axi_vip_pkg.axi_mst_wr_driver(C_AXI_ADDR_WIDTH=40,C_AXI_WDATA_WIDTH=128,C_AXI_RDATA_WIDTH=128,C_AXI_WID_WIDTH=16,C_AXI_RID_WIDTH=16,C_AXI_AWUSER_WIDTH=16,C_AXI_ARUSER_WIDTH=16)::get_and_drive.GET_AND_DRIVE) 525000 : Sending transaction: 
INFO: [Master VIP_wr_driver] (axi_vip_pkg.axi_mst_wr_driver(C_AXI_ADDR_WIDTH=40,C_AXI_WDATA_WIDTH=128,C_AXI_RDATA_WIDTH=128,C_AXI_WID_WIDTH=16,C_AXI_RID_WIDTH=16,C_AXI_AWUSER_WIDTH=16,C_AXI_ARUSER_WIDTH=16)::get_and_drive.GET_AND_DRIVE) 525000 : ---------------------------------------------------------------------------------------------
  Name                         Value
---------------------------------------------------------------------------------------------
  CMD                          XIL_AXI_WRITE
  ADDR                         0x0000001000000000 
  WID                          0x0000018d
  LEN                          0x03
  SIZE                         0x100
  BURST                        0x01
  CACHE                        0x0010
  LOCK                         0x00
  PROT                         0x001
  REGION                       0x1000
  QOS                          0x1101
  AWUSER                       0xe7c3b6cfed8d80db3f5a9b7e3c03ff78436157866e5f0fdc3e99837ddb461ab613259f26603921c04b2737961b876137dcf000b98d24f61a6a8e05d57d4779fa2f3ab35e5d7199bab9f50473b855c470334ea7669eb7c63ded3408da433567868e37901c149e0729fea7a6fd0e41451c8477e408975c9c2ee3c530c79690042d
  BRESP                        XIL_AXI_RESP_OKAY
  DRIVER_RETURN_ITEM           XIL_AXI_NO_RETURN 
  CREATION_TIME                525000
  SUBMIT_TIME                  0
  PAYLOAD                      64
    BEAT[          0]          0xbd5cc5e8cef28f1277e5aac5c6f98ced (strb : 0b1111111111111111) :beat_delay:         0
    BEAT[          1]          0xae02d56b530d13969daa20800a63652d (strb : 0b1111111111111111) :beat_delay:         0
    BEAT[          2]          0xaec6b6eb8978d8418af23cca0a23cf1d (strb : 0b1111111111111111) :beat_delay:         0
    BEAT[          3]          0x8f9f4c62d9f1157e3a3b4f85710b2abc (strb : 0b1111111111111111) :beat_delay:         0
--------------------------------------------------------------------------------------------
INFO: [Master VIP_wr_driver] (axi_vip_pkg.axi_mst_wr_driver(C_AXI_ADDR_WIDTH=40,C_AXI_WDATA_WIDTH=128,C_AXI_RDATA_WIDTH=128,C_AXI_WID_WIDTH=16,C_AXI_RID_WIDTH=16,C_AXI_AWUSER_WIDTH=16,C_AXI_ARUSER_WIDTH=16)::get_and_drive.GET_AND_DRIVE) 525000 : Sending transaction: 
INFO: [Master VIP_wr_driver] (axi_vip_pkg.axi_mst_wr_driver(C_AXI_ADDR_WIDTH=40,C_AXI_WDATA_WIDTH=128,C_AXI_RDATA_WIDTH=128,C_AXI_WID_WIDTH=16,C_AXI_RID_WIDTH=16,C_AXI_AWUSER_WIDTH=16,C_AXI_ARUSER_WIDTH=16)::get_and_drive.GET_AND_DRIVE) 525000 : ---------------------------------------------------------------------------------------------
  Name                         Value
---------------------------------------------------------------------------------------------
  CMD                          XIL_AXI_WRITE
  ADDR                         0x0000004800008000 
  WID                          0x000001ad
  LEN                          0x03
  SIZE                         0x100
  BURST                        0x01
  CACHE                        0x0110
  LOCK                         0x00
  PROT                         0x000
  REGION                       0x1101
  QOS                          0x1101
  AWUSER                       0xbccfa8799c6de6384f75ff9ec6b5f48d155a1d2a152fb52acfd6c09ff33466e6070bb90ed0ca8ca1549efda9d44b80a82758d14ec550168af622e6ecb98c427325b27b4bcc01b498e2e574c560b175c1949a8a299ab488357a8c59f5a863965043779186d0f578a10b940917b0bcee61fd28e4fa3ced2b79e7c3b6cfed8d80db
  BRESP                        XIL_AXI_RESP_OKAY
  DRIVER_RETURN_ITEM           XIL_AXI_NO_RETURN 
  CREATION_TIME                525000
  SUBMIT_TIME                  0
  PAYLOAD                      64
    BEAT[          0]          0xb6eb8978d8418af23cca0a23cf1dae02 (strb : 0b1111111111111111) :beat_delay:         0
    BEAT[          1]          0x4c62d9f1157e3a3b4f85710b2abcaec6 (strb : 0b1111111111111111) :beat_delay:         0
    BEAT[          2]          0xc8c20c9651d7d049895b5c9fb7f88f9f (strb : 0b1111111111111111) :beat_delay:         0
    BEAT[          3]          0x86582a3f495b7885d31f396d7e123d77 (strb : 0b1111111111111111) :beat_delay:         0
--------------------------------------------------------------------------------------------
INFO: [Master VIP_wr_driver] (axi_vip_pkg.axi_mst_wr_driver(C_AXI_ADDR_WIDTH=40,C_AXI_WDATA_WIDTH=128,C_AXI_RDATA_WIDTH=128,C_AXI_WID_WIDTH=16,C_AXI_RID_WIDTH=16,C_AXI_AWUSER_WIDTH=16,C_AXI_ARUSER_WIDTH=16)::get_and_drive.GET_AND_DRIVE) 525000 : Sending transaction: 
INFO: [Master VIP_wr_driver] (axi_vip_pkg.axi_mst_wr_driver(C_AXI_ADDR_WIDTH=40,C_AXI_WDATA_WIDTH=128,C_AXI_RDATA_WIDTH=128,C_AXI_WID_WIDTH=16,C_AXI_RID_WIDTH=16,C_AXI_AWUSER_WIDTH=16,C_AXI_ARUSER_WIDTH=16)::get_and_drive.GET_AND_DRIVE) 525000 : ---------------------------------------------------------------------------------------------
  Name                         Value
---------------------------------------------------------------------------------------------
  CMD                          XIL_AXI_WRITE
  ADDR                         0x0000001000000040 
  WID                          0x0000018d
  LEN                          0x03
  SIZE                         0x100
  BURST                        0x01
  CACHE                        0x0011
  LOCK                         0x00
  PROT                         0x111
  REGION                       0x1010
  QOS                          0x0110
  AWUSER                       0x33c89b676325e3c6fb1632f6f4c03ce9c7dbc28f1aff35359608882c45a2938be13cd2c279b353f3cdab189b39c951735cd421b98697e00d6ca619d9686977d04c46bf98f1f242e370907be1a6a1ca4df30a80e6125b9b2438e3f3711e3ed33c1439fd28b5e4ce6b18b0f531923ece24652885caeafa82d5ff12b6fe5515c3aa
  BRESP                        XIL_AXI_RESP_OKAY
  DRIVER_RETURN_ITEM           XIL_AXI_NO_RETURN 
  CREATION_TIME                525000
  SUBMIT_TIME                  0
  PAYLOAD                      64
    BEAT[          0]          0x2dd17b15dc7173d9a23f482b28ed905f (strb : 0b1111111111111111) :beat_delay:         0
    BEAT[          1]          0x7bcde5f68740f67a5a39fa2c0f12f037 (strb : 0b1111111111111111) :beat_delay:         0
    BEAT[          2]          0x8d4da23e838e317df74e9af0cccbec4d (strb : 0b1111111111111111) :beat_delay:         0
    BEAT[          3]          0x9cf4692c8b5e1d5380e882aea38d7dd4 (strb : 0b1111111111111111) :beat_delay:         0
--------------------------------------------------------------------------------------------
INFO: [Master VIP_wr_driver] (axi_vip_pkg.axi_mst_wr_driver(C_AXI_ADDR_WIDTH=40,C_AXI_WDATA_WIDTH=128,C_AXI_RDATA_WIDTH=128,C_AXI_WID_WIDTH=16,C_AXI_RID_WIDTH=16,C_AXI_AWUSER_WIDTH=16,C_AXI_ARUSER_WIDTH=16)::get_and_drive.GET_AND_DRIVE) 525000 : Sending transaction: 
INFO: [Master VIP_wr_driver] (axi_vip_pkg.axi_mst_wr_driver(C_AXI_ADDR_WIDTH=40,C_AXI_WDATA_WIDTH=128,C_AXI_RDATA_WIDTH=128,C_AXI_WID_WIDTH=16,C_AXI_RID_WIDTH=16,C_AXI_AWUSER_WIDTH=16,C_AXI_ARUSER_WIDTH=16)::get_and_drive.GET_AND_DRIVE) 525000 : ---------------------------------------------------------------------------------------------
  Name                         Value
---------------------------------------------------------------------------------------------
  CMD                          XIL_AXI_WRITE
  ADDR                         0x0000004800008040 
  WID                          0x000001ad
  LEN                          0x03
  SIZE                         0x100
  BURST                        0x01
  CACHE                        0x1111
  LOCK                         0x00
  PROT                         0x011
  REGION                       0x0111
  QOS                          0x0101
  AWUSER                       0x1abdfd357aae09f5fd470efa908b2e21c3e9d087573815ae8957e612ef7c72ded68562ad4de01b9b616ae1c2d7559aaeaabaa655dda3debb9350cc26ef76cade04e653093dbee37b8e4f421c6fc7e7df8a4bd814112e6f22c0b49681c09c92819c896e395bf583b7be2bda7c0658310c0fcc051ffe20e4fc42d0e3853cd1e979
  BRESP                        XIL_AXI_RESP_OKAY
  DRIVER_RETURN_ITEM           XIL_AXI_NO_RETURN 
  CREATION_TIME                525000
  SUBMIT_TIME                  0
  PAYLOAD                      64
    BEAT[          0]          0xc3299b8f419149ff2c47203b2970db24 (strb : 0b1111111111111111) :beat_delay:         0
    BEAT[          1]          0x8c833c373add1b2bbc32d75580fea1f7 (strb : 0b1111111111111111) :beat_delay:         0
    BEAT[          2]          0x3a2ba1b087136ec6a76b91c551eecf9d (strb : 0b1111111111111111) :beat_delay:         0
    BEAT[          3]          0xb5c34d52aab57c8ec905c673ab3dd28c (strb : 0b1111111111111111) :beat_delay:         0
--------------------------------------------------------------------------------------------
INFO: [Master VIP_wr_driver] (axi_vip_pkg.axi_mst_wr_driver(C_AXI_ADDR_WIDTH=40,C_AXI_WDATA_WIDTH=128,C_AXI_RDATA_WIDTH=128,C_AXI_WID_WIDTH=16,C_AXI_RID_WIDTH=16,C_AXI_AWUSER_WIDTH=16,C_AXI_ARUSER_WIDTH=16)::get_and_drive.GET_AND_DRIVE) 525000 : Sending transaction: 
INFO: [Master VIP_wr_driver] (axi_vip_pkg.axi_mst_wr_driver(C_AXI_ADDR_WIDTH=40,C_AXI_WDATA_WIDTH=128,C_AXI_RDATA_WIDTH=128,C_AXI_WID_WIDTH=16,C_AXI_RID_WIDTH=16,C_AXI_AWUSER_WIDTH=16,C_AXI_ARUSER_WIDTH=16)::get_and_drive.GET_AND_DRIVE) 525000 : ---------------------------------------------------------------------------------------------
  Name                         Value
---------------------------------------------------------------------------------------------
  CMD                          XIL_AXI_WRITE
  ADDR                         0x0000001000000080 
  WID                          0x0000018d
  LEN                          0x03
  SIZE                         0x100
  BURST                        0x01
  CACHE                        0x0111
  LOCK                         0x00
  PROT                         0x011
  REGION                       0x0001
  QOS                          0x1101
  AWUSER                       0x4a8e1b95f7ef96ef6835cbd098f1aa31acfc4459add87a5b14607928c0023680d52ae0aa1390d127739aa9e7b22b9264868dc00db1a7c063592c0fb23e403f7ca75d7a4e97c42a2f3a131f7412e48125d12b60a2bb88b477c3790e865ad25db5ba358874d337c2a61be5d337eedd94ddcb7ac296501779a003341d0621b7b143
  BRESP                        XIL_AXI_RESP_OKAY
  DRIVER_RETURN_ITEM           XIL_AXI_NO_RETURN 
  CREATION_TIME                525000
  SUBMIT_TIME                  0
  PAYLOAD                      64
    BEAT[          0]          0x8cf633ea0522e581d84cef1b75bb242c (strb : 0b1111111111111111) :beat_delay:         0
    BEAT[          1]          0xb7a0d2a2b864e22fbc8c8151da445fd7 (strb : 0b1111111111111111) :beat_delay:         0
    BEAT[          2]          0x627d15d7bdf7a554070cbf240479cb1a (strb : 0b1111111111111111) :beat_delay:         0
    BEAT[          3]          0x5cd093f14d1812c26c4e3da84f0626c0 (strb : 0b1111111111111111) :beat_delay:         0
--------------------------------------------------------------------------------------------
INFO: [Master VIP_wr_driver] (axi_vip_pkg.axi_mst_wr_driver(C_AXI_ADDR_WIDTH=40,C_AXI_WDATA_WIDTH=128,C_AXI_RDATA_WIDTH=128,C_AXI_WID_WIDTH=16,C_AXI_RID_WIDTH=16,C_AXI_AWUSER_WIDTH=16,C_AXI_ARUSER_WIDTH=16)::get_and_drive.GET_AND_DRIVE) 525000 : Sending transaction: 
INFO: [Master VIP_wr_driver] (axi_vip_pkg.axi_mst_wr_driver(C_AXI_ADDR_WIDTH=40,C_AXI_WDATA_WIDTH=128,C_AXI_RDATA_WIDTH=128,C_AXI_WID_WIDTH=16,C_AXI_RID_WIDTH=16,C_AXI_AWUSER_WIDTH=16,C_AXI_ARUSER_WIDTH=16)::get_and_drive.GET_AND_DRIVE) 525000 : ---------------------------------------------------------------------------------------------
  Name                         Value
---------------------------------------------------------------------------------------------
  CMD                          XIL_AXI_WRITE
  ADDR                         0x0000004800008080 
  WID                          0x000001ad
  LEN                          0x03
  SIZE                         0x100
  BURST                        0x01
  CACHE                        0x0111
  LOCK                         0x00
  PROT                         0x010
  REGION                       0x1000
  QOS                          0x1011
  AWUSER                       0x851c3a0a8a0f321424a6bb49c5b2c28b32a5cd65335a7d668a9c46158e34081c190be7328a5ba81406e37b0dc4e2da89fbfffaf78c35f8189488ac2983c8da076fae3fdfdbb272b70b14ed16149f71291cf1a3390243dd04ffa214ff6233bdc43447e168dacab6b5b6aeb26dfd8aa6fb03856707ea1946d4fab21ef5dac4ceb5
  BRESP                        XIL_AXI_RESP_OKAY
  DRIVER_RETURN_ITEM           XIL_AXI_NO_RETURN 
  CREATION_TIME                525000
  SUBMIT_TIME                  0
  PAYLOAD                      64
    BEAT[          0]          0xed2c202459b99b1f9cd09f6f96981bb7 (strb : 0b1111111111111111) :beat_delay:         0
    BEAT[          1]          0x72f8779902132d06cff5a97c5e94f599 (strb : 0b1111111111111111) :beat_delay:         0
    BEAT[          2]          0x9ff86c00e748de1452da7002b4521f1a (strb : 0b1111111111111111) :beat_delay:         0
    BEAT[          3]          0xfaa15fb975262d2c749d6068e5d4e3cd (strb : 0b1111111111111111) :beat_delay:         0
--------------------------------------------------------------------------------------------
INFO: [Master VIP_wr_driver] (axi_vip_pkg.axi_mst_wr_driver(C_AXI_ADDR_WIDTH=40,C_AXI_WDATA_WIDTH=128,C_AXI_RDATA_WIDTH=128,C_AXI_WID_WIDTH=16,C_AXI_RID_WIDTH=16,C_AXI_AWUSER_WIDTH=16,C_AXI_ARUSER_WIDTH=16)::get_and_drive.GET_AND_DRIVE) 525000 : Sending transaction: 
INFO: [Master VIP_wr_driver] (axi_vip_pkg.axi_mst_wr_driver(C_AXI_ADDR_WIDTH=40,C_AXI_WDATA_WIDTH=128,C_AXI_RDATA_WIDTH=128,C_AXI_WID_WIDTH=16,C_AXI_RID_WIDTH=16,C_AXI_AWUSER_WIDTH=16,C_AXI_ARUSER_WIDTH=16)::get_and_drive.GET_AND_DRIVE) 525000 : ---------------------------------------------------------------------------------------------
  Name                         Value
---------------------------------------------------------------------------------------------
  CMD                          XIL_AXI_WRITE
  ADDR                         0x00000010000000c0 
  WID                          0x0000018d
  LEN                          0x03
  SIZE                         0x100
  BURST                        0x01
  CACHE                        0x1110
  LOCK                         0x00
  PROT                         0x001
  REGION                       0x0100
  QOS                          0x1111
  AWUSER                       0x6b4ed7d655c88dabc738ea8eadacec5bf4fac6e99b6c0436fbe542f7a1d58c4311b08323a651bc4c49f319935414e7a873841fe7b1ea186373d061e7b2bcbe6520ea71413cc93d795dddd1bb311c9962c18d0a83d4cb0ca98722da0e8f05b61e9fde423faaf72c55a8c1b251a20f2044f36d2ae6d324fea6f02b4ee0649997c9
  BRESP                        XIL_AXI_RESP_OKAY
  DRIVER_RETURN_ITEM           XIL_AXI_NO_RETURN 
  CREATION_TIME                525000
  SUBMIT_TIME                  0
  PAYLOAD                      64
    BEAT[          0]          0x7694b3b69d516342b703fca7cc9a8c6b (strb : 0b1111111111111111) :beat_delay:         0
    BEAT[          1]          0x46cdd2e2883b1a5e9957e91604ac9047 (strb : 0b1111111111111111) :beat_delay:         0
    BEAT[          2]          0xd27bf56a88b6abf45168f71bab676c3d (strb : 0b1111111111111111) :beat_delay:         0
    BEAT[          3]          0x9d15de20079811d39e8f1836626ee3d9 (strb : 0b1111111111111111) :beat_delay:         0
--------------------------------------------------------------------------------------------
INFO: [Master VIP_wr_driver] (axi_vip_pkg.axi_mst_wr_driver(C_AXI_ADDR_WIDTH=40,C_AXI_WDATA_WIDTH=128,C_AXI_RDATA_WIDTH=128,C_AXI_WID_WIDTH=16,C_AXI_RID_WIDTH=16,C_AXI_AWUSER_WIDTH=16,C_AXI_ARUSER_WIDTH=16)::get_and_drive.GET_AND_DRIVE) 525000 : Sending transaction: 
INFO: [Master VIP_wr_driver] (axi_vip_pkg.axi_mst_wr_driver(C_AXI_ADDR_WIDTH=40,C_AXI_WDATA_WIDTH=128,C_AXI_RDATA_WIDTH=128,C_AXI_WID_WIDTH=16,C_AXI_RID_WIDTH=16,C_AXI_AWUSER_WIDTH=16,C_AXI_ARUSER_WIDTH=16)::get_and_drive.GET_AND_DRIVE) 525000 : ---------------------------------------------------------------------------------------------
  Name                         Value
---------------------------------------------------------------------------------------------
  CMD                          XIL_AXI_WRITE
  ADDR                         0x00000048000080c0 
  WID                          0x000001ad
  LEN                          0x03
  SIZE                         0x100
  BURST                        0x01
  CACHE                        0x0011
  LOCK                         0x00
  PROT                         0x001
  REGION                       0x1110
  QOS                          0x1010
  AWUSER                       0x74d7f5e92e2c3f5c0bafe5176d645bda2c8c9f590a52b71462401dc41fc8bf3fdef70abd0b913d1706c0db0d2ff8f95f979aec2f3de6557bc546ae8aaee7f05d65f2bbcb38624370357ef16accc446996fe3a7df256b0b4a4003b5803f9c617feef1a4dda0c07041106fcb2009c263134c336b986f3ff9de8832cc1003f03107
  BRESP                        XIL_AXI_RESP_OKAY
  DRIVER_RETURN_ITEM           XIL_AXI_NO_RETURN 
  CREATION_TIME                525000
  SUBMIT_TIME                  0
  PAYLOAD                      64
    BEAT[          0]          0xadeb8d122f5bb8eddff4a060cbef1c3d (strb : 0b1111111111111111) :beat_delay:         0
    BEAT[          1]          0xf175fe60a5caf6fc6370ceffdbdb7a9a (strb : 0b1111111111111111) :beat_delay:         0
    BEAT[          2]          0x5eb1bfc80fb4265b9325c22596dbe57e (strb : 0b1111111111111111) :beat_delay:         0
    BEAT[          3]          0x7797e3cd9e5c34abae78717fc4eaa925 (strb : 0b1111111111111111) :beat_delay:         0
--------------------------------------------------------------------------------------------
INFO: [Master VIP_wr_driver] (axi_vip_pkg.axi_mst_wr_driver(C_AXI_ADDR_WIDTH=40,C_AXI_WDATA_WIDTH=128,C_AXI_RDATA_WIDTH=128,C_AXI_WID_WIDTH=16,C_AXI_RID_WIDTH=16,C_AXI_AWUSER_WIDTH=16,C_AXI_ARUSER_WIDTH=16)::get_and_drive.GET_AND_DRIVE) 525000 : Sending transaction: 
INFO: [Master VIP_wr_driver] (axi_vip_pkg.axi_mst_wr_driver(C_AXI_ADDR_WIDTH=40,C_AXI_WDATA_WIDTH=128,C_AXI_RDATA_WIDTH=128,C_AXI_WID_WIDTH=16,C_AXI_RID_WIDTH=16,C_AXI_AWUSER_WIDTH=16,C_AXI_ARUSER_WIDTH=16)::get_and_drive.GET_AND_DRIVE) 525000 : ---------------------------------------------------------------------------------------------
  Name                         Value
---------------------------------------------------------------------------------------------
  CMD                          XIL_AXI_WRITE
  ADDR                         0x0000001000000100 
  WID                          0x0000018d
  LEN                          0x03
  SIZE                         0x100
  BURST                        0x01
  CACHE                        0x0011
  LOCK                         0x00
  PROT                         0x100
  REGION                       0x0100
  QOS                          0x0001
  AWUSER                       0xaac5e6550aac5f15739a9fe709ca591381524e02a7a3f04fc3e434875020efa0bbb89e7798324e30b48a04698017ec00bc212c783ded1d7b9374442681245202e5710aca9f59be3ecd79e69a14a4e729d85e0cb0a551564a5d549fba2ca62f590142c9022c24cb589d54e03a70666be04ab291950c80bf192fd5e35f72999fe5
  BRESP                        XIL_AXI_RESP_OKAY
  DRIVER_RETURN_ITEM           XIL_AXI_NO_RETURN 
  CREATION_TIME                525000
  SUBMIT_TIME                  0
  PAYLOAD                      64
    BEAT[          0]          0xd6d55da6f3901f26c927cdc498c8e1ca (strb : 0b1111111111111111) :beat_delay:         0
    BEAT[          1]          0xf5663b81ffa5eac1401eb8548a46a9fe (strb : 0b1111111111111111) :beat_delay:         0
    BEAT[          2]          0x2375cd22b05b950477f9015736494505 (strb : 0b1111111111111111) :beat_delay:         0
    BEAT[          3]          0x7904a8269f14f7c05683e15fbfa88d73 (strb : 0b1111111111111111) :beat_delay:         0
--------------------------------------------------------------------------------------------
INFO: [Master VIP_wr_driver] (axi_vip_pkg.axi_mst_wr_driver(C_AXI_ADDR_WIDTH=40,C_AXI_WDATA_WIDTH=128,C_AXI_RDATA_WIDTH=128,C_AXI_WID_WIDTH=16,C_AXI_RID_WIDTH=16,C_AXI_AWUSER_WIDTH=16,C_AXI_ARUSER_WIDTH=16)::get_and_drive.GET_AND_DRIVE) 525000 : Sending transaction: 
INFO: [Master VIP_wr_driver] (axi_vip_pkg.axi_mst_wr_driver(C_AXI_ADDR_WIDTH=40,C_AXI_WDATA_WIDTH=128,C_AXI_RDATA_WIDTH=128,C_AXI_WID_WIDTH=16,C_AXI_RID_WIDTH=16,C_AXI_AWUSER_WIDTH=16,C_AXI_ARUSER_WIDTH=16)::get_and_drive.GET_AND_DRIVE) 525000 : ---------------------------------------------------------------------------------------------
  Name                         Value
---------------------------------------------------------------------------------------------
  CMD                          XIL_AXI_WRITE
  ADDR                         0x0000004800008100 
  WID                          0x000001ad
  LEN                          0x03
  SIZE                         0x100
  BURST                        0x01
  CACHE                        0x0001
  LOCK                         0x00
  PROT                         0x000
  REGION                       0x1000
  QOS                          0x1110
  AWUSER                       0xdfdea8bf7c8565f9bb7fda766cbb2bd9d63dbcacc9cfb0936511f3ca2ff2af5f31f88f6310d3f7217cb22df9fa4e16f4ea7912d4accffa591d71593a756d87ea8f5bfe1e8d3f3e1a0fd50f1f5778e3aefd24c4fa295f0b52a76ba24e4303cf8678b19bf1b5725e6a2920275292b1ac25a56f704addc600bb0e4e6f1cb499a469
  BRESP                        XIL_AXI_RESP_OKAY
  DRIVER_RETURN_ITEM           XIL_AXI_NO_RETURN 
  CREATION_TIME                525000
  SUBMIT_TIME                  0
  PAYLOAD                      64
    BEAT[          0]          0xfc46198bfc66cec27d05889be3776c7f (strb : 0b1111111111111111) :beat_delay:         0
    BEAT[          1]          0x3e0c365e97ccdfce966fd20f883cc38e (strb : 0b1111111111111111) :beat_delay:         0
    BEAT[          2]          0xac07116b156b76da625ca813470217d0 (strb : 0b1111111111111111) :beat_delay:         0
    BEAT[          3]          0x0e37106cd923ab059c3f66ee0e24b31d (strb : 0b1111111111111111) :beat_delay:         0
--------------------------------------------------------------------------------------------
INFO: [Master VIP_wr_driver] (axi_vip_pkg.axi_mst_wr_driver(C_AXI_ADDR_WIDTH=40,C_AXI_WDATA_WIDTH=128,C_AXI_RDATA_WIDTH=128,C_AXI_WID_WIDTH=16,C_AXI_RID_WIDTH=16,C_AXI_AWUSER_WIDTH=16,C_AXI_ARUSER_WIDTH=16)::get_and_drive.GET_AND_DRIVE) 525000 : Sending transaction: 
INFO: [Master VIP_wr_driver] (axi_vip_pkg.axi_mst_wr_driver(C_AXI_ADDR_WIDTH=40,C_AXI_WDATA_WIDTH=128,C_AXI_RDATA_WIDTH=128,C_AXI_WID_WIDTH=16,C_AXI_RID_WIDTH=16,C_AXI_AWUSER_WIDTH=16,C_AXI_ARUSER_WIDTH=16)::get_and_drive.GET_AND_DRIVE) 525000 : ---------------------------------------------------------------------------------------------
  Name                         Value
---------------------------------------------------------------------------------------------
  CMD                          XIL_AXI_WRITE
  ADDR                         0x0000001000000140 
  WID                          0x0000018d
  LEN                          0x03
  SIZE                         0x100
  BURST                        0x01
  CACHE                        0x1110
  LOCK                         0x00
  PROT                         0x010
  REGION                       0x0010
  QOS                          0x0101
  AWUSER                       0x625e47c41815fd30fcb584f94dd2f79b738419e7c02a6c80eb642cd6f78aa8ef4616b38c9537f22af0ee8ae17d442dfa8006a2006d7d75da8b4b1416827bc6046b1d41d637b5996fed1afcda15437b2a9650a02cedbabedbb6de366d38470d7023d7954726eb0d4d0ee7791d868ffe0dd7fdb0afae4c645c0c103518b509986a
  BRESP                        XIL_AXI_RESP_OKAY
  DRIVER_RETURN_ITEM           XIL_AXI_NO_RETURN 
  CREATION_TIME                525000
  SUBMIT_TIME                  0
  PAYLOAD                      64
    BEAT[          0]          0xcf2b598c786d1d7d818950ebab53ae58 (strb : 0b1111111111111111) :beat_delay:         0
    BEAT[          1]          0x204dd7a64570e3f49e1c29f86334b7f3 (strb : 0b1111111111111111) :beat_delay:         0
    BEAT[          2]          0x37ad31d685a88f57fa68de2aff224ccf (strb : 0b1111111111111111) :beat_delay:         0
    BEAT[          3]          0x000edfd361da085e231c42b1c33bc9aa (strb : 0b1111111111111111) :beat_delay:         0
--------------------------------------------------------------------------------------------
INFO: [Master VIP_wr_driver] (axi_vip_pkg.axi_mst_wr_driver(C_AXI_ADDR_WIDTH=40,C_AXI_WDATA_WIDTH=128,C_AXI_RDATA_WIDTH=128,C_AXI_WID_WIDTH=16,C_AXI_RID_WIDTH=16,C_AXI_AWUSER_WIDTH=16,C_AXI_ARUSER_WIDTH=16)::get_and_drive.GET_AND_DRIVE) 525000 : Sending transaction: 
INFO: [Master VIP_wr_driver] (axi_vip_pkg.axi_mst_wr_driver(C_AXI_ADDR_WIDTH=40,C_AXI_WDATA_WIDTH=128,C_AXI_RDATA_WIDTH=128,C_AXI_WID_WIDTH=16,C_AXI_RID_WIDTH=16,C_AXI_AWUSER_WIDTH=16,C_AXI_ARUSER_WIDTH=16)::get_and_drive.GET_AND_DRIVE) 525000 : ---------------------------------------------------------------------------------------------
  Name                         Value
---------------------------------------------------------------------------------------------
  CMD                          XIL_AXI_WRITE
  ADDR                         0x0000004800008140 
  WID                          0x000001ad
  LEN                          0x03
  SIZE                         0x100
  BURST                        0x01
  CACHE                        0x0011
  LOCK                         0x00
  PROT                         0x110
  REGION                       0x1100
  QOS                          0x0110
  AWUSER                       0xc703318b4ddf269f17b16e27b919bf79b7142365eadf7bdaab48255558385aba35cce4678a59ff185546c0a93571e26bfd70a7f12e5f325e39be6c73c5dcb7875b2e9ebcab9b295a5dcc44b3b7cb1769de61c3b0d59651a544d9da87c50b1f8733d1de6c86f4c90ad9dc05b40127180f6cf1aed0c5b6f182e49455c8e3a541c
  BRESP                        XIL_AXI_RESP_OKAY
  DRIVER_RETURN_ITEM           XIL_AXI_NO_RETURN 
  CREATION_TIME                525000
  SUBMIT_TIME                  0
  PAYLOAD                      64
    BEAT[          0]          0x64aa7296341534f5f183524c5c505c30 (strb : 0b1111111111111111) :beat_delay:         0
    BEAT[          1]          0x112525e051ec9875ba790eff1e392f10 (strb : 0b1111111111111111) :beat_delay:         0
    BEAT[          2]          0x20647c9a96ecb81eeba76576264fd188 (strb : 0b1111111111111111) :beat_delay:         0
    BEAT[          3]          0x50dc29a96697f61aa83754ca9994ebe2 (strb : 0b1111111111111111) :beat_delay:         0
--------------------------------------------------------------------------------------------
INFO: [Master VIP_wr_driver] (axi_vip_pkg.axi_mst_wr_driver(C_AXI_ADDR_WIDTH=40,C_AXI_WDATA_WIDTH=128,C_AXI_RDATA_WIDTH=128,C_AXI_WID_WIDTH=16,C_AXI_RID_WIDTH=16,C_AXI_AWUSER_WIDTH=16,C_AXI_ARUSER_WIDTH=16)::get_and_drive.GET_AND_DRIVE) 525000 : Sending transaction: 
INFO: [Master VIP_wr_driver] (axi_vip_pkg.axi_mst_wr_driver(C_AXI_ADDR_WIDTH=40,C_AXI_WDATA_WIDTH=128,C_AXI_RDATA_WIDTH=128,C_AXI_WID_WIDTH=16,C_AXI_RID_WIDTH=16,C_AXI_AWUSER_WIDTH=16,C_AXI_ARUSER_WIDTH=16)::get_and_drive.GET_AND_DRIVE) 525000 : ---------------------------------------------------------------------------------------------
  Name                         Value
---------------------------------------------------------------------------------------------
  CMD                          XIL_AXI_WRITE
  ADDR                         0x0000001000000180 
  WID                          0x0000018d
  LEN                          0x03
  SIZE                         0x100
  BURST                        0x01
  CACHE                        0x0111
  LOCK                         0x00
  PROT                         0x110
  REGION                       0x0000
  QOS                          0x0011
  AWUSER                       0x457baf8a069c0f0d2faef75f12859525565e23ac726961e4a66ac44cfcf2c6f968fef9d1418bd583e7a284cfc4a6f489e10b00c24caf9199422eed843949a7729be3d4373648776cc40f6e88ad841c5baa33c25496762e2cd1de40a398455e30d241e2a452a81ba5d90454b2fbc62cf72f06075ec5015c8a50ad5fa1964d0c2c
  BRESP                        XIL_AXI_RESP_OKAY
  DRIVER_RETURN_ITEM           XIL_AXI_NO_RETURN 
  CREATION_TIME                525000
  SUBMIT_TIME                  0
  PAYLOAD                      64
    BEAT[          0]          0x0dc9892cc70adf55550e81b1f9acb70a (strb : 0b1111111111111111) :beat_delay:         0
    BEAT[          1]          0x63cd0e14c18e8bdcfd7e70cc20864266 (strb : 0b1111111111111111) :beat_delay:         0
    BEAT[          2]          0x1a8cb50c68b0346c473ff3e52dfe2a76 (strb : 0b1111111111111111) :beat_delay:         0
    BEAT[          3]          0x90a24c052e4f5d6a463a232b87701d29 (strb : 0b1111111111111111) :beat_delay:         0
--------------------------------------------------------------------------------------------
INFO: [Master VIP_wr_driver] (axi_vip_pkg.axi_mst_wr_driver(C_AXI_ADDR_WIDTH=40,C_AXI_WDATA_WIDTH=128,C_AXI_RDATA_WIDTH=128,C_AXI_WID_WIDTH=16,C_AXI_RID_WIDTH=16,C_AXI_AWUSER_WIDTH=16,C_AXI_ARUSER_WIDTH=16)::get_and_drive.GET_AND_DRIVE) 525000 : Sending transaction: 
INFO: [Master VIP_wr_driver] (axi_vip_pkg.axi_mst_wr_driver(C_AXI_ADDR_WIDTH=40,C_AXI_WDATA_WIDTH=128,C_AXI_RDATA_WIDTH=128,C_AXI_WID_WIDTH=16,C_AXI_RID_WIDTH=16,C_AXI_AWUSER_WIDTH=16,C_AXI_ARUSER_WIDTH=16)::get_and_drive.GET_AND_DRIVE) 525000 : ---------------------------------------------------------------------------------------------
  Name                         Value
---------------------------------------------------------------------------------------------
  CMD                          XIL_AXI_WRITE
  ADDR                         0x0000004800008180 
  WID                          0x000001ad
  LEN                          0x03
  SIZE                         0x100
  BURST                        0x01
  CACHE                        0x0110
  LOCK                         0x00
  PROT                         0x100
  REGION                       0x1111
  QOS                          0x0001
  AWUSER                       0x291b2b527fc2f5ff9336d62667f5d9cf99220e323757d56ecacf4a9540a4ad810166e902c999c49399dd56335ec4bbbd225c2f440a710b14b0465260f39ca8e7cf5f129ecf9baa9fb75c4c6e80d2da0163eb89c726b1674dfbf21cf736d1756dd79046afe4e7c6c9192f553296ea5a2d64a2bfc954960ba9782449f07d3b31fa
  BRESP                        XIL_AXI_RESP_OKAY
  DRIVER_RETURN_ITEM           XIL_AXI_NO_RETURN 
  CREATION_TIME                525000
  SUBMIT_TIME                  0
  PAYLOAD                      64
    BEAT[          0]          0xe40b741180650b74630a491cdb860b9e (strb : 0b1111111111111111) :beat_delay:         0
    BEAT[          1]          0x99daa24b7aabddf99635f399f7c10e38 (strb : 0b1111111111111111) :beat_delay:         0
    BEAT[          2]          0xc7f4bf78caa9dec090314f812b900218 (strb : 0b1111111111111111) :beat_delay:         0
    BEAT[          3]          0x35802d800168387a2e5e9bd33cc2a8b1 (strb : 0b1111111111111111) :beat_delay:         0
--------------------------------------------------------------------------------------------
INFO: [Master VIP_wr_driver] (axi_vip_pkg.axi_mst_wr_driver(C_AXI_ADDR_WIDTH=40,C_AXI_WDATA_WIDTH=128,C_AXI_RDATA_WIDTH=128,C_AXI_WID_WIDTH=16,C_AXI_RID_WIDTH=16,C_AXI_AWUSER_WIDTH=16,C_AXI_ARUSER_WIDTH=16)::get_and_drive.GET_AND_DRIVE) 525000 : Sending transaction: 
INFO: [Master VIP_wr_driver] (axi_vip_pkg.axi_mst_wr_driver(C_AXI_ADDR_WIDTH=40,C_AXI_WDATA_WIDTH=128,C_AXI_RDATA_WIDTH=128,C_AXI_WID_WIDTH=16,C_AXI_RID_WIDTH=16,C_AXI_AWUSER_WIDTH=16,C_AXI_ARUSER_WIDTH=16)::get_and_drive.GET_AND_DRIVE) 525000 : ---------------------------------------------------------------------------------------------
  Name                         Value
---------------------------------------------------------------------------------------------
  CMD                          XIL_AXI_WRITE
  ADDR                         0x00000010000001c0 
  WID                          0x0000018d
  LEN                          0x03
  SIZE                         0x100
  BURST                        0x01
  CACHE                        0x0011
  LOCK                         0x00
  PROT                         0x010
  REGION                       0x1111
  QOS                          0x1100
  AWUSER                       0xd1569ea2993d04322bf311573342bd660617270cb8167a7030b85b613f1f137e9e626c3cab46de56791691f2e63750cc6fd583dfbeeb987df5dcaaeb45c23f8bce5e3c9ce3f5c8c7723c5be4aa245c54520f31a4d94e56b2dd7e16ba6b73f1d641b3b183ccb9e2992b751156fbbcfef73623d16c577cd3ae3fb33d7f6b0549d6
  BRESP                        XIL_AXI_RESP_OKAY
  DRIVER_RETURN_ITEM           XIL_AXI_NO_RETURN 
  CREATION_TIME                525000
  SUBMIT_TIME                  0
  PAYLOAD                      64
    BEAT[          0]          0x6a4ee9674c6c66574bd12ebd59620fdc (strb : 0b1111111111111111) :beat_delay:         0
    BEAT[          1]          0x93f2b460bc366ca1227229b7e5faa559 (strb : 0b1111111111111111) :beat_delay:         0
    BEAT[          2]          0xd52da69bdd431a05ee6f96cd674459ae (strb : 0b1111111111111111) :beat_delay:         0
    BEAT[          3]          0xff68ad4c8922803c8721e274c1ae56e1 (strb : 0b1111111111111111) :beat_delay:         0
--------------------------------------------------------------------------------------------
INFO: [Master VIP_wr_driver] (axi_vip_pkg.axi_mst_wr_driver(C_AXI_ADDR_WIDTH=40,C_AXI_WDATA_WIDTH=128,C_AXI_RDATA_WIDTH=128,C_AXI_WID_WIDTH=16,C_AXI_RID_WIDTH=16,C_AXI_AWUSER_WIDTH=16,C_AXI_ARUSER_WIDTH=16)::get_and_drive.GET_AND_DRIVE) 525000 : Sending transaction: 
INFO: [Master VIP_wr_driver] (axi_vip_pkg.axi_mst_wr_driver(C_AXI_ADDR_WIDTH=40,C_AXI_WDATA_WIDTH=128,C_AXI_RDATA_WIDTH=128,C_AXI_WID_WIDTH=16,C_AXI_RID_WIDTH=16,C_AXI_AWUSER_WIDTH=16,C_AXI_ARUSER_WIDTH=16)::get_and_drive.GET_AND_DRIVE) 525000 : ---------------------------------------------------------------------------------------------
  Name                         Value
---------------------------------------------------------------------------------------------
  CMD                          XIL_AXI_WRITE
  ADDR                         0x00000048000081c0 
  WID                          0x000001ad
  LEN                          0x03
  SIZE                         0x100
  BURST                        0x01
  CACHE                        0x0001
  LOCK                         0x00
  PROT                         0x010
  REGION                       0x0001
  QOS                          0x1000
  AWUSER                       0x6078f1c0f53736ea03d51307c4f5d0891b89bb371db1553b12aa85258ae350153b8cb777cb81b09741f76b83b1cf5863e2969ac5127bcf2477f959ef8c79cc182422d94844b4f1893676a36c2c8e51591887a731ffc81cff39125f724648478c4b29f7963fda197f70605fe023d6d747b7717c6e7c5d65f86db939db0c80e119
  BRESP                        XIL_AXI_RESP_OKAY
  DRIVER_RETURN_ITEM           XIL_AXI_NO_RETURN 
  CREATION_TIME                525000
  SUBMIT_TIME                  0
  PAYLOAD                      64
    BEAT[          0]          0xd2f30247bf32aed75e69eadeaaa10ac8 (strb : 0b1111111111111111) :beat_delay:         0
    BEAT[          1]          0xe5b63f250618a0ffdf673d78f3c04480 (strb : 0b1111111111111111) :beat_delay:         0
    BEAT[          2]          0x9377c8964a244011a778da75a5e87b1c (strb : 0b1111111111111111) :beat_delay:         0
    BEAT[          3]          0x123a6b3bd9af5e97f89d40b1f7baadcd (strb : 0b1111111111111111) :beat_delay:         0
--------------------------------------------------------------------------------------------
INFO: [Master VIP_wr_driver] (axi_vip_pkg.axi_mst_wr_driver(C_AXI_ADDR_WIDTH=40,C_AXI_WDATA_WIDTH=128,C_AXI_RDATA_WIDTH=128,C_AXI_WID_WIDTH=16,C_AXI_RID_WIDTH=16,C_AXI_AWUSER_WIDTH=16,C_AXI_ARUSER_WIDTH=16)::w_channel.W_CHANNEL.Block10274_317.Block10274_318) 565000 : WREADY (         0) id=0x0000018d
INFO: [Master VIP_wr_driver] (axi_vip_pkg.axi_mst_wr_driver(C_AXI_ADDR_WIDTH=40,C_AXI_WDATA_WIDTH=128,C_AXI_RDATA_WIDTH=128,C_AXI_WID_WIDTH=16,C_AXI_RID_WIDTH=16,C_AXI_AWUSER_WIDTH=16,C_AXI_ARUSER_WIDTH=16)::w_channel.W_CHANNEL.Block10274_317.Block10274_318) 565000 : WREADY (         0) id=0x000001ad
INFO: [Master VIP_wr_driver] (axi_vip_pkg.axi_mst_wr_driver(C_AXI_ADDR_WIDTH=40,C_AXI_WDATA_WIDTH=128,C_AXI_RDATA_WIDTH=128,C_AXI_WID_WIDTH=16,C_AXI_RID_WIDTH=16,C_AXI_AWUSER_WIDTH=16,C_AXI_ARUSER_WIDTH=16)::w_channel.W_CHANNEL.Block10274_317.Block10274_318) 575000 : WREADY (         1) id=0x000001ad
INFO: [Master VIP_wr_driver] (axi_vip_pkg.axi_mst_wr_driver(C_AXI_ADDR_WIDTH=40,C_AXI_WDATA_WIDTH=128,C_AXI_RDATA_WIDTH=128,C_AXI_WID_WIDTH=16,C_AXI_RID_WIDTH=16,C_AXI_AWUSER_WIDTH=16,C_AXI_ARUSER_WIDTH=16)::w_channel.W_CHANNEL.Block10274_317.Block10274_318) 575000 : WREADY (         1) id=0x0000018d
INFO: [Master VIP_wr_driver] (axi_vip_pkg.axi_mst_wr_driver(C_AXI_ADDR_WIDTH=40,C_AXI_WDATA_WIDTH=128,C_AXI_RDATA_WIDTH=128,C_AXI_WID_WIDTH=16,C_AXI_RID_WIDTH=16,C_AXI_AWUSER_WIDTH=16,C_AXI_ARUSER_WIDTH=16)::w_channel.W_CHANNEL.Block10274_317.Block10274_318) 585000 : WREADY (         2) id=0x0000018d
INFO: [Master VIP_wr_driver] (axi_vip_pkg.axi_mst_wr_driver(C_AXI_ADDR_WIDTH=40,C_AXI_WDATA_WIDTH=128,C_AXI_RDATA_WIDTH=128,C_AXI_WID_WIDTH=16,C_AXI_RID_WIDTH=16,C_AXI_AWUSER_WIDTH=16,C_AXI_ARUSER_WIDTH=16)::w_channel.W_CHANNEL.Block10274_317.Block10274_318) 585000 : WREADY (         2) id=0x000001ad
INFO: [Master VIP_wr_driver] (axi_vip_pkg.axi_mst_wr_driver(C_AXI_ADDR_WIDTH=40,C_AXI_WDATA_WIDTH=128,C_AXI_RDATA_WIDTH=128,C_AXI_WID_WIDTH=16,C_AXI_RID_WIDTH=16,C_AXI_AWUSER_WIDTH=16,C_AXI_ARUSER_WIDTH=16)::w_channel.W_CHANNEL.Block10274_317.Block10274_318) 595000 : WREADY+WLAST (         3) id=0x000001ad
INFO: [Master VIP_wr_driver] (axi_vip_pkg.axi_mst_wr_driver(C_AXI_ADDR_WIDTH=40,C_AXI_WDATA_WIDTH=128,C_AXI_RDATA_WIDTH=128,C_AXI_WID_WIDTH=16,C_AXI_RID_WIDTH=16,C_AXI_AWUSER_WIDTH=16,C_AXI_ARUSER_WIDTH=16)::w_channel.W_CHANNEL.Block10274_317.Block10274_318) 595000 : WREADY+WLAST (         3) id=0x0000018d
INFO: [Master VIP_wr_driver] (axi_vip_pkg.axi_mst_wr_driver(C_AXI_ADDR_WIDTH=40,C_AXI_WDATA_WIDTH=128,C_AXI_RDATA_WIDTH=128,C_AXI_WID_WIDTH=16,C_AXI_RID_WIDTH=16,C_AXI_AWUSER_WIDTH=16,C_AXI_ARUSER_WIDTH=16)::w_channel.W_CHANNEL.Block10274_317.Block10274_318) 625000 : WREADY (         0) id=0x0000018d
INFO: [Master VIP_wr_driver] (axi_vip_pkg.axi_mst_wr_driver(C_AXI_ADDR_WIDTH=40,C_AXI_WDATA_WIDTH=128,C_AXI_RDATA_WIDTH=128,C_AXI_WID_WIDTH=16,C_AXI_RID_WIDTH=16,C_AXI_AWUSER_WIDTH=16,C_AXI_ARUSER_WIDTH=16)::w_channel.W_CHANNEL.Block10274_317.Block10274_318) 625000 : WREADY (         0) id=0x000001ad
INFO: [Master VIP_wr_driver] (axi_vip_pkg.axi_mst_wr_driver(C_AXI_ADDR_WIDTH=40,C_AXI_WDATA_WIDTH=128,C_AXI_RDATA_WIDTH=128,C_AXI_WID_WIDTH=16,C_AXI_RID_WIDTH=16,C_AXI_AWUSER_WIDTH=16,C_AXI_ARUSER_WIDTH=16)::w_channel.W_CHANNEL.Block10274_317.Block10274_318) 635000 : WREADY (         1) id=0x000001ad
INFO: [Master VIP_wr_driver] (axi_vip_pkg.axi_mst_wr_driver(C_AXI_ADDR_WIDTH=40,C_AXI_WDATA_WIDTH=128,C_AXI_RDATA_WIDTH=128,C_AXI_WID_WIDTH=16,C_AXI_RID_WIDTH=16,C_AXI_AWUSER_WIDTH=16,C_AXI_ARUSER_WIDTH=16)::w_channel.W_CHANNEL.Block10274_317.Block10274_318) 635000 : WREADY (         1) id=0x0000018d
INFO: [Master VIP_wr_driver] (axi_vip_pkg.axi_mst_wr_driver(C_AXI_ADDR_WIDTH=40,C_AXI_WDATA_WIDTH=128,C_AXI_RDATA_WIDTH=128,C_AXI_WID_WIDTH=16,C_AXI_RID_WIDTH=16,C_AXI_AWUSER_WIDTH=16,C_AXI_ARUSER_WIDTH=16)::w_channel.W_CHANNEL.Block10274_317.Block10274_318) 645000 : WREADY (         2) id=0x0000018d
INFO: [Master VIP_wr_driver] (axi_vip_pkg.axi_mst_wr_driver(C_AXI_ADDR_WIDTH=40,C_AXI_WDATA_WIDTH=128,C_AXI_RDATA_WIDTH=128,C_AXI_WID_WIDTH=16,C_AXI_RID_WIDTH=16,C_AXI_AWUSER_WIDTH=16,C_AXI_ARUSER_WIDTH=16)::w_channel.W_CHANNEL.Block10274_317.Block10274_318) 645000 : WREADY (         2) id=0x000001ad
INFO: [Master VIP_wr_driver] (axi_vip_pkg.axi_mst_wr_driver(C_AXI_ADDR_WIDTH=40,C_AXI_WDATA_WIDTH=128,C_AXI_RDATA_WIDTH=128,C_AXI_WID_WIDTH=16,C_AXI_RID_WIDTH=16,C_AXI_AWUSER_WIDTH=16,C_AXI_ARUSER_WIDTH=16)::w_channel.W_CHANNEL.Block10274_317.Block10274_318) 655000 : WREADY+WLAST (         3) id=0x000001ad
INFO: [Master VIP_wr_driver] (axi_vip_pkg.axi_mst_wr_driver(C_AXI_ADDR_WIDTH=40,C_AXI_WDATA_WIDTH=128,C_AXI_RDATA_WIDTH=128,C_AXI_WID_WIDTH=16,C_AXI_RID_WIDTH=16,C_AXI_AWUSER_WIDTH=16,C_AXI_ARUSER_WIDTH=16)::w_channel.W_CHANNEL.Block10274_317.Block10274_318) 655000 : WREADY+WLAST (         3) id=0x0000018d
INFO: [Master VIP_wr_driver] (axi_vip_pkg.axi_mst_wr_driver(C_AXI_ADDR_WIDTH=40,C_AXI_WDATA_WIDTH=128,C_AXI_RDATA_WIDTH=128,C_AXI_WID_WIDTH=16,C_AXI_RID_WIDTH=16,C_AXI_AWUSER_WIDTH=16,C_AXI_ARUSER_WIDTH=16)::w_channel.W_CHANNEL.Block10274_317.Block10274_318) 685000 : WREADY (         0) id=0x0000018d
INFO: [Master VIP_wr_driver] (axi_vip_pkg.axi_mst_wr_driver(C_AXI_ADDR_WIDTH=40,C_AXI_WDATA_WIDTH=128,C_AXI_RDATA_WIDTH=128,C_AXI_WID_WIDTH=16,C_AXI_RID_WIDTH=16,C_AXI_AWUSER_WIDTH=16,C_AXI_ARUSER_WIDTH=16)::w_channel.W_CHANNEL.Block10274_317.Block10274_318) 685000 : WREADY (         0) id=0x000001ad
INFO: [Master VIP_wr_driver] (axi_vip_pkg.axi_mst_wr_driver(C_AXI_ADDR_WIDTH=40,C_AXI_WDATA_WIDTH=128,C_AXI_RDATA_WIDTH=128,C_AXI_WID_WIDTH=16,C_AXI_RID_WIDTH=16,C_AXI_AWUSER_WIDTH=16,C_AXI_ARUSER_WIDTH=16)::w_channel.W_CHANNEL.Block10274_317.Block10274_318) 695000 : WREADY (         1) id=0x000001ad
INFO: [Master VIP_wr_driver] (axi_vip_pkg.axi_mst_wr_driver(C_AXI_ADDR_WIDTH=40,C_AXI_WDATA_WIDTH=128,C_AXI_RDATA_WIDTH=128,C_AXI_WID_WIDTH=16,C_AXI_RID_WIDTH=16,C_AXI_AWUSER_WIDTH=16,C_AXI_ARUSER_WIDTH=16)::w_channel.W_CHANNEL.Block10274_317.Block10274_318) 695000 : WREADY (         1) id=0x0000018d
INFO: [Master VIP_wr_driver] (axi_vip_pkg.axi_mst_wr_driver(C_AXI_ADDR_WIDTH=40,C_AXI_WDATA_WIDTH=128,C_AXI_RDATA_WIDTH=128,C_AXI_WID_WIDTH=16,C_AXI_RID_WIDTH=16,C_AXI_AWUSER_WIDTH=16,C_AXI_ARUSER_WIDTH=16)::w_channel.W_CHANNEL.Block10274_317.Block10274_318) 705000 : WREADY (         2) id=0x0000018d
INFO: [Master VIP_wr_driver] (axi_vip_pkg.axi_mst_wr_driver(C_AXI_ADDR_WIDTH=40,C_AXI_WDATA_WIDTH=128,C_AXI_RDATA_WIDTH=128,C_AXI_WID_WIDTH=16,C_AXI_RID_WIDTH=16,C_AXI_AWUSER_WIDTH=16,C_AXI_ARUSER_WIDTH=16)::w_channel.W_CHANNEL.Block10274_317.Block10274_318) 705000 : WREADY (         2) id=0x000001ad
INFO: [Master VIP_wr_driver] (axi_vip_pkg.axi_mst_wr_driver(C_AXI_ADDR_WIDTH=40,C_AXI_WDATA_WIDTH=128,C_AXI_RDATA_WIDTH=128,C_AXI_WID_WIDTH=16,C_AXI_RID_WIDTH=16,C_AXI_AWUSER_WIDTH=16,C_AXI_ARUSER_WIDTH=16)::w_channel.W_CHANNEL.Block10274_317.Block10274_318) 715000 : WREADY+WLAST (         3) id=0x000001ad
INFO: [Master VIP_wr_driver] (axi_vip_pkg.axi_mst_wr_driver(C_AXI_ADDR_WIDTH=40,C_AXI_WDATA_WIDTH=128,C_AXI_RDATA_WIDTH=128,C_AXI_WID_WIDTH=16,C_AXI_RID_WIDTH=16,C_AXI_AWUSER_WIDTH=16,C_AXI_ARUSER_WIDTH=16)::w_channel.W_CHANNEL.Block10274_317.Block10274_318) 715000 : WREADY+WLAST (         3) id=0x0000018d
INFO: [Master VIP_wr_driver] (axi_vip_pkg.axi_mst_wr_driver(C_AXI_ADDR_WIDTH=40,C_AXI_WDATA_WIDTH=128,C_AXI_RDATA_WIDTH=128,C_AXI_WID_WIDTH=16,C_AXI_RID_WIDTH=16,C_AXI_AWUSER_WIDTH=16,C_AXI_ARUSER_WIDTH=16)::w_channel.W_CHANNEL.Block10274_317.Block10274_318) 745000 : WREADY (         0) id=0x0000018d
INFO: [Master VIP_wr_driver] (axi_vip_pkg.axi_mst_wr_driver(C_AXI_ADDR_WIDTH=40,C_AXI_WDATA_WIDTH=128,C_AXI_RDATA_WIDTH=128,C_AXI_WID_WIDTH=16,C_AXI_RID_WIDTH=16,C_AXI_AWUSER_WIDTH=16,C_AXI_ARUSER_WIDTH=16)::w_channel.W_CHANNEL.Block10274_317.Block10274_318) 745000 : WREADY (         0) id=0x000001ad
INFO: [Master VIP_wr_driver] (axi_vip_pkg.axi_mst_wr_driver(C_AXI_ADDR_WIDTH=40,C_AXI_WDATA_WIDTH=128,C_AXI_RDATA_WIDTH=128,C_AXI_WID_WIDTH=16,C_AXI_RID_WIDTH=16,C_AXI_AWUSER_WIDTH=16,C_AXI_ARUSER_WIDTH=16)::w_channel.W_CHANNEL.Block10274_317.Block10274_318) 755000 : WREADY (         1) id=0x000001ad
INFO: [Master VIP_wr_driver] (axi_vip_pkg.axi_mst_wr_driver(C_AXI_ADDR_WIDTH=40,C_AXI_WDATA_WIDTH=128,C_AXI_RDATA_WIDTH=128,C_AXI_WID_WIDTH=16,C_AXI_RID_WIDTH=16,C_AXI_AWUSER_WIDTH=16,C_AXI_ARUSER_WIDTH=16)::w_channel.W_CHANNEL.Block10274_317.Block10274_318) 755000 : WREADY (         1) id=0x0000018d
INFO: [Master VIP_wr_driver] (axi_vip_pkg.axi_mst_wr_driver(C_AXI_ADDR_WIDTH=40,C_AXI_WDATA_WIDTH=128,C_AXI_RDATA_WIDTH=128,C_AXI_WID_WIDTH=16,C_AXI_RID_WIDTH=16,C_AXI_AWUSER_WIDTH=16,C_AXI_ARUSER_WIDTH=16)::w_channel.W_CHANNEL.Block10274_317.Block10274_318) 765000 : WREADY (         2) id=0x0000018d
INFO: [Master VIP_wr_driver] (axi_vip_pkg.axi_mst_wr_driver(C_AXI_ADDR_WIDTH=40,C_AXI_WDATA_WIDTH=128,C_AXI_RDATA_WIDTH=128,C_AXI_WID_WIDTH=16,C_AXI_RID_WIDTH=16,C_AXI_AWUSER_WIDTH=16,C_AXI_ARUSER_WIDTH=16)::w_channel.W_CHANNEL.Block10274_317.Block10274_318) 765000 : WREADY (         2) id=0x000001ad
INFO: [Master VIP_wr_driver] (axi_vip_pkg.axi_mst_wr_driver(C_AXI_ADDR_WIDTH=40,C_AXI_WDATA_WIDTH=128,C_AXI_RDATA_WIDTH=128,C_AXI_WID_WIDTH=16,C_AXI_RID_WIDTH=16,C_AXI_AWUSER_WIDTH=16,C_AXI_ARUSER_WIDTH=16)::w_channel.W_CHANNEL.Block10274_317.Block10274_318) 775000 : WREADY+WLAST (         3) id=0x000001ad
INFO: [Master VIP_wr_driver] (axi_vip_pkg.axi_mst_wr_driver(C_AXI_ADDR_WIDTH=40,C_AXI_WDATA_WIDTH=128,C_AXI_RDATA_WIDTH=128,C_AXI_WID_WIDTH=16,C_AXI_RID_WIDTH=16,C_AXI_AWUSER_WIDTH=16,C_AXI_ARUSER_WIDTH=16)::w_channel.W_CHANNEL.Block10274_317.Block10274_318) 775000 : WREADY+WLAST (         3) id=0x0000018d
INFO: [Slave VIP_wr_driver] (axi_vip_pkg.axi_slv_wr_driver(C_AXI_ADDR_WIDTH=40,C_AXI_WDATA_WIDTH=128,C_AXI_RDATA_WIDTH=128,C_AXI_WID_WIDTH=16,C_AXI_RID_WIDTH=16,C_AXI_AWUSER_WIDTH=1,C_AXI_ARUSER_WIDTH=1,C_AXI_HAS_REGION=0)::aw_channel.AW_CHANNEL) 795000 : AWVALID >>>
XIL_AXI_WRITE (59) A:0x0000000000000000 ID:0x0000018d len:0x03 XIL_AXI_SIZE_16BYTE XIL_AXI_BURST_TYPE_INCR C:0b0010 L:XIL_AXI_ALOCK_NOLOCK P:0b001<<<
INFO: [Slave VIP_wr_driver] (axi_vip_pkg.axi_slv_wr_driver(C_AXI_ADDR_WIDTH=40,C_AXI_WDATA_WIDTH=128,C_AXI_RDATA_WIDTH=128,C_AXI_WID_WIDTH=16,C_AXI_RID_WIDTH=16,C_AXI_AWUSER_WIDTH=1,C_AXI_ARUSER_WIDTH=1,C_AXI_HAS_REGION=0)::w_channel.W_CHANNEL) 805000 : W BEAT -- write_beat     Last:0 D:0xbd5cc5e8cef28f1277e5aac5c6f98ced BE:0b1111111111111111 
INFO: [Master VIP_wr_driver] (axi_vip_pkg.axi_mst_wr_driver(C_AXI_ADDR_WIDTH=40,C_AXI_WDATA_WIDTH=128,C_AXI_RDATA_WIDTH=128,C_AXI_WID_WIDTH=16,C_AXI_RID_WIDTH=16,C_AXI_AWUSER_WIDTH=16,C_AXI_ARUSER_WIDTH=16)::w_channel.W_CHANNEL.Block10274_317.Block10274_318) 805000 : WREADY (         0) id=0x0000018d
INFO: [Master VIP_wr_driver] (axi_vip_pkg.axi_mst_wr_driver(C_AXI_ADDR_WIDTH=40,C_AXI_WDATA_WIDTH=128,C_AXI_RDATA_WIDTH=128,C_AXI_WID_WIDTH=16,C_AXI_RID_WIDTH=16,C_AXI_AWUSER_WIDTH=16,C_AXI_ARUSER_WIDTH=16)::w_channel.W_CHANNEL.Block10274_317.Block10274_318) 805000 : WREADY (         0) id=0x000001ad
INFO: [Master VIP_wr_driver] (axi_vip_pkg.axi_mst_wr_driver(C_AXI_ADDR_WIDTH=40,C_AXI_WDATA_WIDTH=128,C_AXI_RDATA_WIDTH=128,C_AXI_WID_WIDTH=16,C_AXI_RID_WIDTH=16,C_AXI_AWUSER_WIDTH=16,C_AXI_ARUSER_WIDTH=16)::w_channel.W_CHANNEL.Block10274_317.Block10274_318) 815000 : WREADY (         1) id=0x000001ad
INFO: [Master VIP_wr_driver] (axi_vip_pkg.axi_mst_wr_driver(C_AXI_ADDR_WIDTH=40,C_AXI_WDATA_WIDTH=128,C_AXI_RDATA_WIDTH=128,C_AXI_WID_WIDTH=16,C_AXI_RID_WIDTH=16,C_AXI_AWUSER_WIDTH=16,C_AXI_ARUSER_WIDTH=16)::w_channel.W_CHANNEL.Block10274_317.Block10274_318) 815000 : WREADY (         1) id=0x0000018d
INFO: [Master VIP_wr_driver] (axi_vip_pkg.axi_mst_wr_driver(C_AXI_ADDR_WIDTH=40,C_AXI_WDATA_WIDTH=128,C_AXI_RDATA_WIDTH=128,C_AXI_WID_WIDTH=16,C_AXI_RID_WIDTH=16,C_AXI_AWUSER_WIDTH=16,C_AXI_ARUSER_WIDTH=16)::w_channel.W_CHANNEL.Block10274_317.Block10274_318) 825000 : WREADY (         2) id=0x0000018d
INFO: [Master VIP_wr_driver] (axi_vip_pkg.axi_mst_wr_driver(C_AXI_ADDR_WIDTH=40,C_AXI_WDATA_WIDTH=128,C_AXI_RDATA_WIDTH=128,C_AXI_WID_WIDTH=16,C_AXI_RID_WIDTH=16,C_AXI_AWUSER_WIDTH=16,C_AXI_ARUSER_WIDTH=16)::w_channel.W_CHANNEL.Block10274_317.Block10274_318) 825000 : WREADY (         2) id=0x000001ad
INFO: [Slave VIP_wr_driver] (axi_vip_pkg.axi_slv_wr_driver(C_AXI_ADDR_WIDTH=40,C_AXI_WDATA_WIDTH=128,C_AXI_RDATA_WIDTH=128,C_AXI_WID_WIDTH=16,C_AXI_RID_WIDTH=16,C_AXI_AWUSER_WIDTH=1,C_AXI_ARUSER_WIDTH=1,C_AXI_HAS_REGION=0)::w_channel.W_CHANNEL) 835000 : W BEAT -- write_beat     Last:0 D:0xae02d56b530d13969daa20800a63652d BE:0b1111111111111111 
INFO: [Master VIP_wr_driver] (axi_vip_pkg.axi_mst_wr_driver(C_AXI_ADDR_WIDTH=40,C_AXI_WDATA_WIDTH=128,C_AXI_RDATA_WIDTH=128,C_AXI_WID_WIDTH=16,C_AXI_RID_WIDTH=16,C_AXI_AWUSER_WIDTH=16,C_AXI_ARUSER_WIDTH=16)::w_channel.W_CHANNEL.Block10274_317.Block10274_318) 835000 : WREADY+WLAST (         3) id=0x000001ad
INFO: [Master VIP_wr_driver] (axi_vip_pkg.axi_mst_wr_driver(C_AXI_ADDR_WIDTH=40,C_AXI_WDATA_WIDTH=128,C_AXI_RDATA_WIDTH=128,C_AXI_WID_WIDTH=16,C_AXI_RID_WIDTH=16,C_AXI_AWUSER_WIDTH=16,C_AXI_ARUSER_WIDTH=16)::w_channel.W_CHANNEL.Block10274_317.Block10274_318) 835000 : WREADY+WLAST (         3) id=0x0000018d
INFO: [Slave VIP_wr_driver] (axi_vip_pkg.axi_slv_wr_driver(C_AXI_ADDR_WIDTH=40,C_AXI_WDATA_WIDTH=128,C_AXI_RDATA_WIDTH=128,C_AXI_WID_WIDTH=16,C_AXI_RID_WIDTH=16,C_AXI_AWUSER_WIDTH=1,C_AXI_ARUSER_WIDTH=1,C_AXI_HAS_REGION=0)::w_channel.W_CHANNEL) 865000 : W BEAT -- write_beat     Last:0 D:0xaec6b6eb8978d8418af23cca0a23cf1d BE:0b1111111111111111 
INFO: [Master VIP_wr_driver] (axi_vip_pkg.axi_mst_wr_driver(C_AXI_ADDR_WIDTH=40,C_AXI_WDATA_WIDTH=128,C_AXI_RDATA_WIDTH=128,C_AXI_WID_WIDTH=16,C_AXI_RID_WIDTH=16,C_AXI_AWUSER_WIDTH=16,C_AXI_ARUSER_WIDTH=16)::w_channel.W_CHANNEL.Block10274_317.Block10274_318) 865000 : WREADY (         0) id=0x0000018d
INFO: [Master VIP_wr_driver] (axi_vip_pkg.axi_mst_wr_driver(C_AXI_ADDR_WIDTH=40,C_AXI_WDATA_WIDTH=128,C_AXI_RDATA_WIDTH=128,C_AXI_WID_WIDTH=16,C_AXI_RID_WIDTH=16,C_AXI_AWUSER_WIDTH=16,C_AXI_ARUSER_WIDTH=16)::w_channel.W_CHANNEL.Block10274_317.Block10274_318) 865000 : WREADY (         0) id=0x000001ad
INFO: [Master VIP_wr_driver] (axi_vip_pkg.axi_mst_wr_driver(C_AXI_ADDR_WIDTH=40,C_AXI_WDATA_WIDTH=128,C_AXI_RDATA_WIDTH=128,C_AXI_WID_WIDTH=16,C_AXI_RID_WIDTH=16,C_AXI_AWUSER_WIDTH=16,C_AXI_ARUSER_WIDTH=16)::w_channel.W_CHANNEL.Block10274_317.Block10274_318) 875000 : WREADY (         1) id=0x000001ad
INFO: [Master VIP_wr_driver] (axi_vip_pkg.axi_mst_wr_driver(C_AXI_ADDR_WIDTH=40,C_AXI_WDATA_WIDTH=128,C_AXI_RDATA_WIDTH=128,C_AXI_WID_WIDTH=16,C_AXI_RID_WIDTH=16,C_AXI_AWUSER_WIDTH=16,C_AXI_ARUSER_WIDTH=16)::w_channel.W_CHANNEL.Block10274_317.Block10274_318) 875000 : WREADY (         1) id=0x0000018d
INFO: [Master VIP_wr_driver] (axi_vip_pkg.axi_mst_wr_driver(C_AXI_ADDR_WIDTH=40,C_AXI_WDATA_WIDTH=128,C_AXI_RDATA_WIDTH=128,C_AXI_WID_WIDTH=16,C_AXI_RID_WIDTH=16,C_AXI_AWUSER_WIDTH=16,C_AXI_ARUSER_WIDTH=16)::w_channel.W_CHANNEL.Block10274_317.Block10274_318) 885000 : WREADY (         2) id=0x0000018d
INFO: [Master VIP_wr_driver] (axi_vip_pkg.axi_mst_wr_driver(C_AXI_ADDR_WIDTH=40,C_AXI_WDATA_WIDTH=128,C_AXI_RDATA_WIDTH=128,C_AXI_WID_WIDTH=16,C_AXI_RID_WIDTH=16,C_AXI_AWUSER_WIDTH=16,C_AXI_ARUSER_WIDTH=16)::w_channel.W_CHANNEL.Block10274_317.Block10274_318) 885000 : WREADY (         2) id=0x000001ad
INFO: [Slave VIP_wr_driver] (axi_vip_pkg.axi_slv_wr_driver(C_AXI_ADDR_WIDTH=40,C_AXI_WDATA_WIDTH=128,C_AXI_RDATA_WIDTH=128,C_AXI_WID_WIDTH=16,C_AXI_RID_WIDTH=16,C_AXI_AWUSER_WIDTH=1,C_AXI_ARUSER_WIDTH=1,C_AXI_HAS_REGION=0)::w_channel.W_CHANNEL) 895000 : W LAST -- write_beat     Last:1 D:0x8f9f4c62d9f1157e3a3b4f85710b2abc BE:0b1111111111111111 
INFO: [Master VIP_wr_driver] (axi_vip_pkg.axi_mst_wr_driver(C_AXI_ADDR_WIDTH=40,C_AXI_WDATA_WIDTH=128,C_AXI_RDATA_WIDTH=128,C_AXI_WID_WIDTH=16,C_AXI_RID_WIDTH=16,C_AXI_AWUSER_WIDTH=16,C_AXI_ARUSER_WIDTH=16)::w_channel.W_CHANNEL.Block10274_317.Block10274_318) 895000 : WREADY+WLAST (         3) id=0x000001ad
INFO: [Master VIP_wr_driver] (axi_vip_pkg.axi_mst_wr_driver(C_AXI_ADDR_WIDTH=40,C_AXI_WDATA_WIDTH=128,C_AXI_RDATA_WIDTH=128,C_AXI_WID_WIDTH=16,C_AXI_RID_WIDTH=16,C_AXI_AWUSER_WIDTH=16,C_AXI_ARUSER_WIDTH=16)::w_channel.W_CHANNEL.Block10274_317.Block10274_318) 895000 : WREADY+WLAST (         3) id=0x0000018d
INFO: [Slave VIP_wr_driver] (axi_vip_pkg.axi_slv_wr_driver(C_AXI_ADDR_WIDTH=40,C_AXI_WDATA_WIDTH=128,C_AXI_RDATA_WIDTH=128,C_AXI_WID_WIDTH=16,C_AXI_RID_WIDTH=16,C_AXI_AWUSER_WIDTH=1,C_AXI_ARUSER_WIDTH=1,C_AXI_HAS_REGION=0)::push_reactive_q) 895000 : PUSH_REACTIVE_Q: PUSH (         0) >>> XIL_AXI_WRITE (59) A:0x0000000000000000 ID:0x0000018d len:0x03 XIL_AXI_SIZE_16BYTE XIL_AXI_BURST_TYPE_INCR C:0b0010 L:XIL_AXI_ALOCK_NOLOCK P:0b001 <<<
INFO: [Slave VIP_wr_driver] (axi_vip_pkg.axi_slv_wr_driver(C_AXI_ADDR_WIDTH=40,C_AXI_WDATA_WIDTH=128,C_AXI_RDATA_WIDTH=128,C_AXI_WID_WIDTH=16,C_AXI_RID_WIDTH=16,C_AXI_AWUSER_WIDTH=1,C_AXI_ARUSER_WIDTH=1,C_AXI_HAS_REGION=0)::pop_reactive_q) 895000 : POP_REACTIVE_Q: (         1) >>> XIL_AXI_WRITE (59) A:0x0000000000000000 ID:0x0000018d len:0x03 XIL_AXI_SIZE_16BYTE XIL_AXI_BURST_TYPE_INCR C:0b0010 L:XIL_AXI_ALOCK_NOLOCK P:0b001 <<<
INFO: [Slave VIP_wr_driver] (axi_vip_pkg.axi_slv_wr_driver(C_AXI_ADDR_WIDTH=40,C_AXI_WDATA_WIDTH=128,C_AXI_RDATA_WIDTH=128,C_AXI_WID_WIDTH=16,C_AXI_RID_WIDTH=16,C_AXI_AWUSER_WIDTH=1,C_AXI_ARUSER_WIDTH=1,C_AXI_HAS_REGION=0)::get_and_drive.GET_AND_DRIVE) 895000 : GNI : XIL_AXI_WRITE (59) A:0x0000000000000000 ID:0x0000018d len:0x03 XIL_AXI_SIZE_16BYTE XIL_AXI_BURST_TYPE_INCR C:0b0010 L:XIL_AXI_ALOCK_NOLOCK P:0b001
INFO: [Slave VIP_wr_driver] (axi_vip_pkg.axi_slv_wr_driver(C_AXI_ADDR_WIDTH=40,C_AXI_WDATA_WIDTH=128,C_AXI_RDATA_WIDTH=128,C_AXI_WID_WIDTH=16,C_AXI_RID_WIDTH=16,C_AXI_AWUSER_WIDTH=1,C_AXI_ARUSER_WIDTH=1,C_AXI_HAS_REGION=0)::push_b_q) 895000 : B PUSH (         0)
INFO: [Slave VIP_wr_driver] (axi_vip_pkg.axi_slv_wr_driver(C_AXI_ADDR_WIDTH=40,C_AXI_WDATA_WIDTH=128,C_AXI_RDATA_WIDTH=128,C_AXI_WID_WIDTH=16,C_AXI_RID_WIDTH=16,C_AXI_AWUSER_WIDTH=1,C_AXI_ARUSER_WIDTH=1,C_AXI_HAS_REGION=0)::push_b_q) 895000 : ID=0x0000018d - State 0b0111
Entries in BQ : NumEntries:         0 >>> 
 <<<
Command       : XIL_AXI_WRITE (59) A:0x0000000000000000 ID:0x0000018d len:0x03 XIL_AXI_SIZE_16BYTE XIL_AXI_BURST_TYPE_INCR C:0b0010 L:XIL_AXI_ALOCK_NOLOCK P:0b001
INFO: [Master VIP_wr_driver] (axi_vip_pkg.axi_mst_wr_driver(C_AXI_ADDR_WIDTH=40,C_AXI_WDATA_WIDTH=128,C_AXI_RDATA_WIDTH=128,C_AXI_WID_WIDTH=16,C_AXI_RID_WIDTH=16,C_AXI_AWUSER_WIDTH=16,C_AXI_ARUSER_WIDTH=16)::service_done_q.SERVICE_DONE_Q) 905000 : SERVICE_DONE_Q: XIL_AXI_WRITE (16) A:0x0000001000000000 ID:0x0000018d len:0x03 XIL_AXI_SIZE_16BYTE XIL_AXI_BURST_TYPE_INCR C:0b0010 L:XIL_AXI_ALOCK_NOLOCK P:0b001
INFO: [Slave VIP_wr_driver] (axi_vip_pkg.axi_slv_wr_driver(C_AXI_ADDR_WIDTH=40,C_AXI_WDATA_WIDTH=128,C_AXI_RDATA_WIDTH=128,C_AXI_WID_WIDTH=16,C_AXI_RID_WIDTH=16,C_AXI_AWUSER_WIDTH=1,C_AXI_ARUSER_WIDTH=1,C_AXI_HAS_REGION=0)::service_done_q.SERVICE_DONE_Q) 905000 : SERVICE_DONE_Q: XIL_AXI_WRITE (59) A:0x0000000000000000 ID:0x0000018d len:0x03 XIL_AXI_SIZE_16BYTE XIL_AXI_BURST_TYPE_INCR C:0b0010 L:XIL_AXI_ALOCK_NOLOCK P:0b001
INFO: [Master VIP_wr_driver] (axi_vip_pkg.axi_mst_wr_driver(C_AXI_ADDR_WIDTH=40,C_AXI_WDATA_WIDTH=128,C_AXI_RDATA_WIDTH=128,C_AXI_WID_WIDTH=16,C_AXI_RID_WIDTH=16,C_AXI_AWUSER_WIDTH=16,C_AXI_ARUSER_WIDTH=16)::w_channel.W_CHANNEL.Block10274_317.Block10274_318) 925000 : WREADY (         0) id=0x0000018d
INFO: [Master VIP_wr_driver] (axi_vip_pkg.axi_mst_wr_driver(C_AXI_ADDR_WIDTH=40,C_AXI_WDATA_WIDTH=128,C_AXI_RDATA_WIDTH=128,C_AXI_WID_WIDTH=16,C_AXI_RID_WIDTH=16,C_AXI_AWUSER_WIDTH=16,C_AXI_ARUSER_WIDTH=16)::w_channel.W_CHANNEL.Block10274_317.Block10274_318) 925000 : WREADY (         0) id=0x000001ad
INFO: [Master VIP_wr_driver] (axi_vip_pkg.axi_mst_wr_driver(C_AXI_ADDR_WIDTH=40,C_AXI_WDATA_WIDTH=128,C_AXI_RDATA_WIDTH=128,C_AXI_WID_WIDTH=16,C_AXI_RID_WIDTH=16,C_AXI_AWUSER_WIDTH=16,C_AXI_ARUSER_WIDTH=16)::w_channel.W_CHANNEL.Block10274_317.Block10274_318) 935000 : WREADY (         1) id=0x000001ad
INFO: [Master VIP_wr_driver] (axi_vip_pkg.axi_mst_wr_driver(C_AXI_ADDR_WIDTH=40,C_AXI_WDATA_WIDTH=128,C_AXI_RDATA_WIDTH=128,C_AXI_WID_WIDTH=16,C_AXI_RID_WIDTH=16,C_AXI_AWUSER_WIDTH=16,C_AXI_ARUSER_WIDTH=16)::w_channel.W_CHANNEL.Block10274_317.Block10274_318) 935000 : WREADY (         1) id=0x0000018d
INFO: [Master VIP_wr_driver] (axi_vip_pkg.axi_mst_wr_driver(C_AXI_ADDR_WIDTH=40,C_AXI_WDATA_WIDTH=128,C_AXI_RDATA_WIDTH=128,C_AXI_WID_WIDTH=16,C_AXI_RID_WIDTH=16,C_AXI_AWUSER_WIDTH=16,C_AXI_ARUSER_WIDTH=16)::w_channel.W_CHANNEL.Block10274_317.Block10274_318) 945000 : WREADY (         2) id=0x0000018d
INFO: [Master VIP_wr_driver] (axi_vip_pkg.axi_mst_wr_driver(C_AXI_ADDR_WIDTH=40,C_AXI_WDATA_WIDTH=128,C_AXI_RDATA_WIDTH=128,C_AXI_WID_WIDTH=16,C_AXI_RID_WIDTH=16,C_AXI_AWUSER_WIDTH=16,C_AXI_ARUSER_WIDTH=16)::w_channel.W_CHANNEL.Block10274_317.Block10274_318) 945000 : WREADY (         2) id=0x000001ad
INFO: [Slave VIP_wr_driver] (axi_vip_pkg.axi_slv_wr_driver(C_AXI_ADDR_WIDTH=40,C_AXI_WDATA_WIDTH=128,C_AXI_RDATA_WIDTH=128,C_AXI_WID_WIDTH=16,C_AXI_RID_WIDTH=16,C_AXI_AWUSER_WIDTH=1,C_AXI_ARUSER_WIDTH=1,C_AXI_HAS_REGION=0)::aw_channel.AW_CHANNEL) 955000 : AWVALID >>>
XIL_AXI_WRITE (67) A:0x0000000800000000 ID:0x000081ad len:0x03 XIL_AXI_SIZE_16BYTE XIL_AXI_BURST_TYPE_INCR C:0b0110 L:XIL_AXI_ALOCK_NOLOCK P:0b000<<<
INFO: [Master VIP_wr_driver] (axi_vip_pkg.axi_mst_wr_driver(C_AXI_ADDR_WIDTH=40,C_AXI_WDATA_WIDTH=128,C_AXI_RDATA_WIDTH=128,C_AXI_WID_WIDTH=16,C_AXI_RID_WIDTH=16,C_AXI_AWUSER_WIDTH=16,C_AXI_ARUSER_WIDTH=16)::w_channel.W_CHANNEL.Block10274_317.Block10274_318) 955000 : WREADY+WLAST (         3) id=0x000001ad
INFO: [Master VIP_wr_driver] (axi_vip_pkg.axi_mst_wr_driver(C_AXI_ADDR_WIDTH=40,C_AXI_WDATA_WIDTH=128,C_AXI_RDATA_WIDTH=128,C_AXI_WID_WIDTH=16,C_AXI_RID_WIDTH=16,C_AXI_AWUSER_WIDTH=16,C_AXI_ARUSER_WIDTH=16)::w_channel.W_CHANNEL.Block10274_317.Block10274_318) 955000 : WREADY+WLAST (         3) id=0x0000018d
INFO: [Slave VIP_wr_driver] (axi_vip_pkg.axi_slv_wr_driver(C_AXI_ADDR_WIDTH=40,C_AXI_WDATA_WIDTH=128,C_AXI_RDATA_WIDTH=128,C_AXI_WID_WIDTH=16,C_AXI_RID_WIDTH=16,C_AXI_AWUSER_WIDTH=1,C_AXI_ARUSER_WIDTH=1,C_AXI_HAS_REGION=0)::w_channel.W_CHANNEL) 965000 : W BEAT -- write_beat     Last:0 D:0xb6eb8978d8418af23cca0a23cf1dae02 BE:0b1111111111111111 
INFO: [Master VIP_wr_driver] (axi_vip_pkg.axi_mst_wr_driver(C_AXI_ADDR_WIDTH=40,C_AXI_WDATA_WIDTH=128,C_AXI_RDATA_WIDTH=128,C_AXI_WID_WIDTH=16,C_AXI_RID_WIDTH=16,C_AXI_AWUSER_WIDTH=16,C_AXI_ARUSER_WIDTH=16)::w_channel.W_CHANNEL.Block10274_317.Block10274_318) 985000 : WREADY (         0) id=0x0000018d
INFO: [Master VIP_wr_driver] (axi_vip_pkg.axi_mst_wr_driver(C_AXI_ADDR_WIDTH=40,C_AXI_WDATA_WIDTH=128,C_AXI_RDATA_WIDTH=128,C_AXI_WID_WIDTH=16,C_AXI_RID_WIDTH=16,C_AXI_AWUSER_WIDTH=16,C_AXI_ARUSER_WIDTH=16)::w_channel.W_CHANNEL.Block10274_317.Block10274_318) 985000 : WREADY (         0) id=0x000001ad
INFO: [Slave VIP_wr_driver] (axi_vip_pkg.axi_slv_wr_driver(C_AXI_ADDR_WIDTH=40,C_AXI_WDATA_WIDTH=128,C_AXI_RDATA_WIDTH=128,C_AXI_WID_WIDTH=16,C_AXI_RID_WIDTH=16,C_AXI_AWUSER_WIDTH=1,C_AXI_ARUSER_WIDTH=1,C_AXI_HAS_REGION=0)::w_channel.W_CHANNEL) 995000 : W BEAT -- write_beat     Last:0 D:0x4c62d9f1157e3a3b4f85710b2abcaec6 BE:0b1111111111111111 
INFO: [Master VIP_wr_driver] (axi_vip_pkg.axi_mst_wr_driver(C_AXI_ADDR_WIDTH=40,C_AXI_WDATA_WIDTH=128,C_AXI_RDATA_WIDTH=128,C_AXI_WID_WIDTH=16,C_AXI_RID_WIDTH=16,C_AXI_AWUSER_WIDTH=16,C_AXI_ARUSER_WIDTH=16)::w_channel.W_CHANNEL.Block10274_317.Block10274_318) 995000 : WREADY (         1) id=0x000001ad
INFO: [Master VIP_wr_driver] (axi_vip_pkg.axi_mst_wr_driver(C_AXI_ADDR_WIDTH=40,C_AXI_WDATA_WIDTH=128,C_AXI_RDATA_WIDTH=128,C_AXI_WID_WIDTH=16,C_AXI_RID_WIDTH=16,C_AXI_AWUSER_WIDTH=16,C_AXI_ARUSER_WIDTH=16)::w_channel.W_CHANNEL.Block10274_317.Block10274_318) 995000 : WREADY (         1) id=0x0000018d
INFO: [Master VIP_wr_driver] (axi_vip_pkg.axi_mst_wr_driver(C_AXI_ADDR_WIDTH=40,C_AXI_WDATA_WIDTH=128,C_AXI_RDATA_WIDTH=128,C_AXI_WID_WIDTH=16,C_AXI_RID_WIDTH=16,C_AXI_AWUSER_WIDTH=16,C_AXI_ARUSER_WIDTH=16)::w_channel.W_CHANNEL.Block10274_317.Block10274_318) 1005000 : WREADY (         2) id=0x0000018d
INFO: [Master VIP_wr_driver] (axi_vip_pkg.axi_mst_wr_driver(C_AXI_ADDR_WIDTH=40,C_AXI_WDATA_WIDTH=128,C_AXI_RDATA_WIDTH=128,C_AXI_WID_WIDTH=16,C_AXI_RID_WIDTH=16,C_AXI_AWUSER_WIDTH=16,C_AXI_ARUSER_WIDTH=16)::w_channel.W_CHANNEL.Block10274_317.Block10274_318) 1005000 : WREADY (         2) id=0x000001ad
INFO: [Master VIP_wr_driver] (axi_vip_pkg.axi_mst_wr_driver(C_AXI_ADDR_WIDTH=40,C_AXI_WDATA_WIDTH=128,C_AXI_RDATA_WIDTH=128,C_AXI_WID_WIDTH=16,C_AXI_RID_WIDTH=16,C_AXI_AWUSER_WIDTH=16,C_AXI_ARUSER_WIDTH=16)::w_channel.W_CHANNEL.Block10274_317.Block10274_318) 1015000 : WREADY+WLAST (         3) id=0x000001ad
INFO: [Master VIP_wr_driver] (axi_vip_pkg.axi_mst_wr_driver(C_AXI_ADDR_WIDTH=40,C_AXI_WDATA_WIDTH=128,C_AXI_RDATA_WIDTH=128,C_AXI_WID_WIDTH=16,C_AXI_RID_WIDTH=16,C_AXI_AWUSER_WIDTH=16,C_AXI_ARUSER_WIDTH=16)::w_channel.W_CHANNEL.Block10274_317.Block10274_318) 1015000 : WREADY+WLAST (         3) id=0x0000018d
INFO: [Slave VIP_wr_driver] (axi_vip_pkg.axi_slv_wr_driver(C_AXI_ADDR_WIDTH=40,C_AXI_WDATA_WIDTH=128,C_AXI_RDATA_WIDTH=128,C_AXI_WID_WIDTH=16,C_AXI_RID_WIDTH=16,C_AXI_AWUSER_WIDTH=1,C_AXI_ARUSER_WIDTH=1,C_AXI_HAS_REGION=0)::w_channel.W_CHANNEL) 1025000 : W BEAT -- write_beat     Last:0 D:0xc8c20c9651d7d049895b5c9fb7f88f9f BE:0b1111111111111111 
INFO: [Slave VIP_wr_driver] (axi_vip_pkg.axi_slv_wr_driver(C_AXI_ADDR_WIDTH=40,C_AXI_WDATA_WIDTH=128,C_AXI_RDATA_WIDTH=128,C_AXI_WID_WIDTH=16,C_AXI_RID_WIDTH=16,C_AXI_AWUSER_WIDTH=1,C_AXI_ARUSER_WIDTH=1,C_AXI_HAS_REGION=0)::w_channel.W_CHANNEL) 1055000 : W LAST -- write_beat     Last:1 D:0x86582a3f495b7885d31f396d7e123d77 BE:0b1111111111111111 
INFO: [Slave VIP_wr_driver] (axi_vip_pkg.axi_slv_wr_driver(C_AXI_ADDR_WIDTH=40,C_AXI_WDATA_WIDTH=128,C_AXI_RDATA_WIDTH=128,C_AXI_WID_WIDTH=16,C_AXI_RID_WIDTH=16,C_AXI_AWUSER_WIDTH=1,C_AXI_ARUSER_WIDTH=1,C_AXI_HAS_REGION=0)::push_reactive_q) 1055000 : PUSH_REACTIVE_Q: PUSH (         0) >>> XIL_AXI_WRITE (67) A:0x0000000800000000 ID:0x000081ad len:0x03 XIL_AXI_SIZE_16BYTE XIL_AXI_BURST_TYPE_INCR C:0b0110 L:XIL_AXI_ALOCK_NOLOCK P:0b000 <<<
INFO: [Slave VIP_wr_driver] (axi_vip_pkg.axi_slv_wr_driver(C_AXI_ADDR_WIDTH=40,C_AXI_WDATA_WIDTH=128,C_AXI_RDATA_WIDTH=128,C_AXI_WID_WIDTH=16,C_AXI_RID_WIDTH=16,C_AXI_AWUSER_WIDTH=1,C_AXI_ARUSER_WIDTH=1,C_AXI_HAS_REGION=0)::pop_reactive_q) 1055000 : POP_REACTIVE_Q: (         1) >>> XIL_AXI_WRITE (67) A:0x0000000800000000 ID:0x000081ad len:0x03 XIL_AXI_SIZE_16BYTE XIL_AXI_BURST_TYPE_INCR C:0b0110 L:XIL_AXI_ALOCK_NOLOCK P:0b000 <<<
INFO: [Slave VIP_wr_driver] (axi_vip_pkg.axi_slv_wr_driver(C_AXI_ADDR_WIDTH=40,C_AXI_WDATA_WIDTH=128,C_AXI_RDATA_WIDTH=128,C_AXI_WID_WIDTH=16,C_AXI_RID_WIDTH=16,C_AXI_AWUSER_WIDTH=1,C_AXI_ARUSER_WIDTH=1,C_AXI_HAS_REGION=0)::get_and_drive.GET_AND_DRIVE) 1055000 : GNI : XIL_AXI_WRITE (67) A:0x0000000800000000 ID:0x000081ad len:0x03 XIL_AXI_SIZE_16BYTE XIL_AXI_BURST_TYPE_INCR C:0b0110 L:XIL_AXI_ALOCK_NOLOCK P:0b000
INFO: [Slave VIP_wr_driver] (axi_vip_pkg.axi_slv_wr_driver(C_AXI_ADDR_WIDTH=40,C_AXI_WDATA_WIDTH=128,C_AXI_RDATA_WIDTH=128,C_AXI_WID_WIDTH=16,C_AXI_RID_WIDTH=16,C_AXI_AWUSER_WIDTH=1,C_AXI_ARUSER_WIDTH=1,C_AXI_HAS_REGION=0)::push_b_q) 1055000 : B PUSH (         0)
INFO: [Slave VIP_wr_driver] (axi_vip_pkg.axi_slv_wr_driver(C_AXI_ADDR_WIDTH=40,C_AXI_WDATA_WIDTH=128,C_AXI_RDATA_WIDTH=128,C_AXI_WID_WIDTH=16,C_AXI_RID_WIDTH=16,C_AXI_AWUSER_WIDTH=1,C_AXI_ARUSER_WIDTH=1,C_AXI_HAS_REGION=0)::push_b_q) 1055000 : ID=0x000081ad - State 0b0111
Entries in BQ : NumEntries:         0 >>> 
 <<<
Command       : XIL_AXI_WRITE (67) A:0x0000000800000000 ID:0x000081ad len:0x03 XIL_AXI_SIZE_16BYTE XIL_AXI_BURST_TYPE_INCR C:0b0110 L:XIL_AXI_ALOCK_NOLOCK P:0b000
INFO: [Master VIP_wr_driver] (axi_vip_pkg.axi_mst_wr_driver(C_AXI_ADDR_WIDTH=40,C_AXI_WDATA_WIDTH=128,C_AXI_RDATA_WIDTH=128,C_AXI_WID_WIDTH=16,C_AXI_RID_WIDTH=16,C_AXI_AWUSER_WIDTH=16,C_AXI_ARUSER_WIDTH=16)::service_done_q.SERVICE_DONE_Q) 1065000 : SERVICE_DONE_Q: XIL_AXI_WRITE (17) A:0x0000004800008000 ID:0x000001ad len:0x03 XIL_AXI_SIZE_16BYTE XIL_AXI_BURST_TYPE_INCR C:0b0110 L:XIL_AXI_ALOCK_NOLOCK P:0b000
INFO: [Slave VIP_wr_driver] (axi_vip_pkg.axi_slv_wr_driver(C_AXI_ADDR_WIDTH=40,C_AXI_WDATA_WIDTH=128,C_AXI_RDATA_WIDTH=128,C_AXI_WID_WIDTH=16,C_AXI_RID_WIDTH=16,C_AXI_AWUSER_WIDTH=1,C_AXI_ARUSER_WIDTH=1,C_AXI_HAS_REGION=0)::service_done_q.SERVICE_DONE_Q) 1065000 : SERVICE_DONE_Q: XIL_AXI_WRITE (67) A:0x0000000800000000 ID:0x000081ad len:0x03 XIL_AXI_SIZE_16BYTE XIL_AXI_BURST_TYPE_INCR C:0b0110 L:XIL_AXI_ALOCK_NOLOCK P:0b000
INFO: [Slave VIP_wr_driver] (axi_vip_pkg.axi_slv_wr_driver(C_AXI_ADDR_WIDTH=40,C_AXI_WDATA_WIDTH=128,C_AXI_RDATA_WIDTH=128,C_AXI_WID_WIDTH=16,C_AXI_RID_WIDTH=16,C_AXI_AWUSER_WIDTH=1,C_AXI_ARUSER_WIDTH=1,C_AXI_HAS_REGION=0)::aw_channel.AW_CHANNEL) 1115000 : AWVALID >>>
XIL_AXI_WRITE (73) A:0x0000000800000040 ID:0x000081ad len:0x03 XIL_AXI_SIZE_16BYTE XIL_AXI_BURST_TYPE_INCR C:0b1111 L:XIL_AXI_ALOCK_NOLOCK P:0b011<<<
INFO: [Slave VIP_wr_driver] (axi_vip_pkg.axi_slv_wr_driver(C_AXI_ADDR_WIDTH=40,C_AXI_WDATA_WIDTH=128,C_AXI_RDATA_WIDTH=128,C_AXI_WID_WIDTH=16,C_AXI_RID_WIDTH=16,C_AXI_AWUSER_WIDTH=1,C_AXI_ARUSER_WIDTH=1,C_AXI_HAS_REGION=0)::w_channel.W_CHANNEL) 1125000 : W BEAT -- write_beat     Last:0 D:0xc3299b8f419149ff2c47203b2970db24 BE:0b1111111111111111 
INFO: [Slave VIP_wr_driver] (axi_vip_pkg.axi_slv_wr_driver(C_AXI_ADDR_WIDTH=40,C_AXI_WDATA_WIDTH=128,C_AXI_RDATA_WIDTH=128,C_AXI_WID_WIDTH=16,C_AXI_RID_WIDTH=16,C_AXI_AWUSER_WIDTH=1,C_AXI_ARUSER_WIDTH=1,C_AXI_HAS_REGION=0)::w_channel.W_CHANNEL) 1155000 : W BEAT -- write_beat     Last:0 D:0x8c833c373add1b2bbc32d75580fea1f7 BE:0b1111111111111111 
INFO: [Slave VIP_wr_driver] (axi_vip_pkg.axi_slv_wr_driver(C_AXI_ADDR_WIDTH=40,C_AXI_WDATA_WIDTH=128,C_AXI_RDATA_WIDTH=128,C_AXI_WID_WIDTH=16,C_AXI_RID_WIDTH=16,C_AXI_AWUSER_WIDTH=1,C_AXI_ARUSER_WIDTH=1,C_AXI_HAS_REGION=0)::w_channel.W_CHANNEL) 1185000 : W BEAT -- write_beat     Last:0 D:0x3a2ba1b087136ec6a76b91c551eecf9d BE:0b1111111111111111 
INFO: [Slave VIP_wr_driver] (axi_vip_pkg.axi_slv_wr_driver(C_AXI_ADDR_WIDTH=40,C_AXI_WDATA_WIDTH=128,C_AXI_RDATA_WIDTH=128,C_AXI_WID_WIDTH=16,C_AXI_RID_WIDTH=16,C_AXI_AWUSER_WIDTH=1,C_AXI_ARUSER_WIDTH=1,C_AXI_HAS_REGION=0)::w_channel.W_CHANNEL) 1215000 : W LAST -- write_beat     Last:1 D:0xb5c34d52aab57c8ec905c673ab3dd28c BE:0b1111111111111111 
INFO: [Slave VIP_wr_driver] (axi_vip_pkg.axi_slv_wr_driver(C_AXI_ADDR_WIDTH=40,C_AXI_WDATA_WIDTH=128,C_AXI_RDATA_WIDTH=128,C_AXI_WID_WIDTH=16,C_AXI_RID_WIDTH=16,C_AXI_AWUSER_WIDTH=1,C_AXI_ARUSER_WIDTH=1,C_AXI_HAS_REGION=0)::push_reactive_q) 1215000 : PUSH_REACTIVE_Q: PUSH (         0) >>> XIL_AXI_WRITE (73) A:0x0000000800000040 ID:0x000081ad len:0x03 XIL_AXI_SIZE_16BYTE XIL_AXI_BURST_TYPE_INCR C:0b1111 L:XIL_AXI_ALOCK_NOLOCK P:0b011 <<<
INFO: [Slave VIP_wr_driver] (axi_vip_pkg.axi_slv_wr_driver(C_AXI_ADDR_WIDTH=40,C_AXI_WDATA_WIDTH=128,C_AXI_RDATA_WIDTH=128,C_AXI_WID_WIDTH=16,C_AXI_RID_WIDTH=16,C_AXI_AWUSER_WIDTH=1,C_AXI_ARUSER_WIDTH=1,C_AXI_HAS_REGION=0)::pop_reactive_q) 1215000 : POP_REACTIVE_Q: (         1) >>> XIL_AXI_WRITE (73) A:0x0000000800000040 ID:0x000081ad len:0x03 XIL_AXI_SIZE_16BYTE XIL_AXI_BURST_TYPE_INCR C:0b1111 L:XIL_AXI_ALOCK_NOLOCK P:0b011 <<<
INFO: [Slave VIP_wr_driver] (axi_vip_pkg.axi_slv_wr_driver(C_AXI_ADDR_WIDTH=40,C_AXI_WDATA_WIDTH=128,C_AXI_RDATA_WIDTH=128,C_AXI_WID_WIDTH=16,C_AXI_RID_WIDTH=16,C_AXI_AWUSER_WIDTH=1,C_AXI_ARUSER_WIDTH=1,C_AXI_HAS_REGION=0)::get_and_drive.GET_AND_DRIVE) 1215000 : GNI : XIL_AXI_WRITE (73) A:0x0000000800000040 ID:0x000081ad len:0x03 XIL_AXI_SIZE_16BYTE XIL_AXI_BURST_TYPE_INCR C:0b1111 L:XIL_AXI_ALOCK_NOLOCK P:0b011
INFO: [Slave VIP_wr_driver] (axi_vip_pkg.axi_slv_wr_driver(C_AXI_ADDR_WIDTH=40,C_AXI_WDATA_WIDTH=128,C_AXI_RDATA_WIDTH=128,C_AXI_WID_WIDTH=16,C_AXI_RID_WIDTH=16,C_AXI_AWUSER_WIDTH=1,C_AXI_ARUSER_WIDTH=1,C_AXI_HAS_REGION=0)::push_b_q) 1215000 : B PUSH (         0)
INFO: [Slave VIP_wr_driver] (axi_vip_pkg.axi_slv_wr_driver(C_AXI_ADDR_WIDTH=40,C_AXI_WDATA_WIDTH=128,C_AXI_RDATA_WIDTH=128,C_AXI_WID_WIDTH=16,C_AXI_RID_WIDTH=16,C_AXI_AWUSER_WIDTH=1,C_AXI_ARUSER_WIDTH=1,C_AXI_HAS_REGION=0)::push_b_q) 1215000 : ID=0x000081ad - State 0b0111
Entries in BQ : NumEntries:         0 >>> 
 <<<
Command       : XIL_AXI_WRITE (73) A:0x0000000800000040 ID:0x000081ad len:0x03 XIL_AXI_SIZE_16BYTE XIL_AXI_BURST_TYPE_INCR C:0b1111 L:XIL_AXI_ALOCK_NOLOCK P:0b011
INFO: [Master VIP_wr_driver] (axi_vip_pkg.axi_mst_wr_driver(C_AXI_ADDR_WIDTH=40,C_AXI_WDATA_WIDTH=128,C_AXI_RDATA_WIDTH=128,C_AXI_WID_WIDTH=16,C_AXI_RID_WIDTH=16,C_AXI_AWUSER_WIDTH=16,C_AXI_ARUSER_WIDTH=16)::service_done_q.SERVICE_DONE_Q) 1225000 : SERVICE_DONE_Q: XIL_AXI_WRITE (21) A:0x0000004800008040 ID:0x000001ad len:0x03 XIL_AXI_SIZE_16BYTE XIL_AXI_BURST_TYPE_INCR C:0b1111 L:XIL_AXI_ALOCK_NOLOCK P:0b011
INFO: [Slave VIP_wr_driver] (axi_vip_pkg.axi_slv_wr_driver(C_AXI_ADDR_WIDTH=40,C_AXI_WDATA_WIDTH=128,C_AXI_RDATA_WIDTH=128,C_AXI_WID_WIDTH=16,C_AXI_RID_WIDTH=16,C_AXI_AWUSER_WIDTH=1,C_AXI_ARUSER_WIDTH=1,C_AXI_HAS_REGION=0)::service_done_q.SERVICE_DONE_Q) 1225000 : SERVICE_DONE_Q: XIL_AXI_WRITE (73) A:0x0000000800000040 ID:0x000081ad len:0x03 XIL_AXI_SIZE_16BYTE XIL_AXI_BURST_TYPE_INCR C:0b1111 L:XIL_AXI_ALOCK_NOLOCK P:0b011
INFO: [Slave VIP_wr_driver] (axi_vip_pkg.axi_slv_wr_driver(C_AXI_ADDR_WIDTH=40,C_AXI_WDATA_WIDTH=128,C_AXI_RDATA_WIDTH=128,C_AXI_WID_WIDTH=16,C_AXI_RID_WIDTH=16,C_AXI_AWUSER_WIDTH=1,C_AXI_ARUSER_WIDTH=1,C_AXI_HAS_REGION=0)::aw_channel.AW_CHANNEL) 1275000 : AWVALID >>>
XIL_AXI_WRITE (77) A:0x0000000800000080 ID:0x000081ad len:0x03 XIL_AXI_SIZE_16BYTE XIL_AXI_BURST_TYPE_INCR C:0b0111 L:XIL_AXI_ALOCK_NOLOCK P:0b010<<<
INFO: [Slave VIP_wr_driver] (axi_vip_pkg.axi_slv_wr_driver(C_AXI_ADDR_WIDTH=40,C_AXI_WDATA_WIDTH=128,C_AXI_RDATA_WIDTH=128,C_AXI_WID_WIDTH=16,C_AXI_RID_WIDTH=16,C_AXI_AWUSER_WIDTH=1,C_AXI_ARUSER_WIDTH=1,C_AXI_HAS_REGION=0)::w_channel.W_CHANNEL) 1285000 : W BEAT -- write_beat     Last:0 D:0xed2c202459b99b1f9cd09f6f96981bb7 BE:0b1111111111111111 
INFO: [Slave VIP_wr_driver] (axi_vip_pkg.axi_slv_wr_driver(C_AXI_ADDR_WIDTH=40,C_AXI_WDATA_WIDTH=128,C_AXI_RDATA_WIDTH=128,C_AXI_WID_WIDTH=16,C_AXI_RID_WIDTH=16,C_AXI_AWUSER_WIDTH=1,C_AXI_ARUSER_WIDTH=1,C_AXI_HAS_REGION=0)::w_channel.W_CHANNEL) 1315000 : W BEAT -- write_beat     Last:0 D:0x72f8779902132d06cff5a97c5e94f599 BE:0b1111111111111111 
INFO: [Slave VIP_wr_driver] (axi_vip_pkg.axi_slv_wr_driver(C_AXI_ADDR_WIDTH=40,C_AXI_WDATA_WIDTH=128,C_AXI_RDATA_WIDTH=128,C_AXI_WID_WIDTH=16,C_AXI_RID_WIDTH=16,C_AXI_AWUSER_WIDTH=1,C_AXI_ARUSER_WIDTH=1,C_AXI_HAS_REGION=0)::w_channel.W_CHANNEL) 1345000 : W BEAT -- write_beat     Last:0 D:0x9ff86c00e748de1452da7002b4521f1a BE:0b1111111111111111 
INFO: [Slave VIP_wr_driver] (axi_vip_pkg.axi_slv_wr_driver(C_AXI_ADDR_WIDTH=40,C_AXI_WDATA_WIDTH=128,C_AXI_RDATA_WIDTH=128,C_AXI_WID_WIDTH=16,C_AXI_RID_WIDTH=16,C_AXI_AWUSER_WIDTH=1,C_AXI_ARUSER_WIDTH=1,C_AXI_HAS_REGION=0)::w_channel.W_CHANNEL) 1375000 : W LAST -- write_beat     Last:1 D:0xfaa15fb975262d2c749d6068e5d4e3cd BE:0b1111111111111111 
INFO: [Slave VIP_wr_driver] (axi_vip_pkg.axi_slv_wr_driver(C_AXI_ADDR_WIDTH=40,C_AXI_WDATA_WIDTH=128,C_AXI_RDATA_WIDTH=128,C_AXI_WID_WIDTH=16,C_AXI_RID_WIDTH=16,C_AXI_AWUSER_WIDTH=1,C_AXI_ARUSER_WIDTH=1,C_AXI_HAS_REGION=0)::push_reactive_q) 1375000 : PUSH_REACTIVE_Q: PUSH (         0) >>> XIL_AXI_WRITE (77) A:0x0000000800000080 ID:0x000081ad len:0x03 XIL_AXI_SIZE_16BYTE XIL_AXI_BURST_TYPE_INCR C:0b0111 L:XIL_AXI_ALOCK_NOLOCK P:0b010 <<<
INFO: [Slave VIP_wr_driver] (axi_vip_pkg.axi_slv_wr_driver(C_AXI_ADDR_WIDTH=40,C_AXI_WDATA_WIDTH=128,C_AXI_RDATA_WIDTH=128,C_AXI_WID_WIDTH=16,C_AXI_RID_WIDTH=16,C_AXI_AWUSER_WIDTH=1,C_AXI_ARUSER_WIDTH=1,C_AXI_HAS_REGION=0)::pop_reactive_q) 1375000 : POP_REACTIVE_Q: (         1) >>> XIL_AXI_WRITE (77) A:0x0000000800000080 ID:0x000081ad len:0x03 XIL_AXI_SIZE_16BYTE XIL_AXI_BURST_TYPE_INCR C:0b0111 L:XIL_AXI_ALOCK_NOLOCK P:0b010 <<<
INFO: [Slave VIP_wr_driver] (axi_vip_pkg.axi_slv_wr_driver(C_AXI_ADDR_WIDTH=40,C_AXI_WDATA_WIDTH=128,C_AXI_RDATA_WIDTH=128,C_AXI_WID_WIDTH=16,C_AXI_RID_WIDTH=16,C_AXI_AWUSER_WIDTH=1,C_AXI_ARUSER_WIDTH=1,C_AXI_HAS_REGION=0)::get_and_drive.GET_AND_DRIVE) 1375000 : GNI : XIL_AXI_WRITE (77) A:0x0000000800000080 ID:0x000081ad len:0x03 XIL_AXI_SIZE_16BYTE XIL_AXI_BURST_TYPE_INCR C:0b0111 L:XIL_AXI_ALOCK_NOLOCK P:0b010
INFO: [Slave VIP_wr_driver] (axi_vip_pkg.axi_slv_wr_driver(C_AXI_ADDR_WIDTH=40,C_AXI_WDATA_WIDTH=128,C_AXI_RDATA_WIDTH=128,C_AXI_WID_WIDTH=16,C_AXI_RID_WIDTH=16,C_AXI_AWUSER_WIDTH=1,C_AXI_ARUSER_WIDTH=1,C_AXI_HAS_REGION=0)::push_b_q) 1375000 : B PUSH (         0)
INFO: [Slave VIP_wr_driver] (axi_vip_pkg.axi_slv_wr_driver(C_AXI_ADDR_WIDTH=40,C_AXI_WDATA_WIDTH=128,C_AXI_RDATA_WIDTH=128,C_AXI_WID_WIDTH=16,C_AXI_RID_WIDTH=16,C_AXI_AWUSER_WIDTH=1,C_AXI_ARUSER_WIDTH=1,C_AXI_HAS_REGION=0)::push_b_q) 1375000 : ID=0x000081ad - State 0b0111
Entries in BQ : NumEntries:         0 >>> 
 <<<
Command       : XIL_AXI_WRITE (77) A:0x0000000800000080 ID:0x000081ad len:0x03 XIL_AXI_SIZE_16BYTE XIL_AXI_BURST_TYPE_INCR C:0b0111 L:XIL_AXI_ALOCK_NOLOCK P:0b010
INFO: [Master VIP_wr_driver] (axi_vip_pkg.axi_mst_wr_driver(C_AXI_ADDR_WIDTH=40,C_AXI_WDATA_WIDTH=128,C_AXI_RDATA_WIDTH=128,C_AXI_WID_WIDTH=16,C_AXI_RID_WIDTH=16,C_AXI_AWUSER_WIDTH=16,C_AXI_ARUSER_WIDTH=16)::service_done_q.SERVICE_DONE_Q) 1385000 : SERVICE_DONE_Q: XIL_AXI_WRITE (25) A:0x0000004800008080 ID:0x000001ad len:0x03 XIL_AXI_SIZE_16BYTE XIL_AXI_BURST_TYPE_INCR C:0b0111 L:XIL_AXI_ALOCK_NOLOCK P:0b010
INFO: [Slave VIP_wr_driver] (axi_vip_pkg.axi_slv_wr_driver(C_AXI_ADDR_WIDTH=40,C_AXI_WDATA_WIDTH=128,C_AXI_RDATA_WIDTH=128,C_AXI_WID_WIDTH=16,C_AXI_RID_WIDTH=16,C_AXI_AWUSER_WIDTH=1,C_AXI_ARUSER_WIDTH=1,C_AXI_HAS_REGION=0)::service_done_q.SERVICE_DONE_Q) 1385000 : SERVICE_DONE_Q: XIL_AXI_WRITE (77) A:0x0000000800000080 ID:0x000081ad len:0x03 XIL_AXI_SIZE_16BYTE XIL_AXI_BURST_TYPE_INCR C:0b0111 L:XIL_AXI_ALOCK_NOLOCK P:0b010
INFO: [Slave VIP_wr_driver] (axi_vip_pkg.axi_slv_wr_driver(C_AXI_ADDR_WIDTH=40,C_AXI_WDATA_WIDTH=128,C_AXI_RDATA_WIDTH=128,C_AXI_WID_WIDTH=16,C_AXI_RID_WIDTH=16,C_AXI_AWUSER_WIDTH=1,C_AXI_ARUSER_WIDTH=1,C_AXI_HAS_REGION=0)::aw_channel.AW_CHANNEL) 1435000 : AWVALID >>>
XIL_AXI_WRITE (81) A:0x00000008000000c0 ID:0x000081ad len:0x03 XIL_AXI_SIZE_16BYTE XIL_AXI_BURST_TYPE_INCR C:0b0011 L:XIL_AXI_ALOCK_NOLOCK P:0b001<<<
INFO: [Slave VIP_wr_driver] (axi_vip_pkg.axi_slv_wr_driver(C_AXI_ADDR_WIDTH=40,C_AXI_WDATA_WIDTH=128,C_AXI_RDATA_WIDTH=128,C_AXI_WID_WIDTH=16,C_AXI_RID_WIDTH=16,C_AXI_AWUSER_WIDTH=1,C_AXI_ARUSER_WIDTH=1,C_AXI_HAS_REGION=0)::w_channel.W_CHANNEL) 1445000 : W BEAT -- write_beat     Last:0 D:0xadeb8d122f5bb8eddff4a060cbef1c3d BE:0b1111111111111111 
INFO: [Slave VIP_wr_driver] (axi_vip_pkg.axi_slv_wr_driver(C_AXI_ADDR_WIDTH=40,C_AXI_WDATA_WIDTH=128,C_AXI_RDATA_WIDTH=128,C_AXI_WID_WIDTH=16,C_AXI_RID_WIDTH=16,C_AXI_AWUSER_WIDTH=1,C_AXI_ARUSER_WIDTH=1,C_AXI_HAS_REGION=0)::w_channel.W_CHANNEL) 1475000 : W BEAT -- write_beat     Last:0 D:0xf175fe60a5caf6fc6370ceffdbdb7a9a BE:0b1111111111111111 
INFO: [Slave VIP_wr_driver] (axi_vip_pkg.axi_slv_wr_driver(C_AXI_ADDR_WIDTH=40,C_AXI_WDATA_WIDTH=128,C_AXI_RDATA_WIDTH=128,C_AXI_WID_WIDTH=16,C_AXI_RID_WIDTH=16,C_AXI_AWUSER_WIDTH=1,C_AXI_ARUSER_WIDTH=1,C_AXI_HAS_REGION=0)::w_channel.W_CHANNEL) 1505000 : W BEAT -- write_beat     Last:0 D:0x5eb1bfc80fb4265b9325c22596dbe57e BE:0b1111111111111111 
INFO: [Slave VIP_wr_driver] (axi_vip_pkg.axi_slv_wr_driver(C_AXI_ADDR_WIDTH=40,C_AXI_WDATA_WIDTH=128,C_AXI_RDATA_WIDTH=128,C_AXI_WID_WIDTH=16,C_AXI_RID_WIDTH=16,C_AXI_AWUSER_WIDTH=1,C_AXI_ARUSER_WIDTH=1,C_AXI_HAS_REGION=0)::w_channel.W_CHANNEL) 1535000 : W LAST -- write_beat     Last:1 D:0x7797e3cd9e5c34abae78717fc4eaa925 BE:0b1111111111111111 
INFO: [Slave VIP_wr_driver] (axi_vip_pkg.axi_slv_wr_driver(C_AXI_ADDR_WIDTH=40,C_AXI_WDATA_WIDTH=128,C_AXI_RDATA_WIDTH=128,C_AXI_WID_WIDTH=16,C_AXI_RID_WIDTH=16,C_AXI_AWUSER_WIDTH=1,C_AXI_ARUSER_WIDTH=1,C_AXI_HAS_REGION=0)::push_reactive_q) 1535000 : PUSH_REACTIVE_Q: PUSH (         0) >>> XIL_AXI_WRITE (81) A:0x00000008000000c0 ID:0x000081ad len:0x03 XIL_AXI_SIZE_16BYTE XIL_AXI_BURST_TYPE_INCR C:0b0011 L:XIL_AXI_ALOCK_NOLOCK P:0b001 <<<
INFO: [Slave VIP_wr_driver] (axi_vip_pkg.axi_slv_wr_driver(C_AXI_ADDR_WIDTH=40,C_AXI_WDATA_WIDTH=128,C_AXI_RDATA_WIDTH=128,C_AXI_WID_WIDTH=16,C_AXI_RID_WIDTH=16,C_AXI_AWUSER_WIDTH=1,C_AXI_ARUSER_WIDTH=1,C_AXI_HAS_REGION=0)::pop_reactive_q) 1535000 : POP_REACTIVE_Q: (         1) >>> XIL_AXI_WRITE (81) A:0x00000008000000c0 ID:0x000081ad len:0x03 XIL_AXI_SIZE_16BYTE XIL_AXI_BURST_TYPE_INCR C:0b0011 L:XIL_AXI_ALOCK_NOLOCK P:0b001 <<<
INFO: [Slave VIP_wr_driver] (axi_vip_pkg.axi_slv_wr_driver(C_AXI_ADDR_WIDTH=40,C_AXI_WDATA_WIDTH=128,C_AXI_RDATA_WIDTH=128,C_AXI_WID_WIDTH=16,C_AXI_RID_WIDTH=16,C_AXI_AWUSER_WIDTH=1,C_AXI_ARUSER_WIDTH=1,C_AXI_HAS_REGION=0)::get_and_drive.GET_AND_DRIVE) 1535000 : GNI : XIL_AXI_WRITE (81) A:0x00000008000000c0 ID:0x000081ad len:0x03 XIL_AXI_SIZE_16BYTE XIL_AXI_BURST_TYPE_INCR C:0b0011 L:XIL_AXI_ALOCK_NOLOCK P:0b001
INFO: [Slave VIP_wr_driver] (axi_vip_pkg.axi_slv_wr_driver(C_AXI_ADDR_WIDTH=40,C_AXI_WDATA_WIDTH=128,C_AXI_RDATA_WIDTH=128,C_AXI_WID_WIDTH=16,C_AXI_RID_WIDTH=16,C_AXI_AWUSER_WIDTH=1,C_AXI_ARUSER_WIDTH=1,C_AXI_HAS_REGION=0)::push_b_q) 1535000 : B PUSH (         0)
INFO: [Slave VIP_wr_driver] (axi_vip_pkg.axi_slv_wr_driver(C_AXI_ADDR_WIDTH=40,C_AXI_WDATA_WIDTH=128,C_AXI_RDATA_WIDTH=128,C_AXI_WID_WIDTH=16,C_AXI_RID_WIDTH=16,C_AXI_AWUSER_WIDTH=1,C_AXI_ARUSER_WIDTH=1,C_AXI_HAS_REGION=0)::push_b_q) 1535000 : ID=0x000081ad - State 0b0111
Entries in BQ : NumEntries:         0 >>> 
 <<<
Command       : XIL_AXI_WRITE (81) A:0x00000008000000c0 ID:0x000081ad len:0x03 XIL_AXI_SIZE_16BYTE XIL_AXI_BURST_TYPE_INCR C:0b0011 L:XIL_AXI_ALOCK_NOLOCK P:0b001
INFO: [Master VIP_wr_driver] (axi_vip_pkg.axi_mst_wr_driver(C_AXI_ADDR_WIDTH=40,C_AXI_WDATA_WIDTH=128,C_AXI_RDATA_WIDTH=128,C_AXI_WID_WIDTH=16,C_AXI_RID_WIDTH=16,C_AXI_AWUSER_WIDTH=16,C_AXI_ARUSER_WIDTH=16)::service_done_q.SERVICE_DONE_Q) 1545000 : SERVICE_DONE_Q: XIL_AXI_WRITE (29) A:0x00000048000080c0 ID:0x000001ad len:0x03 XIL_AXI_SIZE_16BYTE XIL_AXI_BURST_TYPE_INCR C:0b0011 L:XIL_AXI_ALOCK_NOLOCK P:0b001
INFO: [Slave VIP_wr_driver] (axi_vip_pkg.axi_slv_wr_driver(C_AXI_ADDR_WIDTH=40,C_AXI_WDATA_WIDTH=128,C_AXI_RDATA_WIDTH=128,C_AXI_WID_WIDTH=16,C_AXI_RID_WIDTH=16,C_AXI_AWUSER_WIDTH=1,C_AXI_ARUSER_WIDTH=1,C_AXI_HAS_REGION=0)::service_done_q.SERVICE_DONE_Q) 1545000 : SERVICE_DONE_Q: XIL_AXI_WRITE (81) A:0x00000008000000c0 ID:0x000081ad len:0x03 XIL_AXI_SIZE_16BYTE XIL_AXI_BURST_TYPE_INCR C:0b0011 L:XIL_AXI_ALOCK_NOLOCK P:0b001
INFO: [Slave VIP_wr_driver] (axi_vip_pkg.axi_slv_wr_driver(C_AXI_ADDR_WIDTH=40,C_AXI_WDATA_WIDTH=128,C_AXI_RDATA_WIDTH=128,C_AXI_WID_WIDTH=16,C_AXI_RID_WIDTH=16,C_AXI_AWUSER_WIDTH=1,C_AXI_ARUSER_WIDTH=1,C_AXI_HAS_REGION=0)::aw_channel.AW_CHANNEL) 1595000 : AWVALID >>>
XIL_AXI_WRITE (85) A:0x0000000800000100 ID:0x000081ad len:0x03 XIL_AXI_SIZE_16BYTE XIL_AXI_BURST_TYPE_INCR C:0b0001 L:XIL_AXI_ALOCK_NOLOCK P:0b000<<<
INFO: [Slave VIP_wr_driver] (axi_vip_pkg.axi_slv_wr_driver(C_AXI_ADDR_WIDTH=40,C_AXI_WDATA_WIDTH=128,C_AXI_RDATA_WIDTH=128,C_AXI_WID_WIDTH=16,C_AXI_RID_WIDTH=16,C_AXI_AWUSER_WIDTH=1,C_AXI_ARUSER_WIDTH=1,C_AXI_HAS_REGION=0)::w_channel.W_CHANNEL) 1605000 : W BEAT -- write_beat     Last:0 D:0xfc46198bfc66cec27d05889be3776c7f BE:0b1111111111111111 
INFO: [Slave VIP_wr_driver] (axi_vip_pkg.axi_slv_wr_driver(C_AXI_ADDR_WIDTH=40,C_AXI_WDATA_WIDTH=128,C_AXI_RDATA_WIDTH=128,C_AXI_WID_WIDTH=16,C_AXI_RID_WIDTH=16,C_AXI_AWUSER_WIDTH=1,C_AXI_ARUSER_WIDTH=1,C_AXI_HAS_REGION=0)::w_channel.W_CHANNEL) 1635000 : W BEAT -- write_beat     Last:0 D:0x3e0c365e97ccdfce966fd20f883cc38e BE:0b1111111111111111 
INFO: [Slave VIP_wr_driver] (axi_vip_pkg.axi_slv_wr_driver(C_AXI_ADDR_WIDTH=40,C_AXI_WDATA_WIDTH=128,C_AXI_RDATA_WIDTH=128,C_AXI_WID_WIDTH=16,C_AXI_RID_WIDTH=16,C_AXI_AWUSER_WIDTH=1,C_AXI_ARUSER_WIDTH=1,C_AXI_HAS_REGION=0)::w_channel.W_CHANNEL) 1665000 : W BEAT -- write_beat     Last:0 D:0xac07116b156b76da625ca813470217d0 BE:0b1111111111111111 
INFO: [Slave VIP_wr_driver] (axi_vip_pkg.axi_slv_wr_driver(C_AXI_ADDR_WIDTH=40,C_AXI_WDATA_WIDTH=128,C_AXI_RDATA_WIDTH=128,C_AXI_WID_WIDTH=16,C_AXI_RID_WIDTH=16,C_AXI_AWUSER_WIDTH=1,C_AXI_ARUSER_WIDTH=1,C_AXI_HAS_REGION=0)::w_channel.W_CHANNEL) 1695000 : W LAST -- write_beat     Last:1 D:0x0e37106cd923ab059c3f66ee0e24b31d BE:0b1111111111111111 
INFO: [Slave VIP_wr_driver] (axi_vip_pkg.axi_slv_wr_driver(C_AXI_ADDR_WIDTH=40,C_AXI_WDATA_WIDTH=128,C_AXI_RDATA_WIDTH=128,C_AXI_WID_WIDTH=16,C_AXI_RID_WIDTH=16,C_AXI_AWUSER_WIDTH=1,C_AXI_ARUSER_WIDTH=1,C_AXI_HAS_REGION=0)::push_reactive_q) 1695000 : PUSH_REACTIVE_Q: PUSH (         0) >>> XIL_AXI_WRITE (85) A:0x0000000800000100 ID:0x000081ad len:0x03 XIL_AXI_SIZE_16BYTE XIL_AXI_BURST_TYPE_INCR C:0b0001 L:XIL_AXI_ALOCK_NOLOCK P:0b000 <<<
INFO: [Slave VIP_wr_driver] (axi_vip_pkg.axi_slv_wr_driver(C_AXI_ADDR_WIDTH=40,C_AXI_WDATA_WIDTH=128,C_AXI_RDATA_WIDTH=128,C_AXI_WID_WIDTH=16,C_AXI_RID_WIDTH=16,C_AXI_AWUSER_WIDTH=1,C_AXI_ARUSER_WIDTH=1,C_AXI_HAS_REGION=0)::pop_reactive_q) 1695000 : POP_REACTIVE_Q: (         1) >>> XIL_AXI_WRITE (85) A:0x0000000800000100 ID:0x000081ad len:0x03 XIL_AXI_SIZE_16BYTE XIL_AXI_BURST_TYPE_INCR C:0b0001 L:XIL_AXI_ALOCK_NOLOCK P:0b000 <<<
INFO: [Slave VIP_wr_driver] (axi_vip_pkg.axi_slv_wr_driver(C_AXI_ADDR_WIDTH=40,C_AXI_WDATA_WIDTH=128,C_AXI_RDATA_WIDTH=128,C_AXI_WID_WIDTH=16,C_AXI_RID_WIDTH=16,C_AXI_AWUSER_WIDTH=1,C_AXI_ARUSER_WIDTH=1,C_AXI_HAS_REGION=0)::get_and_drive.GET_AND_DRIVE) 1695000 : GNI : XIL_AXI_WRITE (85) A:0x0000000800000100 ID:0x000081ad len:0x03 XIL_AXI_SIZE_16BYTE XIL_AXI_BURST_TYPE_INCR C:0b0001 L:XIL_AXI_ALOCK_NOLOCK P:0b000
INFO: [Slave VIP_wr_driver] (axi_vip_pkg.axi_slv_wr_driver(C_AXI_ADDR_WIDTH=40,C_AXI_WDATA_WIDTH=128,C_AXI_RDATA_WIDTH=128,C_AXI_WID_WIDTH=16,C_AXI_RID_WIDTH=16,C_AXI_AWUSER_WIDTH=1,C_AXI_ARUSER_WIDTH=1,C_AXI_HAS_REGION=0)::push_b_q) 1695000 : B PUSH (         0)
INFO: [Slave VIP_wr_driver] (axi_vip_pkg.axi_slv_wr_driver(C_AXI_ADDR_WIDTH=40,C_AXI_WDATA_WIDTH=128,C_AXI_RDATA_WIDTH=128,C_AXI_WID_WIDTH=16,C_AXI_RID_WIDTH=16,C_AXI_AWUSER_WIDTH=1,C_AXI_ARUSER_WIDTH=1,C_AXI_HAS_REGION=0)::push_b_q) 1695000 : ID=0x000081ad - State 0b0111
Entries in BQ : NumEntries:         0 >>> 
 <<<
Command       : XIL_AXI_WRITE (85) A:0x0000000800000100 ID:0x000081ad len:0x03 XIL_AXI_SIZE_16BYTE XIL_AXI_BURST_TYPE_INCR C:0b0001 L:XIL_AXI_ALOCK_NOLOCK P:0b000
INFO: [Master VIP_wr_driver] (axi_vip_pkg.axi_mst_wr_driver(C_AXI_ADDR_WIDTH=40,C_AXI_WDATA_WIDTH=128,C_AXI_RDATA_WIDTH=128,C_AXI_WID_WIDTH=16,C_AXI_RID_WIDTH=16,C_AXI_AWUSER_WIDTH=16,C_AXI_ARUSER_WIDTH=16)::service_done_q.SERVICE_DONE_Q) 1705000 : SERVICE_DONE_Q: XIL_AXI_WRITE (33) A:0x0000004800008100 ID:0x000001ad len:0x03 XIL_AXI_SIZE_16BYTE XIL_AXI_BURST_TYPE_INCR C:0b0001 L:XIL_AXI_ALOCK_NOLOCK P:0b000
INFO: [Slave VIP_wr_driver] (axi_vip_pkg.axi_slv_wr_driver(C_AXI_ADDR_WIDTH=40,C_AXI_WDATA_WIDTH=128,C_AXI_RDATA_WIDTH=128,C_AXI_WID_WIDTH=16,C_AXI_RID_WIDTH=16,C_AXI_AWUSER_WIDTH=1,C_AXI_ARUSER_WIDTH=1,C_AXI_HAS_REGION=0)::service_done_q.SERVICE_DONE_Q) 1705000 : SERVICE_DONE_Q: XIL_AXI_WRITE (85) A:0x0000000800000100 ID:0x000081ad len:0x03 XIL_AXI_SIZE_16BYTE XIL_AXI_BURST_TYPE_INCR C:0b0001 L:XIL_AXI_ALOCK_NOLOCK P:0b000
INFO: [Slave VIP_wr_driver] (axi_vip_pkg.axi_slv_wr_driver(C_AXI_ADDR_WIDTH=40,C_AXI_WDATA_WIDTH=128,C_AXI_RDATA_WIDTH=128,C_AXI_WID_WIDTH=16,C_AXI_RID_WIDTH=16,C_AXI_AWUSER_WIDTH=1,C_AXI_ARUSER_WIDTH=1,C_AXI_HAS_REGION=0)::aw_channel.AW_CHANNEL) 1755000 : AWVALID >>>
XIL_AXI_WRITE (89) A:0x0000000000000040 ID:0x0000018d len:0x03 XIL_AXI_SIZE_16BYTE XIL_AXI_BURST_TYPE_INCR C:0b0011 L:XIL_AXI_ALOCK_NOLOCK P:0b111<<<
INFO: [Slave VIP_wr_driver] (axi_vip_pkg.axi_slv_wr_driver(C_AXI_ADDR_WIDTH=40,C_AXI_WDATA_WIDTH=128,C_AXI_RDATA_WIDTH=128,C_AXI_WID_WIDTH=16,C_AXI_RID_WIDTH=16,C_AXI_AWUSER_WIDTH=1,C_AXI_ARUSER_WIDTH=1,C_AXI_HAS_REGION=0)::w_channel.W_CHANNEL) 1765000 : W BEAT -- write_beat     Last:0 D:0x2dd17b15dc7173d9a23f482b28ed905f BE:0b1111111111111111 
INFO: [Slave VIP_wr_driver] (axi_vip_pkg.axi_slv_wr_driver(C_AXI_ADDR_WIDTH=40,C_AXI_WDATA_WIDTH=128,C_AXI_RDATA_WIDTH=128,C_AXI_WID_WIDTH=16,C_AXI_RID_WIDTH=16,C_AXI_AWUSER_WIDTH=1,C_AXI_ARUSER_WIDTH=1,C_AXI_HAS_REGION=0)::w_channel.W_CHANNEL) 1795000 : W BEAT -- write_beat     Last:0 D:0x7bcde5f68740f67a5a39fa2c0f12f037 BE:0b1111111111111111 
INFO: [Slave VIP_wr_driver] (axi_vip_pkg.axi_slv_wr_driver(C_AXI_ADDR_WIDTH=40,C_AXI_WDATA_WIDTH=128,C_AXI_RDATA_WIDTH=128,C_AXI_WID_WIDTH=16,C_AXI_RID_WIDTH=16,C_AXI_AWUSER_WIDTH=1,C_AXI_ARUSER_WIDTH=1,C_AXI_HAS_REGION=0)::w_channel.W_CHANNEL) 1825000 : W BEAT -- write_beat     Last:0 D:0x8d4da23e838e317df74e9af0cccbec4d BE:0b1111111111111111 
INFO: [Slave VIP_wr_driver] (axi_vip_pkg.axi_slv_wr_driver(C_AXI_ADDR_WIDTH=40,C_AXI_WDATA_WIDTH=128,C_AXI_RDATA_WIDTH=128,C_AXI_WID_WIDTH=16,C_AXI_RID_WIDTH=16,C_AXI_AWUSER_WIDTH=1,C_AXI_ARUSER_WIDTH=1,C_AXI_HAS_REGION=0)::w_channel.W_CHANNEL) 1855000 : W LAST -- write_beat     Last:1 D:0x9cf4692c8b5e1d5380e882aea38d7dd4 BE:0b1111111111111111 
INFO: [Slave VIP_wr_driver] (axi_vip_pkg.axi_slv_wr_driver(C_AXI_ADDR_WIDTH=40,C_AXI_WDATA_WIDTH=128,C_AXI_RDATA_WIDTH=128,C_AXI_WID_WIDTH=16,C_AXI_RID_WIDTH=16,C_AXI_AWUSER_WIDTH=1,C_AXI_ARUSER_WIDTH=1,C_AXI_HAS_REGION=0)::push_reactive_q) 1855000 : PUSH_REACTIVE_Q: PUSH (         0) >>> XIL_AXI_WRITE (89) A:0x0000000000000040 ID:0x0000018d len:0x03 XIL_AXI_SIZE_16BYTE XIL_AXI_BURST_TYPE_INCR C:0b0011 L:XIL_AXI_ALOCK_NOLOCK P:0b111 <<<
INFO: [Slave VIP_wr_driver] (axi_vip_pkg.axi_slv_wr_driver(C_AXI_ADDR_WIDTH=40,C_AXI_WDATA_WIDTH=128,C_AXI_RDATA_WIDTH=128,C_AXI_WID_WIDTH=16,C_AXI_RID_WIDTH=16,C_AXI_AWUSER_WIDTH=1,C_AXI_ARUSER_WIDTH=1,C_AXI_HAS_REGION=0)::pop_reactive_q) 1855000 : POP_REACTIVE_Q: (         1) >>> XIL_AXI_WRITE (89) A:0x0000000000000040 ID:0x0000018d len:0x03 XIL_AXI_SIZE_16BYTE XIL_AXI_BURST_TYPE_INCR C:0b0011 L:XIL_AXI_ALOCK_NOLOCK P:0b111 <<<
INFO: [Slave VIP_wr_driver] (axi_vip_pkg.axi_slv_wr_driver(C_AXI_ADDR_WIDTH=40,C_AXI_WDATA_WIDTH=128,C_AXI_RDATA_WIDTH=128,C_AXI_WID_WIDTH=16,C_AXI_RID_WIDTH=16,C_AXI_AWUSER_WIDTH=1,C_AXI_ARUSER_WIDTH=1,C_AXI_HAS_REGION=0)::get_and_drive.GET_AND_DRIVE) 1855000 : GNI : XIL_AXI_WRITE (89) A:0x0000000000000040 ID:0x0000018d len:0x03 XIL_AXI_SIZE_16BYTE XIL_AXI_BURST_TYPE_INCR C:0b0011 L:XIL_AXI_ALOCK_NOLOCK P:0b111
INFO: [Slave VIP_wr_driver] (axi_vip_pkg.axi_slv_wr_driver(C_AXI_ADDR_WIDTH=40,C_AXI_WDATA_WIDTH=128,C_AXI_RDATA_WIDTH=128,C_AXI_WID_WIDTH=16,C_AXI_RID_WIDTH=16,C_AXI_AWUSER_WIDTH=1,C_AXI_ARUSER_WIDTH=1,C_AXI_HAS_REGION=0)::push_b_q) 1855000 : B PUSH (         0)
