Vivado Simulator 2017.4
Time resolution is 1 ps
INFO: ID width is 16 bigger than 16, AXI protocol Checker will not be instantiated in this case 
XilinxAXIVIP: Found at Path: TB_MemorEDF.DUT.design_1_i.axi_vip_0.inst
INFO: ID width is 16 bigger than 16, AXI protocol Checker will not be instantiated in this case 
XilinxAXIVIP: Found at Path: TB_MemorEDF.DUT.design_1_i.axi_vip_1.inst
INFO: ID width is 16 bigger than 16, AXI protocol Checker will not be instantiated in this case 
XilinxAXIVIP: Found at Path: TB_MemorEDF.DUT.design_1_i.axi_vip_2.inst
INFO: ID width is 16 bigger than 16, AXI protocol Checker will not be instantiated in this case 
XilinxAXIVIP: Found at Path: TB_MemorEDF.DUT.design_1_i.axi_vip_3.inst
b master depth 00000000000000000000000000001000
b master depth 00000000000000000000000000001000
c master depth 00000000000000000000000000001000
c master depth 00000000000000000000000000001000
INFO: [Master VIP_rd_driver] (.axi_vip_pkg.axi_mst_rd_driver(C_AXI_ADDR_WIDTH=40,C_AXI_WDATA_WIDTH=128,C_AXI_RDATA_WIDTH=128,C_AXI_WID_WIDTH=16,C_AXI_RID_WIDTH=16,C_AXI_AWUSER_WIDTH=16,C_AXI_ARUSER_WIDTH=16)::run_phase.Block10873_332.) 25001 : run()
INFO: [Master VIP_wr_driver] (.axi_vip_pkg.axi_mst_wr_driver(C_AXI_ADDR_WIDTH=40,C_AXI_WDATA_WIDTH=128,C_AXI_RDATA_WIDTH=128,C_AXI_WID_WIDTH=16,C_AXI_RID_WIDTH=16,C_AXI_AWUSER_WIDTH=16,C_AXI_ARUSER_WIDTH=16)::run_phase.Block9793_286.) 25001 : run()
INFO: [Master VIP_monitor] (.axi_vip_pkg.axi_monitor(C_AXI_ADDR_WIDTH=40,C_AXI_WDATA_WIDTH=128,C_AXI_RDATA_WIDTH=128,C_AXI_WID_WIDTH=16,C_AXI_RID_WIDTH=16,C_AXI_AWUSER_WIDTH=16,C_AXI_ARUSER_WIDTH=16)::run_phase.Block8620_253.) 25001 : run()
INFO: [Slave VIP_rd_driver] (.axi_vip_pkg.axi_slv_rd_driver(C_AXI_ADDR_WIDTH=40,C_AXI_WDATA_WIDTH=128,C_AXI_RDATA_WIDTH=128,C_AXI_WID_WIDTH=16,C_AXI_RID_WIDTH=16,C_AXI_AWUSER_WIDTH=1,C_AXI_ARUSER_WIDTH=1,C_AXI_HAS_REGION=0)::run_phase.Block14104_430.) 25001 : run()
INFO: [Slave VIP_wr_driver] (.axi_vip_pkg.axi_slv_wr_driver(C_AXI_ADDR_WIDTH=40,C_AXI_WDATA_WIDTH=128,C_AXI_RDATA_WIDTH=128,C_AXI_WID_WIDTH=16,C_AXI_RID_WIDTH=16,C_AXI_AWUSER_WIDTH=1,C_AXI_ARUSER_WIDTH=1,C_AXI_HAS_REGION=0)::run_phase.Block12612_379.) 25001 : run()
INFO: [Slave VIP_monitor] (.axi_vip_pkg.axi_monitor(C_AXI_ADDR_WIDTH=40,C_AXI_WDATA_WIDTH=128,C_AXI_RDATA_WIDTH=128,C_AXI_WID_WIDTH=16,C_AXI_RID_WIDTH=16,C_AXI_AWUSER_WIDTH=1,C_AXI_ARUSER_WIDTH=1,C_AXI_HAS_REGION=0)::run_phase.Block8620_270.) 25001 : run()
INFO: [Master VIP_rd_driver] (.axi_vip_pkg.axi_mst_rd_driver(C_AXI_ADDR_WIDTH=40,C_AXI_WDATA_WIDTH=128,C_AXI_RDATA_WIDTH=128,C_AXI_WID_WIDTH=16,C_AXI_RID_WIDTH=16,C_AXI_AWUSER_WIDTH=16,C_AXI_ARUSER_WIDTH=16)::run_phase.Block10873_332.) 25001 : run()
INFO: [Master VIP_wr_driver] (.axi_vip_pkg.axi_mst_wr_driver(C_AXI_ADDR_WIDTH=40,C_AXI_WDATA_WIDTH=128,C_AXI_RDATA_WIDTH=128,C_AXI_WID_WIDTH=16,C_AXI_RID_WIDTH=16,C_AXI_AWUSER_WIDTH=16,C_AXI_ARUSER_WIDTH=16)::run_phase.Block9793_286.) 25001 : run()
INFO: [Master VIP_monitor] (.axi_vip_pkg.axi_monitor(C_AXI_ADDR_WIDTH=40,C_AXI_WDATA_WIDTH=128,C_AXI_RDATA_WIDTH=128,C_AXI_WID_WIDTH=16,C_AXI_RID_WIDTH=16,C_AXI_AWUSER_WIDTH=16,C_AXI_ARUSER_WIDTH=16)::run_phase.Block8620_253.) 25001 : run()
INFO: [Master VIP_rd_driver] (.axi_vip_pkg.axi_mst_rd_driver(C_AXI_ADDR_WIDTH=40,C_AXI_WDATA_WIDTH=128,C_AXI_RDATA_WIDTH=128,C_AXI_WID_WIDTH=16,C_AXI_RID_WIDTH=16,C_AXI_AWUSER_WIDTH=16,C_AXI_ARUSER_WIDTH=16)::run_phase.Block10873_332.) 25001 : run()
INFO: [Master VIP_wr_driver] (.axi_vip_pkg.axi_mst_wr_driver(C_AXI_ADDR_WIDTH=40,C_AXI_WDATA_WIDTH=128,C_AXI_RDATA_WIDTH=128,C_AXI_WID_WIDTH=16,C_AXI_RID_WIDTH=16,C_AXI_AWUSER_WIDTH=16,C_AXI_ARUSER_WIDTH=16)::run_phase.Block9793_286.) 25001 : run()
INFO: [Master VIP_monitor] (.axi_vip_pkg.axi_monitor(C_AXI_ADDR_WIDTH=40,C_AXI_WDATA_WIDTH=128,C_AXI_RDATA_WIDTH=128,C_AXI_WID_WIDTH=16,C_AXI_RID_WIDTH=16,C_AXI_AWUSER_WIDTH=16,C_AXI_ARUSER_WIDTH=16)::run_phase.Block8620_253.) 25001 : run()
INFO: [Master VIP_wr_driver] (axi_vip_pkg.axi_mst_wr_driver(C_AXI_ADDR_WIDTH=40,C_AXI_WDATA_WIDTH=128,C_AXI_RDATA_WIDTH=128,C_AXI_WID_WIDTH=16,C_AXI_RID_WIDTH=16,C_AXI_AWUSER_WIDTH=16,C_AXI_ARUSER_WIDTH=16)::get_and_drive.GET_AND_DRIVE) 40000 : Sending transaction: 
INFO: [Master VIP_wr_driver] (axi_vip_pkg.axi_mst_wr_driver(C_AXI_ADDR_WIDTH=40,C_AXI_WDATA_WIDTH=128,C_AXI_RDATA_WIDTH=128,C_AXI_WID_WIDTH=16,C_AXI_RID_WIDTH=16,C_AXI_AWUSER_WIDTH=16,C_AXI_ARUSER_WIDTH=16)::get_and_drive.GET_AND_DRIVE) 40000 : ---------------------------------------------------------------------------------------------
  Name                         Value
---------------------------------------------------------------------------------------------
  CMD                          XIL_AXI_WRITE
  ADDR                         0x0000000000000000 
  WID                          0x00000000
  LEN                          0x00
  SIZE                         0x100
  BURST                        0x01
  CACHE                        0x0000
  LOCK                         0x00
  PROT                         0x000
  REGION                       0x0000
  QOS                          0x0000
  AWUSER                       0x0000
  BRESP                        XIL_AXI_RESP_OKAY
  DRIVER_RETURN_ITEM           XIL_AXI_PAYLOAD_RETURN 
  CREATION_TIME                40000
  SUBMIT_TIME                  0
  PAYLOAD                      16
    BEAT[          0]          0x00000020000000200000002000000020 (strb : 0b1111111111111111) :beat_delay:         0
--------------------------------------------------------------------------------------------
INFO: [Master VIP_wr_driver] (axi_vip_pkg.axi_mst_wr_driver(C_AXI_ADDR_WIDTH=40,C_AXI_WDATA_WIDTH=128,C_AXI_RDATA_WIDTH=128,C_AXI_WID_WIDTH=16,C_AXI_RID_WIDTH=16,C_AXI_AWUSER_WIDTH=16,C_AXI_ARUSER_WIDTH=16)::w_channel.W_CHANNEL.Block10274_318.Block10274_319) 115000 : WREADY+WLAST (         0) id=0x00000000
INFO: [Master VIP_wr_driver] (axi_vip_pkg.axi_mst_wr_driver(C_AXI_ADDR_WIDTH=40,C_AXI_WDATA_WIDTH=128,C_AXI_RDATA_WIDTH=128,C_AXI_WID_WIDTH=16,C_AXI_RID_WIDTH=16,C_AXI_AWUSER_WIDTH=16,C_AXI_ARUSER_WIDTH=16)::service_done_q.SERVICE_DONE_Q) 125000 : SERVICE_DONE_Q: XIL_AXI_WRITE (0) A:0x0000000000000000 ID:0x00000000 len:0x00 XIL_AXI_SIZE_16BYTE XIL_AXI_BURST_TYPE_INCR C:0b0000 L:XIL_AXI_ALOCK_NOLOCK P:0b000
INFO: [Master VIP_wr_driver] (axi_vip_pkg.axi_mst_wr_driver(C_AXI_ADDR_WIDTH=40,C_AXI_WDATA_WIDTH=128,C_AXI_RDATA_WIDTH=128,C_AXI_WID_WIDTH=16,C_AXI_RID_WIDTH=16,C_AXI_AWUSER_WIDTH=16,C_AXI_ARUSER_WIDTH=16)::get_and_drive.GET_AND_DRIVE) 145000 : Sending transaction: 
INFO: [Master VIP_wr_driver] (axi_vip_pkg.axi_mst_wr_driver(C_AXI_ADDR_WIDTH=40,C_AXI_WDATA_WIDTH=128,C_AXI_RDATA_WIDTH=128,C_AXI_WID_WIDTH=16,C_AXI_RID_WIDTH=16,C_AXI_AWUSER_WIDTH=16,C_AXI_ARUSER_WIDTH=16)::get_and_drive.GET_AND_DRIVE) 145000 : ---------------------------------------------------------------------------------------------
  Name                         Value
---------------------------------------------------------------------------------------------
  CMD                          XIL_AXI_WRITE
  ADDR                         0x0000000000000010 
  WID                          0x00000000
  LEN                          0x00
  SIZE                         0x100
  BURST                        0x01
  CACHE                        0x0000
  LOCK                         0x00
  PROT                         0x000
  REGION                       0x0000
  QOS                          0x0000
  AWUSER                       0x0000
  BRESP                        XIL_AXI_RESP_OKAY
  DRIVER_RETURN_ITEM           XIL_AXI_PAYLOAD_RETURN 
  CREATION_TIME                145000
  SUBMIT_TIME                  0
  PAYLOAD                      16
    BEAT[          0]          0x00000007000000070000000700000007 (strb : 0b1111111111111111) :beat_delay:         0
--------------------------------------------------------------------------------------------
INFO: [Master VIP_wr_driver] (axi_vip_pkg.axi_mst_wr_driver(C_AXI_ADDR_WIDTH=40,C_AXI_WDATA_WIDTH=128,C_AXI_RDATA_WIDTH=128,C_AXI_WID_WIDTH=16,C_AXI_RID_WIDTH=16,C_AXI_AWUSER_WIDTH=16,C_AXI_ARUSER_WIDTH=16)::w_channel.W_CHANNEL.Block10274_318.Block10274_319) 225000 : WREADY+WLAST (         0) id=0x00000000
INFO: [Master VIP_wr_driver] (axi_vip_pkg.axi_mst_wr_driver(C_AXI_ADDR_WIDTH=40,C_AXI_WDATA_WIDTH=128,C_AXI_RDATA_WIDTH=128,C_AXI_WID_WIDTH=16,C_AXI_RID_WIDTH=16,C_AXI_AWUSER_WIDTH=16,C_AXI_ARUSER_WIDTH=16)::service_done_q.SERVICE_DONE_Q) 235000 : SERVICE_DONE_Q: XIL_AXI_WRITE (4) A:0x0000000000000010 ID:0x00000000 len:0x00 XIL_AXI_SIZE_16BYTE XIL_AXI_BURST_TYPE_INCR C:0b0000 L:XIL_AXI_ALOCK_NOLOCK P:0b000
INFO: [Master VIP_wr_driver] (axi_vip_pkg.axi_mst_wr_driver(C_AXI_ADDR_WIDTH=40,C_AXI_WDATA_WIDTH=128,C_AXI_RDATA_WIDTH=128,C_AXI_WID_WIDTH=16,C_AXI_RID_WIDTH=16,C_AXI_AWUSER_WIDTH=16,C_AXI_ARUSER_WIDTH=16)::get_and_drive.GET_AND_DRIVE) 255000 : Sending transaction: 
INFO: [Master VIP_wr_driver] (axi_vip_pkg.axi_mst_wr_driver(C_AXI_ADDR_WIDTH=40,C_AXI_WDATA_WIDTH=128,C_AXI_RDATA_WIDTH=128,C_AXI_WID_WIDTH=16,C_AXI_RID_WIDTH=16,C_AXI_AWUSER_WIDTH=16,C_AXI_ARUSER_WIDTH=16)::get_and_drive.GET_AND_DRIVE) 255000 : ---------------------------------------------------------------------------------------------
  Name                         Value
---------------------------------------------------------------------------------------------
  CMD                          XIL_AXI_WRITE
  ADDR                         0x0000000000000020 
  WID                          0x00000000
  LEN                          0x00
  SIZE                         0x100
  BURST                        0x01
  CACHE                        0x0000
  LOCK                         0x00
  PROT                         0x000
  REGION                       0x0000
  QOS                          0x0000
  AWUSER                       0x0000
  BRESP                        XIL_AXI_RESP_OKAY
  DRIVER_RETURN_ITEM           XIL_AXI_PAYLOAD_RETURN 
  CREATION_TIME                255000
  SUBMIT_TIME                  0
  PAYLOAD                      16
    BEAT[          0]          0x0000004000000080000000500f0c0e0d (strb : 0b1111111111111111) :beat_delay:         0
--------------------------------------------------------------------------------------------
INFO: [Master VIP_wr_driver] (axi_vip_pkg.axi_mst_wr_driver(C_AXI_ADDR_WIDTH=40,C_AXI_WDATA_WIDTH=128,C_AXI_RDATA_WIDTH=128,C_AXI_WID_WIDTH=16,C_AXI_RID_WIDTH=16,C_AXI_AWUSER_WIDTH=16,C_AXI_ARUSER_WIDTH=16)::w_channel.W_CHANNEL.Block10274_318.Block10274_319) 335000 : WREADY+WLAST (         0) id=0x00000000
INFO: [Master VIP_wr_driver] (axi_vip_pkg.axi_mst_wr_driver(C_AXI_ADDR_WIDTH=40,C_AXI_WDATA_WIDTH=128,C_AXI_RDATA_WIDTH=128,C_AXI_WID_WIDTH=16,C_AXI_RID_WIDTH=16,C_AXI_AWUSER_WIDTH=16,C_AXI_ARUSER_WIDTH=16)::service_done_q.SERVICE_DONE_Q) 345000 : SERVICE_DONE_Q: XIL_AXI_WRITE (8) A:0x0000000000000020 ID:0x00000000 len:0x00 XIL_AXI_SIZE_16BYTE XIL_AXI_BURST_TYPE_INCR C:0b0000 L:XIL_AXI_ALOCK_NOLOCK P:0b000
INFO: [Master VIP_wr_driver] (axi_vip_pkg.axi_mst_wr_driver(C_AXI_ADDR_WIDTH=40,C_AXI_WDATA_WIDTH=128,C_AXI_RDATA_WIDTH=128,C_AXI_WID_WIDTH=16,C_AXI_RID_WIDTH=16,C_AXI_AWUSER_WIDTH=16,C_AXI_ARUSER_WIDTH=16)::get_and_drive.GET_AND_DRIVE) 365000 : Sending transaction: 
INFO: [Master VIP_wr_driver] (axi_vip_pkg.axi_mst_wr_driver(C_AXI_ADDR_WIDTH=40,C_AXI_WDATA_WIDTH=128,C_AXI_RDATA_WIDTH=128,C_AXI_WID_WIDTH=16,C_AXI_RID_WIDTH=16,C_AXI_AWUSER_WIDTH=16,C_AXI_ARUSER_WIDTH=16)::get_and_drive.GET_AND_DRIVE) 365000 : ---------------------------------------------------------------------------------------------
  Name                         Value
---------------------------------------------------------------------------------------------
  CMD                          XIL_AXI_WRITE
  ADDR                         0x0000000000000030 
  WID                          0x00000000
  LEN                          0x00
  SIZE                         0x100
  BURST                        0x01
  CACHE                        0x0000
  LOCK                         0x00
  PROT                         0x000
  REGION                       0x0000
  QOS                          0x0000
  AWUSER                       0x0000
  BRESP                        XIL_AXI_RESP_OKAY
  DRIVER_RETURN_ITEM           XIL_AXI_PAYLOAD_RETURN 
  CREATION_TIME                365000
  SUBMIT_TIME                  0
  PAYLOAD                      16
    BEAT[          0]          0x00000000000000030000000000000080 (strb : 0b1111111111111111) :beat_delay:         0
--------------------------------------------------------------------------------------------
INFO: [Master VIP_wr_driver] (axi_vip_pkg.axi_mst_wr_driver(C_AXI_ADDR_WIDTH=40,C_AXI_WDATA_WIDTH=128,C_AXI_RDATA_WIDTH=128,C_AXI_WID_WIDTH=16,C_AXI_RID_WIDTH=16,C_AXI_AWUSER_WIDTH=16,C_AXI_ARUSER_WIDTH=16)::w_channel.W_CHANNEL.Block10274_318.Block10274_319) 445000 : WREADY+WLAST (         0) id=0x00000000
INFO: [Master VIP_wr_driver] (axi_vip_pkg.axi_mst_wr_driver(C_AXI_ADDR_WIDTH=40,C_AXI_WDATA_WIDTH=128,C_AXI_RDATA_WIDTH=128,C_AXI_WID_WIDTH=16,C_AXI_RID_WIDTH=16,C_AXI_AWUSER_WIDTH=16,C_AXI_ARUSER_WIDTH=16)::service_done_q.SERVICE_DONE_Q) 455000 : SERVICE_DONE_Q: XIL_AXI_WRITE (12) A:0x0000000000000030 ID:0x00000000 len:0x00 XIL_AXI_SIZE_16BYTE XIL_AXI_BURST_TYPE_INCR C:0b0000 L:XIL_AXI_ALOCK_NOLOCK P:0b000
INFO: [Master VIP_wr_driver] (axi_vip_pkg.axi_mst_wr_driver(C_AXI_ADDR_WIDTH=40,C_AXI_WDATA_WIDTH=128,C_AXI_RDATA_WIDTH=128,C_AXI_WID_WIDTH=16,C_AXI_RID_WIDTH=16,C_AXI_AWUSER_WIDTH=16,C_AXI_ARUSER_WIDTH=16)::get_and_drive.GET_AND_DRIVE) 525000 : Sending transaction: 
INFO: [Master VIP_wr_driver] (axi_vip_pkg.axi_mst_wr_driver(C_AXI_ADDR_WIDTH=40,C_AXI_WDATA_WIDTH=128,C_AXI_RDATA_WIDTH=128,C_AXI_WID_WIDTH=16,C_AXI_RID_WIDTH=16,C_AXI_AWUSER_WIDTH=16,C_AXI_ARUSER_WIDTH=16)::get_and_drive.GET_AND_DRIVE) 525000 : ---------------------------------------------------------------------------------------------
  Name                         Value
---------------------------------------------------------------------------------------------
  CMD                          XIL_AXI_WRITE
  ADDR                         0x0000004800008000 
  WID                          0x000001ad
  LEN                          0x03
  SIZE                         0x100
  BURST                        0x01
  CACHE                        0x0110
  LOCK                         0x00
  PROT                         0x000
  REGION                       0x1101
  QOS                          0x1101
  AWUSER                       0xbccfa8799c6de6384f75ff9ec6b5f48d155a1d2a152fb52acfd6c09ff33466e6070bb90ed0ca8ca1549efda9d44b80a82758d14ec550168af622e6ecb98c427325b27b4bcc01b498e2e574c560b175c1949a8a299ab488357a8c59f5a863965043779186d0f578a10b940917b0bcee61fd28e4fa3ced2b79e7c3b6cfed8d80db
  BRESP                        XIL_AXI_RESP_OKAY
  DRIVER_RETURN_ITEM           XIL_AXI_NO_RETURN 
  CREATION_TIME                525000
  SUBMIT_TIME                  0
  PAYLOAD                      64
    BEAT[          0]          0xb6eb8978d8418af23cca0a23cf1dae02 (strb : 0b1111111111111111) :beat_delay:         0
    BEAT[          1]          0x4c62d9f1157e3a3b4f85710b2abcaec6 (strb : 0b1111111111111111) :beat_delay:         0
    BEAT[          2]          0xc8c20c9651d7d049895b5c9fb7f88f9f (strb : 0b1111111111111111) :beat_delay:         0
    BEAT[          3]          0x86582a3f495b7885d31f396d7e123d77 (strb : 0b1111111111111111) :beat_delay:         0
--------------------------------------------------------------------------------------------
INFO: [Master VIP_wr_driver] (axi_vip_pkg.axi_mst_wr_driver(C_AXI_ADDR_WIDTH=40,C_AXI_WDATA_WIDTH=128,C_AXI_RDATA_WIDTH=128,C_AXI_WID_WIDTH=16,C_AXI_RID_WIDTH=16,C_AXI_AWUSER_WIDTH=16,C_AXI_ARUSER_WIDTH=16)::get_and_drive.GET_AND_DRIVE) 525000 : Sending transaction: 
INFO: [Master VIP_wr_driver] (axi_vip_pkg.axi_mst_wr_driver(C_AXI_ADDR_WIDTH=40,C_AXI_WDATA_WIDTH=128,C_AXI_RDATA_WIDTH=128,C_AXI_WID_WIDTH=16,C_AXI_RID_WIDTH=16,C_AXI_AWUSER_WIDTH=16,C_AXI_ARUSER_WIDTH=16)::get_and_drive.GET_AND_DRIVE) 525000 : ---------------------------------------------------------------------------------------------
  Name                         Value
---------------------------------------------------------------------------------------------
  CMD                          XIL_AXI_WRITE
  ADDR                         0x0000004800008040 
  WID                          0x000001ad
  LEN                          0x03
  SIZE                         0x100
  BURST                        0x01
  CACHE                        0x0011
  LOCK                         0x00
  PROT                         0x111
  REGION                       0x1010
  QOS                          0x0110
  AWUSER                       0x33c89b676325e3c6fb1632f6f4c03ce9c7dbc28f1aff35359608882c45a2938be13cd2c279b353f3cdab189b39c951735cd421b98697e00d6ca619d9686977d04c46bf98f1f242e370907be1a6a1ca4df30a80e6125b9b2438e3f3711e3ed33c1439fd28b5e4ce6b18b0f531923ece24652885caeafa82d5ff12b6fe5515c3aa
  BRESP                        XIL_AXI_RESP_OKAY
  DRIVER_RETURN_ITEM           XIL_AXI_NO_RETURN 
  CREATION_TIME                525000
  SUBMIT_TIME                  0
  PAYLOAD                      64
    BEAT[          0]          0x2dd17b15dc7173d9a23f482b28ed905f (strb : 0b1111111111111111) :beat_delay:         0
    BEAT[          1]          0x7bcde5f68740f67a5a39fa2c0f12f037 (strb : 0b1111111111111111) :beat_delay:         0
    BEAT[          2]          0x8d4da23e838e317df74e9af0cccbec4d (strb : 0b1111111111111111) :beat_delay:         0
    BEAT[          3]          0x9cf4692c8b5e1d5380e882aea38d7dd4 (strb : 0b1111111111111111) :beat_delay:         0
--------------------------------------------------------------------------------------------
INFO: [Master VIP_wr_driver] (axi_vip_pkg.axi_mst_wr_driver(C_AXI_ADDR_WIDTH=40,C_AXI_WDATA_WIDTH=128,C_AXI_RDATA_WIDTH=128,C_AXI_WID_WIDTH=16,C_AXI_RID_WIDTH=16,C_AXI_AWUSER_WIDTH=16,C_AXI_ARUSER_WIDTH=16)::get_and_drive.GET_AND_DRIVE) 525000 : Sending transaction: 
INFO: [Master VIP_wr_driver] (axi_vip_pkg.axi_mst_wr_driver(C_AXI_ADDR_WIDTH=40,C_AXI_WDATA_WIDTH=128,C_AXI_RDATA_WIDTH=128,C_AXI_WID_WIDTH=16,C_AXI_RID_WIDTH=16,C_AXI_AWUSER_WIDTH=16,C_AXI_ARUSER_WIDTH=16)::get_and_drive.GET_AND_DRIVE) 525000 : ---------------------------------------------------------------------------------------------
  Name                         Value
---------------------------------------------------------------------------------------------
  CMD                          XIL_AXI_WRITE
  ADDR                         0x0000004800008080 
  WID                          0x000001ad
  LEN                          0x03
  SIZE                         0x100
  BURST                        0x01
  CACHE                        0x0111
  LOCK                         0x00
  PROT                         0x011
  REGION                       0x0001
  QOS                          0x1101
  AWUSER                       0x4a8e1b95f7ef96ef6835cbd098f1aa31acfc4459add87a5b14607928c0023680d52ae0aa1390d127739aa9e7b22b9264868dc00db1a7c063592c0fb23e403f7ca75d7a4e97c42a2f3a131f7412e48125d12b60a2bb88b477c3790e865ad25db5ba358874d337c2a61be5d337eedd94ddcb7ac296501779a003341d0621b7b143
  BRESP                        XIL_AXI_RESP_OKAY
  DRIVER_RETURN_ITEM           XIL_AXI_NO_RETURN 
  CREATION_TIME                525000
  SUBMIT_TIME                  0
  PAYLOAD                      64
    BEAT[          0]          0x8cf633ea0522e581d84cef1b75bb242c (strb : 0b1111111111111111) :beat_delay:         0
    BEAT[          1]          0xb7a0d2a2b864e22fbc8c8151da445fd7 (strb : 0b1111111111111111) :beat_delay:         0
    BEAT[          2]          0x627d15d7bdf7a554070cbf240479cb1a (strb : 0b1111111111111111) :beat_delay:         0
    BEAT[          3]          0x5cd093f14d1812c26c4e3da84f0626c0 (strb : 0b1111111111111111) :beat_delay:         0
--------------------------------------------------------------------------------------------
INFO: [Master VIP_wr_driver] (axi_vip_pkg.axi_mst_wr_driver(C_AXI_ADDR_WIDTH=40,C_AXI_WDATA_WIDTH=128,C_AXI_RDATA_WIDTH=128,C_AXI_WID_WIDTH=16,C_AXI_RID_WIDTH=16,C_AXI_AWUSER_WIDTH=16,C_AXI_ARUSER_WIDTH=16)::get_and_drive.GET_AND_DRIVE) 525000 : Sending transaction: 
INFO: [Master VIP_wr_driver] (axi_vip_pkg.axi_mst_wr_driver(C_AXI_ADDR_WIDTH=40,C_AXI_WDATA_WIDTH=128,C_AXI_RDATA_WIDTH=128,C_AXI_WID_WIDTH=16,C_AXI_RID_WIDTH=16,C_AXI_AWUSER_WIDTH=16,C_AXI_ARUSER_WIDTH=16)::get_and_drive.GET_AND_DRIVE) 525000 : ---------------------------------------------------------------------------------------------
  Name                         Value
---------------------------------------------------------------------------------------------
  CMD                          XIL_AXI_WRITE
  ADDR                         0x00000048000080c0 
  WID                          0x000001ad
  LEN                          0x03
  SIZE                         0x100
  BURST                        0x01
  CACHE                        0x0111
  LOCK                         0x00
  PROT                         0x010
  REGION                       0x1000
  QOS                          0x1011
  AWUSER                       0x851c3a0a8a0f321424a6bb49c5b2c28b32a5cd65335a7d668a9c46158e34081c190be7328a5ba81406e37b0dc4e2da89fbfffaf78c35f8189488ac2983c8da076fae3fdfdbb272b70b14ed16149f71291cf1a3390243dd04ffa214ff6233bdc43447e168dacab6b5b6aeb26dfd8aa6fb03856707ea1946d4fab21ef5dac4ceb5
  BRESP                        XIL_AXI_RESP_OKAY
  DRIVER_RETURN_ITEM           XIL_AXI_NO_RETURN 
  CREATION_TIME                525000
  SUBMIT_TIME                  0
  PAYLOAD                      64
    BEAT[          0]          0xed2c202459b99b1f9cd09f6f96981bb7 (strb : 0b1111111111111111) :beat_delay:         0
    BEAT[          1]          0x72f8779902132d06cff5a97c5e94f599 (strb : 0b1111111111111111) :beat_delay:         0
    BEAT[          2]          0x9ff86c00e748de1452da7002b4521f1a (strb : 0b1111111111111111) :beat_delay:         0
    BEAT[          3]          0xfaa15fb975262d2c749d6068e5d4e3cd (strb : 0b1111111111111111) :beat_delay:         0
--------------------------------------------------------------------------------------------
INFO: [Master VIP_wr_driver] (axi_vip_pkg.axi_mst_wr_driver(C_AXI_ADDR_WIDTH=40,C_AXI_WDATA_WIDTH=128,C_AXI_RDATA_WIDTH=128,C_AXI_WID_WIDTH=16,C_AXI_RID_WIDTH=16,C_AXI_AWUSER_WIDTH=16,C_AXI_ARUSER_WIDTH=16)::get_and_drive.GET_AND_DRIVE) 525000 : Sending transaction: 
INFO: [Master VIP_wr_driver] (axi_vip_pkg.axi_mst_wr_driver(C_AXI_ADDR_WIDTH=40,C_AXI_WDATA_WIDTH=128,C_AXI_RDATA_WIDTH=128,C_AXI_WID_WIDTH=16,C_AXI_RID_WIDTH=16,C_AXI_AWUSER_WIDTH=16,C_AXI_ARUSER_WIDTH=16)::get_and_drive.GET_AND_DRIVE) 525000 : ---------------------------------------------------------------------------------------------
  Name                         Value
---------------------------------------------------------------------------------------------
  CMD                          XIL_AXI_WRITE
  ADDR                         0x0000004800008100 
  WID                          0x000001ad
  LEN                          0x03
  SIZE                         0x100
  BURST                        0x01
  CACHE                        0x1110
  LOCK                         0x00
  PROT                         0x001
  REGION                       0x0100
  QOS                          0x1111
  AWUSER                       0x6b4ed7d655c88dabc738ea8eadacec5bf4fac6e99b6c0436fbe542f7a1d58c4311b08323a651bc4c49f319935414e7a873841fe7b1ea186373d061e7b2bcbe6520ea71413cc93d795dddd1bb311c9962c18d0a83d4cb0ca98722da0e8f05b61e9fde423faaf72c55a8c1b251a20f2044f36d2ae6d324fea6f02b4ee0649997c9
  BRESP                        XIL_AXI_RESP_OKAY
  DRIVER_RETURN_ITEM           XIL_AXI_NO_RETURN 
  CREATION_TIME                525000
  SUBMIT_TIME                  0
  PAYLOAD                      64
    BEAT[          0]          0x7694b3b69d516342b703fca7cc9a8c6b (strb : 0b1111111111111111) :beat_delay:         0
    BEAT[          1]          0x46cdd2e2883b1a5e9957e91604ac9047 (strb : 0b1111111111111111) :beat_delay:         0
    BEAT[          2]          0xd27bf56a88b6abf45168f71bab676c3d (strb : 0b1111111111111111) :beat_delay:         0
    BEAT[          3]          0x9d15de20079811d39e8f1836626ee3d9 (strb : 0b1111111111111111) :beat_delay:         0
--------------------------------------------------------------------------------------------
INFO: [Master VIP_wr_driver] (axi_vip_pkg.axi_mst_wr_driver(C_AXI_ADDR_WIDTH=40,C_AXI_WDATA_WIDTH=128,C_AXI_RDATA_WIDTH=128,C_AXI_WID_WIDTH=16,C_AXI_RID_WIDTH=16,C_AXI_AWUSER_WIDTH=16,C_AXI_ARUSER_WIDTH=16)::get_and_drive.GET_AND_DRIVE) 525000 : Sending transaction: 
INFO: [Master VIP_wr_driver] (axi_vip_pkg.axi_mst_wr_driver(C_AXI_ADDR_WIDTH=40,C_AXI_WDATA_WIDTH=128,C_AXI_RDATA_WIDTH=128,C_AXI_WID_WIDTH=16,C_AXI_RID_WIDTH=16,C_AXI_AWUSER_WIDTH=16,C_AXI_ARUSER_WIDTH=16)::get_and_drive.GET_AND_DRIVE) 525000 : ---------------------------------------------------------------------------------------------
  Name                         Value
---------------------------------------------------------------------------------------------
  CMD                          XIL_AXI_WRITE
  ADDR                         0x0000004800008140 
  WID                          0x000001ad
  LEN                          0x03
  SIZE                         0x100
  BURST                        0x01
  CACHE                        0x0011
  LOCK                         0x00
  PROT                         0x001
  REGION                       0x1110
  QOS                          0x1010
  AWUSER                       0x74d7f5e92e2c3f5c0bafe5176d645bda2c8c9f590a52b71462401dc41fc8bf3fdef70abd0b913d1706c0db0d2ff8f95f979aec2f3de6557bc546ae8aaee7f05d65f2bbcb38624370357ef16accc446996fe3a7df256b0b4a4003b5803f9c617feef1a4dda0c07041106fcb2009c263134c336b986f3ff9de8832cc1003f03107
  BRESP                        XIL_AXI_RESP_OKAY
  DRIVER_RETURN_ITEM           XIL_AXI_NO_RETURN 
  CREATION_TIME                525000
  SUBMIT_TIME                  0
  PAYLOAD                      64
    BEAT[          0]          0xadeb8d122f5bb8eddff4a060cbef1c3d (strb : 0b1111111111111111) :beat_delay:         0
    BEAT[          1]          0xf175fe60a5caf6fc6370ceffdbdb7a9a (strb : 0b1111111111111111) :beat_delay:         0
    BEAT[          2]          0x5eb1bfc80fb4265b9325c22596dbe57e (strb : 0b1111111111111111) :beat_delay:         0
    BEAT[          3]          0x7797e3cd9e5c34abae78717fc4eaa925 (strb : 0b1111111111111111) :beat_delay:         0
--------------------------------------------------------------------------------------------
INFO: [Master VIP_wr_driver] (axi_vip_pkg.axi_mst_wr_driver(C_AXI_ADDR_WIDTH=40,C_AXI_WDATA_WIDTH=128,C_AXI_RDATA_WIDTH=128,C_AXI_WID_WIDTH=16,C_AXI_RID_WIDTH=16,C_AXI_AWUSER_WIDTH=16,C_AXI_ARUSER_WIDTH=16)::get_and_drive.GET_AND_DRIVE) 525000 : Sending transaction: 
INFO: [Master VIP_wr_driver] (axi_vip_pkg.axi_mst_wr_driver(C_AXI_ADDR_WIDTH=40,C_AXI_WDATA_WIDTH=128,C_AXI_RDATA_WIDTH=128,C_AXI_WID_WIDTH=16,C_AXI_RID_WIDTH=16,C_AXI_AWUSER_WIDTH=16,C_AXI_ARUSER_WIDTH=16)::get_and_drive.GET_AND_DRIVE) 525000 : ---------------------------------------------------------------------------------------------
  Name                         Value
---------------------------------------------------------------------------------------------
  CMD                          XIL_AXI_WRITE
  ADDR                         0x0000004800008180 
  WID                          0x000001ad
  LEN                          0x03
  SIZE                         0x100
  BURST                        0x01
  CACHE                        0x0011
  LOCK                         0x00
  PROT                         0x100
  REGION                       0x0100
  QOS                          0x0001
  AWUSER                       0xaac5e6550aac5f15739a9fe709ca591381524e02a7a3f04fc3e434875020efa0bbb89e7798324e30b48a04698017ec00bc212c783ded1d7b9374442681245202e5710aca9f59be3ecd79e69a14a4e729d85e0cb0a551564a5d549fba2ca62f590142c9022c24cb589d54e03a70666be04ab291950c80bf192fd5e35f72999fe5
  BRESP                        XIL_AXI_RESP_OKAY
  DRIVER_RETURN_ITEM           XIL_AXI_NO_RETURN 
  CREATION_TIME                525000
  SUBMIT_TIME                  0
  PAYLOAD                      64
    BEAT[          0]          0xd6d55da6f3901f26c927cdc498c8e1ca (strb : 0b1111111111111111) :beat_delay:         0
    BEAT[          1]          0xf5663b81ffa5eac1401eb8548a46a9fe (strb : 0b1111111111111111) :beat_delay:         0
    BEAT[          2]          0x2375cd22b05b950477f9015736494505 (strb : 0b1111111111111111) :beat_delay:         0
    BEAT[          3]          0x7904a8269f14f7c05683e15fbfa88d73 (strb : 0b1111111111111111) :beat_delay:         0
--------------------------------------------------------------------------------------------
INFO: [Master VIP_wr_driver] (axi_vip_pkg.axi_mst_wr_driver(C_AXI_ADDR_WIDTH=40,C_AXI_WDATA_WIDTH=128,C_AXI_RDATA_WIDTH=128,C_AXI_WID_WIDTH=16,C_AXI_RID_WIDTH=16,C_AXI_AWUSER_WIDTH=16,C_AXI_ARUSER_WIDTH=16)::get_and_drive.GET_AND_DRIVE) 525000 : Sending transaction: 
INFO: [Master VIP_wr_driver] (axi_vip_pkg.axi_mst_wr_driver(C_AXI_ADDR_WIDTH=40,C_AXI_WDATA_WIDTH=128,C_AXI_RDATA_WIDTH=128,C_AXI_WID_WIDTH=16,C_AXI_RID_WIDTH=16,C_AXI_AWUSER_WIDTH=16,C_AXI_ARUSER_WIDTH=16)::get_and_drive.GET_AND_DRIVE) 525000 : ---------------------------------------------------------------------------------------------
  Name                         Value
---------------------------------------------------------------------------------------------
  CMD                          XIL_AXI_WRITE
  ADDR                         0x00000048000081c0 
  WID                          0x000001ad
  LEN                          0x03
  SIZE                         0x100
  BURST                        0x01
  CACHE                        0x0001
  LOCK                         0x00
  PROT                         0x000
  REGION                       0x1000
  QOS                          0x1110
  AWUSER                       0xdfdea8bf7c8565f9bb7fda766cbb2bd9d63dbcacc9cfb0936511f3ca2ff2af5f31f88f6310d3f7217cb22df9fa4e16f4ea7912d4accffa591d71593a756d87ea8f5bfe1e8d3f3e1a0fd50f1f5778e3aefd24c4fa295f0b52a76ba24e4303cf8678b19bf1b5725e6a2920275292b1ac25a56f704addc600bb0e4e6f1cb499a469
  BRESP                        XIL_AXI_RESP_OKAY
  DRIVER_RETURN_ITEM           XIL_AXI_NO_RETURN 
  CREATION_TIME                525000
  SUBMIT_TIME                  0
  PAYLOAD                      64
    BEAT[          0]          0xfc46198bfc66cec27d05889be3776c7f (strb : 0b1111111111111111) :beat_delay:         0
    BEAT[          1]          0x3e0c365e97ccdfce966fd20f883cc38e (strb : 0b1111111111111111) :beat_delay:         0
    BEAT[          2]          0xac07116b156b76da625ca813470217d0 (strb : 0b1111111111111111) :beat_delay:         0
    BEAT[          3]          0x0e37106cd923ab059c3f66ee0e24b31d (strb : 0b1111111111111111) :beat_delay:         0
--------------------------------------------------------------------------------------------
INFO: [Master VIP_wr_driver] (axi_vip_pkg.axi_mst_wr_driver(C_AXI_ADDR_WIDTH=40,C_AXI_WDATA_WIDTH=128,C_AXI_RDATA_WIDTH=128,C_AXI_WID_WIDTH=16,C_AXI_RID_WIDTH=16,C_AXI_AWUSER_WIDTH=16,C_AXI_ARUSER_WIDTH=16)::w_channel.W_CHANNEL.Block10274_318.Block10274_319) 565000 : WREADY (         0) id=0x000001ad
INFO: [Master VIP_wr_driver] (axi_vip_pkg.axi_mst_wr_driver(C_AXI_ADDR_WIDTH=40,C_AXI_WDATA_WIDTH=128,C_AXI_RDATA_WIDTH=128,C_AXI_WID_WIDTH=16,C_AXI_RID_WIDTH=16,C_AXI_AWUSER_WIDTH=16,C_AXI_ARUSER_WIDTH=16)::w_channel.W_CHANNEL.Block10274_318.Block10274_319) 575000 : WREADY (         1) id=0x000001ad
INFO: [Master VIP_wr_driver] (axi_vip_pkg.axi_mst_wr_driver(C_AXI_ADDR_WIDTH=40,C_AXI_WDATA_WIDTH=128,C_AXI_RDATA_WIDTH=128,C_AXI_WID_WIDTH=16,C_AXI_RID_WIDTH=16,C_AXI_AWUSER_WIDTH=16,C_AXI_ARUSER_WIDTH=16)::w_channel.W_CHANNEL.Block10274_318.Block10274_319) 585000 : WREADY (         2) id=0x000001ad
INFO: [Master VIP_wr_driver] (axi_vip_pkg.axi_mst_wr_driver(C_AXI_ADDR_WIDTH=40,C_AXI_WDATA_WIDTH=128,C_AXI_RDATA_WIDTH=128,C_AXI_WID_WIDTH=16,C_AXI_RID_WIDTH=16,C_AXI_AWUSER_WIDTH=16,C_AXI_ARUSER_WIDTH=16)::w_channel.W_CHANNEL.Block10274_318.Block10274_319) 595000 : WREADY+WLAST (         3) id=0x000001ad
INFO: [Master VIP_wr_driver] (axi_vip_pkg.axi_mst_wr_driver(C_AXI_ADDR_WIDTH=40,C_AXI_WDATA_WIDTH=128,C_AXI_RDATA_WIDTH=128,C_AXI_WID_WIDTH=16,C_AXI_RID_WIDTH=16,C_AXI_AWUSER_WIDTH=16,C_AXI_ARUSER_WIDTH=16)::w_channel.W_CHANNEL.Block10274_318.Block10274_319) 625000 : WREADY (         0) id=0x000001ad
INFO: [Master VIP_wr_driver] (axi_vip_pkg.axi_mst_wr_driver(C_AXI_ADDR_WIDTH=40,C_AXI_WDATA_WIDTH=128,C_AXI_RDATA_WIDTH=128,C_AXI_WID_WIDTH=16,C_AXI_RID_WIDTH=16,C_AXI_AWUSER_WIDTH=16,C_AXI_ARUSER_WIDTH=16)::w_channel.W_CHANNEL.Block10274_318.Block10274_319) 635000 : WREADY (         1) id=0x000001ad
INFO: [Master VIP_wr_driver] (axi_vip_pkg.axi_mst_wr_driver(C_AXI_ADDR_WIDTH=40,C_AXI_WDATA_WIDTH=128,C_AXI_RDATA_WIDTH=128,C_AXI_WID_WIDTH=16,C_AXI_RID_WIDTH=16,C_AXI_AWUSER_WIDTH=16,C_AXI_ARUSER_WIDTH=16)::w_channel.W_CHANNEL.Block10274_318.Block10274_319) 645000 : WREADY (         2) id=0x000001ad
INFO: [Master VIP_wr_driver] (axi_vip_pkg.axi_mst_wr_driver(C_AXI_ADDR_WIDTH=40,C_AXI_WDATA_WIDTH=128,C_AXI_RDATA_WIDTH=128,C_AXI_WID_WIDTH=16,C_AXI_RID_WIDTH=16,C_AXI_AWUSER_WIDTH=16,C_AXI_ARUSER_WIDTH=16)::w_channel.W_CHANNEL.Block10274_318.Block10274_319) 655000 : WREADY+WLAST (         3) id=0x000001ad
INFO: [Master VIP_wr_driver] (axi_vip_pkg.axi_mst_wr_driver(C_AXI_ADDR_WIDTH=40,C_AXI_WDATA_WIDTH=128,C_AXI_RDATA_WIDTH=128,C_AXI_WID_WIDTH=16,C_AXI_RID_WIDTH=16,C_AXI_AWUSER_WIDTH=16,C_AXI_ARUSER_WIDTH=16)::w_channel.W_CHANNEL.Block10274_318.Block10274_319) 685000 : WREADY (         0) id=0x000001ad
INFO: [Master VIP_wr_driver] (axi_vip_pkg.axi_mst_wr_driver(C_AXI_ADDR_WIDTH=40,C_AXI_WDATA_WIDTH=128,C_AXI_RDATA_WIDTH=128,C_AXI_WID_WIDTH=16,C_AXI_RID_WIDTH=16,C_AXI_AWUSER_WIDTH=16,C_AXI_ARUSER_WIDTH=16)::w_channel.W_CHANNEL.Block10274_318.Block10274_319) 695000 : WREADY (         1) id=0x000001ad
INFO: [Master VIP_wr_driver] (axi_vip_pkg.axi_mst_wr_driver(C_AXI_ADDR_WIDTH=40,C_AXI_WDATA_WIDTH=128,C_AXI_RDATA_WIDTH=128,C_AXI_WID_WIDTH=16,C_AXI_RID_WIDTH=16,C_AXI_AWUSER_WIDTH=16,C_AXI_ARUSER_WIDTH=16)::w_channel.W_CHANNEL.Block10274_318.Block10274_319) 705000 : WREADY (         2) id=0x000001ad
INFO: [Master VIP_wr_driver] (axi_vip_pkg.axi_mst_wr_driver(C_AXI_ADDR_WIDTH=40,C_AXI_WDATA_WIDTH=128,C_AXI_RDATA_WIDTH=128,C_AXI_WID_WIDTH=16,C_AXI_RID_WIDTH=16,C_AXI_AWUSER_WIDTH=16,C_AXI_ARUSER_WIDTH=16)::w_channel.W_CHANNEL.Block10274_318.Block10274_319) 715000 : WREADY+WLAST (         3) id=0x000001ad
INFO: [Master VIP_wr_driver] (axi_vip_pkg.axi_mst_wr_driver(C_AXI_ADDR_WIDTH=40,C_AXI_WDATA_WIDTH=128,C_AXI_RDATA_WIDTH=128,C_AXI_WID_WIDTH=16,C_AXI_RID_WIDTH=16,C_AXI_AWUSER_WIDTH=16,C_AXI_ARUSER_WIDTH=16)::w_channel.W_CHANNEL.Block10274_318.Block10274_319) 745000 : WREADY (         0) id=0x000001ad
INFO: [Master VIP_wr_driver] (axi_vip_pkg.axi_mst_wr_driver(C_AXI_ADDR_WIDTH=40,C_AXI_WDATA_WIDTH=128,C_AXI_RDATA_WIDTH=128,C_AXI_WID_WIDTH=16,C_AXI_RID_WIDTH=16,C_AXI_AWUSER_WIDTH=16,C_AXI_ARUSER_WIDTH=16)::w_channel.W_CHANNEL.Block10274_318.Block10274_319) 755000 : WREADY (         1) id=0x000001ad
INFO: [Master VIP_wr_driver] (axi_vip_pkg.axi_mst_wr_driver(C_AXI_ADDR_WIDTH=40,C_AXI_WDATA_WIDTH=128,C_AXI_RDATA_WIDTH=128,C_AXI_WID_WIDTH=16,C_AXI_RID_WIDTH=16,C_AXI_AWUSER_WIDTH=16,C_AXI_ARUSER_WIDTH=16)::w_channel.W_CHANNEL.Block10274_318.Block10274_319) 765000 : WREADY (         2) id=0x000001ad
INFO: [Master VIP_wr_driver] (axi_vip_pkg.axi_mst_wr_driver(C_AXI_ADDR_WIDTH=40,C_AXI_WDATA_WIDTH=128,C_AXI_RDATA_WIDTH=128,C_AXI_WID_WIDTH=16,C_AXI_RID_WIDTH=16,C_AXI_AWUSER_WIDTH=16,C_AXI_ARUSER_WIDTH=16)::w_channel.W_CHANNEL.Block10274_318.Block10274_319) 775000 : WREADY+WLAST (         3) id=0x000001ad
INFO: [Master VIP_wr_driver] (axi_vip_pkg.axi_mst_wr_driver(C_AXI_ADDR_WIDTH=40,C_AXI_WDATA_WIDTH=128,C_AXI_RDATA_WIDTH=128,C_AXI_WID_WIDTH=16,C_AXI_RID_WIDTH=16,C_AXI_AWUSER_WIDTH=16,C_AXI_ARUSER_WIDTH=16)::w_channel.W_CHANNEL.Block10274_318.Block10274_319) 805000 : WREADY (         0) id=0x000001ad
INFO: [Master VIP_wr_driver] (axi_vip_pkg.axi_mst_wr_driver(C_AXI_ADDR_WIDTH=40,C_AXI_WDATA_WIDTH=128,C_AXI_RDATA_WIDTH=128,C_AXI_WID_WIDTH=16,C_AXI_RID_WIDTH=16,C_AXI_AWUSER_WIDTH=16,C_AXI_ARUSER_WIDTH=16)::w_channel.W_CHANNEL.Block10274_318.Block10274_319) 815000 : WREADY (         1) id=0x000001ad
INFO: [Master VIP_wr_driver] (axi_vip_pkg.axi_mst_wr_driver(C_AXI_ADDR_WIDTH=40,C_AXI_WDATA_WIDTH=128,C_AXI_RDATA_WIDTH=128,C_AXI_WID_WIDTH=16,C_AXI_RID_WIDTH=16,C_AXI_AWUSER_WIDTH=16,C_AXI_ARUSER_WIDTH=16)::w_channel.W_CHANNEL.Block10274_318.Block10274_319) 825000 : WREADY (         2) id=0x000001ad
INFO: [Master VIP_wr_driver] (axi_vip_pkg.axi_mst_wr_driver(C_AXI_ADDR_WIDTH=40,C_AXI_WDATA_WIDTH=128,C_AXI_RDATA_WIDTH=128,C_AXI_WID_WIDTH=16,C_AXI_RID_WIDTH=16,C_AXI_AWUSER_WIDTH=16,C_AXI_ARUSER_WIDTH=16)::w_channel.W_CHANNEL.Block10274_318.Block10274_319) 835000 : WREADY+WLAST (         3) id=0x000001ad
INFO: [Master VIP_wr_driver] (axi_vip_pkg.axi_mst_wr_driver(C_AXI_ADDR_WIDTH=40,C_AXI_WDATA_WIDTH=128,C_AXI_RDATA_WIDTH=128,C_AXI_WID_WIDTH=16,C_AXI_RID_WIDTH=16,C_AXI_AWUSER_WIDTH=16,C_AXI_ARUSER_WIDTH=16)::w_channel.W_CHANNEL.Block10274_318.Block10274_319) 865000 : WREADY (         0) id=0x000001ad
INFO: [Master VIP_wr_driver] (axi_vip_pkg.axi_mst_wr_driver(C_AXI_ADDR_WIDTH=40,C_AXI_WDATA_WIDTH=128,C_AXI_RDATA_WIDTH=128,C_AXI_WID_WIDTH=16,C_AXI_RID_WIDTH=16,C_AXI_AWUSER_WIDTH=16,C_AXI_ARUSER_WIDTH=16)::w_channel.W_CHANNEL.Block10274_318.Block10274_319) 875000 : WREADY (         1) id=0x000001ad
INFO: [Master VIP_wr_driver] (axi_vip_pkg.axi_mst_wr_driver(C_AXI_ADDR_WIDTH=40,C_AXI_WDATA_WIDTH=128,C_AXI_RDATA_WIDTH=128,C_AXI_WID_WIDTH=16,C_AXI_RID_WIDTH=16,C_AXI_AWUSER_WIDTH=16,C_AXI_ARUSER_WIDTH=16)::w_channel.W_CHANNEL.Block10274_318.Block10274_319) 885000 : WREADY (         2) id=0x000001ad
INFO: [Master VIP_wr_driver] (axi_vip_pkg.axi_mst_wr_driver(C_AXI_ADDR_WIDTH=40,C_AXI_WDATA_WIDTH=128,C_AXI_RDATA_WIDTH=128,C_AXI_WID_WIDTH=16,C_AXI_RID_WIDTH=16,C_AXI_AWUSER_WIDTH=16,C_AXI_ARUSER_WIDTH=16)::w_channel.W_CHANNEL.Block10274_318.Block10274_319) 895000 : WREADY+WLAST (         3) id=0x000001ad
INFO: [Master VIP_wr_driver] (axi_vip_pkg.axi_mst_wr_driver(C_AXI_ADDR_WIDTH=40,C_AXI_WDATA_WIDTH=128,C_AXI_RDATA_WIDTH=128,C_AXI_WID_WIDTH=16,C_AXI_RID_WIDTH=16,C_AXI_AWUSER_WIDTH=16,C_AXI_ARUSER_WIDTH=16)::w_channel.W_CHANNEL.Block10274_318.Block10274_319) 925000 : WREADY (         0) id=0x000001ad
INFO: [Master VIP_wr_driver] (axi_vip_pkg.axi_mst_wr_driver(C_AXI_ADDR_WIDTH=40,C_AXI_WDATA_WIDTH=128,C_AXI_RDATA_WIDTH=128,C_AXI_WID_WIDTH=16,C_AXI_RID_WIDTH=16,C_AXI_AWUSER_WIDTH=16,C_AXI_ARUSER_WIDTH=16)::w_channel.W_CHANNEL.Block10274_318.Block10274_319) 935000 : WREADY (         1) id=0x000001ad
INFO: [Master VIP_wr_driver] (axi_vip_pkg.axi_mst_wr_driver(C_AXI_ADDR_WIDTH=40,C_AXI_WDATA_WIDTH=128,C_AXI_RDATA_WIDTH=128,C_AXI_WID_WIDTH=16,C_AXI_RID_WIDTH=16,C_AXI_AWUSER_WIDTH=16,C_AXI_ARUSER_WIDTH=16)::w_channel.W_CHANNEL.Block10274_318.Block10274_319) 945000 : WREADY (         2) id=0x000001ad
INFO: [Master VIP_wr_driver] (axi_vip_pkg.axi_mst_wr_driver(C_AXI_ADDR_WIDTH=40,C_AXI_WDATA_WIDTH=128,C_AXI_RDATA_WIDTH=128,C_AXI_WID_WIDTH=16,C_AXI_RID_WIDTH=16,C_AXI_AWUSER_WIDTH=16,C_AXI_ARUSER_WIDTH=16)::w_channel.W_CHANNEL.Block10274_318.Block10274_319) 955000 : WREADY+WLAST (         3) id=0x000001ad
INFO: [Master VIP_wr_driver] (axi_vip_pkg.axi_mst_wr_driver(C_AXI_ADDR_WIDTH=40,C_AXI_WDATA_WIDTH=128,C_AXI_RDATA_WIDTH=128,C_AXI_WID_WIDTH=16,C_AXI_RID_WIDTH=16,C_AXI_AWUSER_WIDTH=16,C_AXI_ARUSER_WIDTH=16)::w_channel.W_CHANNEL.Block10274_318.Block10274_319) 985000 : WREADY (         0) id=0x000001ad
INFO: [Master VIP_wr_driver] (axi_vip_pkg.axi_mst_wr_driver(C_AXI_ADDR_WIDTH=40,C_AXI_WDATA_WIDTH=128,C_AXI_RDATA_WIDTH=128,C_AXI_WID_WIDTH=16,C_AXI_RID_WIDTH=16,C_AXI_AWUSER_WIDTH=16,C_AXI_ARUSER_WIDTH=16)::w_channel.W_CHANNEL.Block10274_318.Block10274_319) 995000 : WREADY (         1) id=0x000001ad
INFO: [Master VIP_wr_driver] (axi_vip_pkg.axi_mst_wr_driver(C_AXI_ADDR_WIDTH=40,C_AXI_WDATA_WIDTH=128,C_AXI_RDATA_WIDTH=128,C_AXI_WID_WIDTH=16,C_AXI_RID_WIDTH=16,C_AXI_AWUSER_WIDTH=16,C_AXI_ARUSER_WIDTH=16)::w_channel.W_CHANNEL.Block10274_318.Block10274_319) 1005000 : WREADY (         2) id=0x000001ad
INFO: [Master VIP_wr_driver] (axi_vip_pkg.axi_mst_wr_driver(C_AXI_ADDR_WIDTH=40,C_AXI_WDATA_WIDTH=128,C_AXI_RDATA_WIDTH=128,C_AXI_WID_WIDTH=16,C_AXI_RID_WIDTH=16,C_AXI_AWUSER_WIDTH=16,C_AXI_ARUSER_WIDTH=16)::w_channel.W_CHANNEL.Block10274_318.Block10274_319) 1015000 : WREADY+WLAST (         3) id=0x000001ad
INFO: [Slave VIP_wr_driver] (axi_vip_pkg.axi_slv_wr_driver(C_AXI_ADDR_WIDTH=40,C_AXI_WDATA_WIDTH=128,C_AXI_RDATA_WIDTH=128,C_AXI_WID_WIDTH=16,C_AXI_RID_WIDTH=16,C_AXI_AWUSER_WIDTH=1,C_AXI_ARUSER_WIDTH=1,C_AXI_HAS_REGION=0)::aw_channel.AW_CHANNEL) 1335000 : AWVALID >>>
XIL_AXI_WRITE (41) A:0x0000000800000000 ID:0x000081ad len:0x03 XIL_AXI_SIZE_16BYTE XIL_AXI_BURST_TYPE_INCR C:0b0110 L:XIL_AXI_ALOCK_NOLOCK P:0b000<<<
INFO: [Slave VIP_wr_driver] (axi_vip_pkg.axi_slv_wr_driver(C_AXI_ADDR_WIDTH=40,C_AXI_WDATA_WIDTH=128,C_AXI_RDATA_WIDTH=128,C_AXI_WID_WIDTH=16,C_AXI_RID_WIDTH=16,C_AXI_AWUSER_WIDTH=1,C_AXI_ARUSER_WIDTH=1,C_AXI_HAS_REGION=0)::w_channel.W_CHANNEL) 1345000 : W BEAT -- write_beat     Last:0 D:0xb6eb8978d8418af23cca0a23cf1dae02 BE:0b1111111111111111 
INFO: [Slave VIP_wr_driver] (axi_vip_pkg.axi_slv_wr_driver(C_AXI_ADDR_WIDTH=40,C_AXI_WDATA_WIDTH=128,C_AXI_RDATA_WIDTH=128,C_AXI_WID_WIDTH=16,C_AXI_RID_WIDTH=16,C_AXI_AWUSER_WIDTH=1,C_AXI_ARUSER_WIDTH=1,C_AXI_HAS_REGION=0)::w_channel.W_CHANNEL) 1375000 : W BEAT -- write_beat     Last:0 D:0x4c62d9f1157e3a3b4f85710b2abcaec6 BE:0b1111111111111111 
INFO: [Slave VIP_wr_driver] (axi_vip_pkg.axi_slv_wr_driver(C_AXI_ADDR_WIDTH=40,C_AXI_WDATA_WIDTH=128,C_AXI_RDATA_WIDTH=128,C_AXI_WID_WIDTH=16,C_AXI_RID_WIDTH=16,C_AXI_AWUSER_WIDTH=1,C_AXI_ARUSER_WIDTH=1,C_AXI_HAS_REGION=0)::w_channel.W_CHANNEL) 1405000 : W BEAT -- write_beat     Last:0 D:0xc8c20c9651d7d049895b5c9fb7f88f9f BE:0b1111111111111111 
INFO: [Slave VIP_wr_driver] (axi_vip_pkg.axi_slv_wr_driver(C_AXI_ADDR_WIDTH=40,C_AXI_WDATA_WIDTH=128,C_AXI_RDATA_WIDTH=128,C_AXI_WID_WIDTH=16,C_AXI_RID_WIDTH=16,C_AXI_AWUSER_WIDTH=1,C_AXI_ARUSER_WIDTH=1,C_AXI_HAS_REGION=0)::w_channel.W_CHANNEL) 1435000 : W LAST -- write_beat     Last:1 D:0x86582a3f495b7885d31f396d7e123d77 BE:0b1111111111111111 
INFO: [Slave VIP_wr_driver] (axi_vip_pkg.axi_slv_wr_driver(C_AXI_ADDR_WIDTH=40,C_AXI_WDATA_WIDTH=128,C_AXI_RDATA_WIDTH=128,C_AXI_WID_WIDTH=16,C_AXI_RID_WIDTH=16,C_AXI_AWUSER_WIDTH=1,C_AXI_ARUSER_WIDTH=1,C_AXI_HAS_REGION=0)::push_reactive_q) 1435000 : PUSH_REACTIVE_Q: PUSH (         0) >>> XIL_AXI_WRITE (41) A:0x0000000800000000 ID:0x000081ad len:0x03 XIL_AXI_SIZE_16BYTE XIL_AXI_BURST_TYPE_INCR C:0b0110 L:XIL_AXI_ALOCK_NOLOCK P:0b000 <<<
INFO: [Slave VIP_wr_driver] (axi_vip_pkg.axi_slv_wr_driver(C_AXI_ADDR_WIDTH=40,C_AXI_WDATA_WIDTH=128,C_AXI_RDATA_WIDTH=128,C_AXI_WID_WIDTH=16,C_AXI_RID_WIDTH=16,C_AXI_AWUSER_WIDTH=1,C_AXI_ARUSER_WIDTH=1,C_AXI_HAS_REGION=0)::pop_reactive_q) 1435000 : POP_REACTIVE_Q: (         1) >>> XIL_AXI_WRITE (41) A:0x0000000800000000 ID:0x000081ad len:0x03 XIL_AXI_SIZE_16BYTE XIL_AXI_BURST_TYPE_INCR C:0b0110 L:XIL_AXI_ALOCK_NOLOCK P:0b000 <<<
INFO: [Slave VIP_wr_driver] (axi_vip_pkg.axi_slv_wr_driver(C_AXI_ADDR_WIDTH=40,C_AXI_WDATA_WIDTH=128,C_AXI_RDATA_WIDTH=128,C_AXI_WID_WIDTH=16,C_AXI_RID_WIDTH=16,C_AXI_AWUSER_WIDTH=1,C_AXI_ARUSER_WIDTH=1,C_AXI_HAS_REGION=0)::get_and_drive.GET_AND_DRIVE) 1435000 : GNI : XIL_AXI_WRITE (41) A:0x0000000800000000 ID:0x000081ad len:0x03 XIL_AXI_SIZE_16BYTE XIL_AXI_BURST_TYPE_INCR C:0b0110 L:XIL_AXI_ALOCK_NOLOCK P:0b000
INFO: [Slave VIP_wr_driver] (axi_vip_pkg.axi_slv_wr_driver(C_AXI_ADDR_WIDTH=40,C_AXI_WDATA_WIDTH=128,C_AXI_RDATA_WIDTH=128,C_AXI_WID_WIDTH=16,C_AXI_RID_WIDTH=16,C_AXI_AWUSER_WIDTH=1,C_AXI_ARUSER_WIDTH=1,C_AXI_HAS_REGION=0)::push_b_q) 1435000 : B PUSH (         0)
INFO: [Slave VIP_wr_driver] (axi_vip_pkg.axi_slv_wr_driver(C_AXI_ADDR_WIDTH=40,C_AXI_WDATA_WIDTH=128,C_AXI_RDATA_WIDTH=128,C_AXI_WID_WIDTH=16,C_AXI_RID_WIDTH=16,C_AXI_AWUSER_WIDTH=1,C_AXI_ARUSER_WIDTH=1,C_AXI_HAS_REGION=0)::push_b_q) 1435000 : ID=0x000081ad - State 0b0111
Entries in BQ : NumEntries:         0 >>> 
 <<<
Command       : XIL_AXI_WRITE (41) A:0x0000000800000000 ID:0x000081ad len:0x03 XIL_AXI_SIZE_16BYTE XIL_AXI_BURST_TYPE_INCR C:0b0110 L:XIL_AXI_ALOCK_NOLOCK P:0b000
INFO: [Master VIP_wr_driver] (axi_vip_pkg.axi_mst_wr_driver(C_AXI_ADDR_WIDTH=40,C_AXI_WDATA_WIDTH=128,C_AXI_RDATA_WIDTH=128,C_AXI_WID_WIDTH=16,C_AXI_RID_WIDTH=16,C_AXI_AWUSER_WIDTH=16,C_AXI_ARUSER_WIDTH=16)::service_done_q.SERVICE_DONE_Q) 1445000 : SERVICE_DONE_Q: XIL_AXI_WRITE (16) A:0x0000004800008000 ID:0x000001ad len:0x03 XIL_AXI_SIZE_16BYTE XIL_AXI_BURST_TYPE_INCR C:0b0110 L:XIL_AXI_ALOCK_NOLOCK P:0b000
INFO: [Slave VIP_wr_driver] (axi_vip_pkg.axi_slv_wr_driver(C_AXI_ADDR_WIDTH=40,C_AXI_WDATA_WIDTH=128,C_AXI_RDATA_WIDTH=128,C_AXI_WID_WIDTH=16,C_AXI_RID_WIDTH=16,C_AXI_AWUSER_WIDTH=1,C_AXI_ARUSER_WIDTH=1,C_AXI_HAS_REGION=0)::service_done_q.SERVICE_DONE_Q) 1445000 : SERVICE_DONE_Q: XIL_AXI_WRITE (41) A:0x0000000800000000 ID:0x000081ad len:0x03 XIL_AXI_SIZE_16BYTE XIL_AXI_BURST_TYPE_INCR C:0b0110 L:XIL_AXI_ALOCK_NOLOCK P:0b000
INFO: [Slave VIP_wr_driver] (axi_vip_pkg.axi_slv_wr_driver(C_AXI_ADDR_WIDTH=40,C_AXI_WDATA_WIDTH=128,C_AXI_RDATA_WIDTH=128,C_AXI_WID_WIDTH=16,C_AXI_RID_WIDTH=16,C_AXI_AWUSER_WIDTH=1,C_AXI_ARUSER_WIDTH=1,C_AXI_HAS_REGION=0)::aw_channel.AW_CHANNEL) 2015000 : AWVALID >>>
XIL_AXI_WRITE (45) A:0x0000000800000040 ID:0x000081ad len:0x03 XIL_AXI_SIZE_16BYTE XIL_AXI_BURST_TYPE_INCR C:0b0011 L:XIL_AXI_ALOCK_NOLOCK P:0b111<<<
INFO: [Slave VIP_wr_driver] (axi_vip_pkg.axi_slv_wr_driver(C_AXI_ADDR_WIDTH=40,C_AXI_WDATA_WIDTH=128,C_AXI_RDATA_WIDTH=128,C_AXI_WID_WIDTH=16,C_AXI_RID_WIDTH=16,C_AXI_AWUSER_WIDTH=1,C_AXI_ARUSER_WIDTH=1,C_AXI_HAS_REGION=0)::w_channel.W_CHANNEL) 2025000 : W BEAT -- write_beat     Last:0 D:0x2dd17b15dc7173d9a23f482b28ed905f BE:0b1111111111111111 
INFO: [Slave VIP_wr_driver] (axi_vip_pkg.axi_slv_wr_driver(C_AXI_ADDR_WIDTH=40,C_AXI_WDATA_WIDTH=128,C_AXI_RDATA_WIDTH=128,C_AXI_WID_WIDTH=16,C_AXI_RID_WIDTH=16,C_AXI_AWUSER_WIDTH=1,C_AXI_ARUSER_WIDTH=1,C_AXI_HAS_REGION=0)::w_channel.W_CHANNEL) 2055000 : W BEAT -- write_beat     Last:0 D:0x7bcde5f68740f67a5a39fa2c0f12f037 BE:0b1111111111111111 
INFO: [Slave VIP_wr_driver] (axi_vip_pkg.axi_slv_wr_driver(C_AXI_ADDR_WIDTH=40,C_AXI_WDATA_WIDTH=128,C_AXI_RDATA_WIDTH=128,C_AXI_WID_WIDTH=16,C_AXI_RID_WIDTH=16,C_AXI_AWUSER_WIDTH=1,C_AXI_ARUSER_WIDTH=1,C_AXI_HAS_REGION=0)::w_channel.W_CHANNEL) 2085000 : W BEAT -- write_beat     Last:0 D:0x8d4da23e838e317df74e9af0cccbec4d BE:0b1111111111111111 
INFO: [Slave VIP_wr_driver] (axi_vip_pkg.axi_slv_wr_driver(C_AXI_ADDR_WIDTH=40,C_AXI_WDATA_WIDTH=128,C_AXI_RDATA_WIDTH=128,C_AXI_WID_WIDTH=16,C_AXI_RID_WIDTH=16,C_AXI_AWUSER_WIDTH=1,C_AXI_ARUSER_WIDTH=1,C_AXI_HAS_REGION=0)::w_channel.W_CHANNEL) 2115000 : W LAST -- write_beat     Last:1 D:0x9cf4692c8b5e1d5380e882aea38d7dd4 BE:0b1111111111111111 
INFO: [Slave VIP_wr_driver] (axi_vip_pkg.axi_slv_wr_driver(C_AXI_ADDR_WIDTH=40,C_AXI_WDATA_WIDTH=128,C_AXI_RDATA_WIDTH=128,C_AXI_WID_WIDTH=16,C_AXI_RID_WIDTH=16,C_AXI_AWUSER_WIDTH=1,C_AXI_ARUSER_WIDTH=1,C_AXI_HAS_REGION=0)::push_reactive_q) 2115000 : PUSH_REACTIVE_Q: PUSH (         0) >>> XIL_AXI_WRITE (45) A:0x0000000800000040 ID:0x000081ad len:0x03 XIL_AXI_SIZE_16BYTE XIL_AXI_BURST_TYPE_INCR C:0b0011 L:XIL_AXI_ALOCK_NOLOCK P:0b111 <<<
INFO: [Slave VIP_wr_driver] (axi_vip_pkg.axi_slv_wr_driver(C_AXI_ADDR_WIDTH=40,C_AXI_WDATA_WIDTH=128,C_AXI_RDATA_WIDTH=128,C_AXI_WID_WIDTH=16,C_AXI_RID_WIDTH=16,C_AXI_AWUSER_WIDTH=1,C_AXI_ARUSER_WIDTH=1,C_AXI_HAS_REGION=0)::pop_reactive_q) 2115000 : POP_REACTIVE_Q: (         1) >>> XIL_AXI_WRITE (45) A:0x0000000800000040 ID:0x000081ad len:0x03 XIL_AXI_SIZE_16BYTE XIL_AXI_BURST_TYPE_INCR C:0b0011 L:XIL_AXI_ALOCK_NOLOCK P:0b111 <<<
INFO: [Slave VIP_wr_driver] (axi_vip_pkg.axi_slv_wr_driver(C_AXI_ADDR_WIDTH=40,C_AXI_WDATA_WIDTH=128,C_AXI_RDATA_WIDTH=128,C_AXI_WID_WIDTH=16,C_AXI_RID_WIDTH=16,C_AXI_AWUSER_WIDTH=1,C_AXI_ARUSER_WIDTH=1,C_AXI_HAS_REGION=0)::get_and_drive.GET_AND_DRIVE) 2115000 : GNI : XIL_AXI_WRITE (45) A:0x0000000800000040 ID:0x000081ad len:0x03 XIL_AXI_SIZE_16BYTE XIL_AXI_BURST_TYPE_INCR C:0b0011 L:XIL_AXI_ALOCK_NOLOCK P:0b111
INFO: [Slave VIP_wr_driver] (axi_vip_pkg.axi_slv_wr_driver(C_AXI_ADDR_WIDTH=40,C_AXI_WDATA_WIDTH=128,C_AXI_RDATA_WIDTH=128,C_AXI_WID_WIDTH=16,C_AXI_RID_WIDTH=16,C_AXI_AWUSER_WIDTH=1,C_AXI_ARUSER_WIDTH=1,C_AXI_HAS_REGION=0)::push_b_q) 2115000 : B PUSH (         0)
INFO: [Slave VIP_wr_driver] (axi_vip_pkg.axi_slv_wr_driver(C_AXI_ADDR_WIDTH=40,C_AXI_WDATA_WIDTH=128,C_AXI_RDATA_WIDTH=128,C_AXI_WID_WIDTH=16,C_AXI_RID_WIDTH=16,C_AXI_AWUSER_WIDTH=1,C_AXI_ARUSER_WIDTH=1,C_AXI_HAS_REGION=0)::push_b_q) 2115000 : ID=0x000081ad - State 0b0111
Entries in BQ : NumEntries:         0 >>> 
 <<<
Command       : XIL_AXI_WRITE (45) A:0x0000000800000040 ID:0x000081ad len:0x03 XIL_AXI_SIZE_16BYTE XIL_AXI_BURST_TYPE_INCR C:0b0011 L:XIL_AXI_ALOCK_NOLOCK P:0b111
INFO: [Master VIP_wr_driver] (axi_vip_pkg.axi_mst_wr_driver(C_AXI_ADDR_WIDTH=40,C_AXI_WDATA_WIDTH=128,C_AXI_RDATA_WIDTH=128,C_AXI_WID_WIDTH=16,C_AXI_RID_WIDTH=16,C_AXI_AWUSER_WIDTH=16,C_AXI_ARUSER_WIDTH=16)::service_done_q.SERVICE_DONE_Q) 2125000 : SERVICE_DONE_Q: XIL_AXI_WRITE (18) A:0x0000004800008040 ID:0x000001ad len:0x03 XIL_AXI_SIZE_16BYTE XIL_AXI_BURST_TYPE_INCR C:0b0011 L:XIL_AXI_ALOCK_NOLOCK P:0b111
INFO: [Slave VIP_wr_driver] (axi_vip_pkg.axi_slv_wr_driver(C_AXI_ADDR_WIDTH=40,C_AXI_WDATA_WIDTH=128,C_AXI_RDATA_WIDTH=128,C_AXI_WID_WIDTH=16,C_AXI_RID_WIDTH=16,C_AXI_AWUSER_WIDTH=1,C_AXI_ARUSER_WIDTH=1,C_AXI_HAS_REGION=0)::service_done_q.SERVICE_DONE_Q) 2125000 : SERVICE_DONE_Q: XIL_AXI_WRITE (45) A:0x0000000800000040 ID:0x000081ad len:0x03 XIL_AXI_SIZE_16BYTE XIL_AXI_BURST_TYPE_INCR C:0b0011 L:XIL_AXI_ALOCK_NOLOCK P:0b111
INFO: [Slave VIP_wr_driver] (axi_vip_pkg.axi_slv_wr_driver(C_AXI_ADDR_WIDTH=40,C_AXI_WDATA_WIDTH=128,C_AXI_RDATA_WIDTH=128,C_AXI_WID_WIDTH=16,C_AXI_RID_WIDTH=16,C_AXI_AWUSER_WIDTH=1,C_AXI_ARUSER_WIDTH=1,C_AXI_HAS_REGION=0)::aw_channel.AW_CHANNEL) 2695000 : AWVALID >>>
XIL_AXI_WRITE (49) A:0x0000000800000080 ID:0x000081ad len:0x03 XIL_AXI_SIZE_16BYTE XIL_AXI_BURST_TYPE_INCR C:0b0111 L:XIL_AXI_ALOCK_NOLOCK P:0b011<<<
INFO: [Slave VIP_wr_driver] (axi_vip_pkg.axi_slv_wr_driver(C_AXI_ADDR_WIDTH=40,C_AXI_WDATA_WIDTH=128,C_AXI_RDATA_WIDTH=128,C_AXI_WID_WIDTH=16,C_AXI_RID_WIDTH=16,C_AXI_AWUSER_WIDTH=1,C_AXI_ARUSER_WIDTH=1,C_AXI_HAS_REGION=0)::w_channel.W_CHANNEL) 2705000 : W BEAT -- write_beat     Last:0 D:0x8cf633ea0522e581d84cef1b75bb242c BE:0b1111111111111111 
INFO: [Slave VIP_wr_driver] (axi_vip_pkg.axi_slv_wr_driver(C_AXI_ADDR_WIDTH=40,C_AXI_WDATA_WIDTH=128,C_AXI_RDATA_WIDTH=128,C_AXI_WID_WIDTH=16,C_AXI_RID_WIDTH=16,C_AXI_AWUSER_WIDTH=1,C_AXI_ARUSER_WIDTH=1,C_AXI_HAS_REGION=0)::w_channel.W_CHANNEL) 2735000 : W BEAT -- write_beat     Last:0 D:0xb7a0d2a2b864e22fbc8c8151da445fd7 BE:0b1111111111111111 
INFO: [Slave VIP_wr_driver] (axi_vip_pkg.axi_slv_wr_driver(C_AXI_ADDR_WIDTH=40,C_AXI_WDATA_WIDTH=128,C_AXI_RDATA_WIDTH=128,C_AXI_WID_WIDTH=16,C_AXI_RID_WIDTH=16,C_AXI_AWUSER_WIDTH=1,C_AXI_ARUSER_WIDTH=1,C_AXI_HAS_REGION=0)::w_channel.W_CHANNEL) 2765000 : W BEAT -- write_beat     Last:0 D:0x627d15d7bdf7a554070cbf240479cb1a BE:0b1111111111111111 
INFO: [Slave VIP_wr_driver] (axi_vip_pkg.axi_slv_wr_driver(C_AXI_ADDR_WIDTH=40,C_AXI_WDATA_WIDTH=128,C_AXI_RDATA_WIDTH=128,C_AXI_WID_WIDTH=16,C_AXI_RID_WIDTH=16,C_AXI_AWUSER_WIDTH=1,C_AXI_ARUSER_WIDTH=1,C_AXI_HAS_REGION=0)::w_channel.W_CHANNEL) 2795000 : W LAST -- write_beat     Last:1 D:0x5cd093f14d1812c26c4e3da84f0626c0 BE:0b1111111111111111 
INFO: [Slave VIP_wr_driver] (axi_vip_pkg.axi_slv_wr_driver(C_AXI_ADDR_WIDTH=40,C_AXI_WDATA_WIDTH=128,C_AXI_RDATA_WIDTH=128,C_AXI_WID_WIDTH=16,C_AXI_RID_WIDTH=16,C_AXI_AWUSER_WIDTH=1,C_AXI_ARUSER_WIDTH=1,C_AXI_HAS_REGION=0)::push_reactive_q) 2795000 : PUSH_REACTIVE_Q: PUSH (         0) >>> XIL_AXI_WRITE (49) A:0x0000000800000080 ID:0x000081ad len:0x03 XIL_AXI_SIZE_16BYTE XIL_AXI_BURST_TYPE_INCR C:0b0111 L:XIL_AXI_ALOCK_NOLOCK P:0b011 <<<
INFO: [Slave VIP_wr_driver] (axi_vip_pkg.axi_slv_wr_driver(C_AXI_ADDR_WIDTH=40,C_AXI_WDATA_WIDTH=128,C_AXI_RDATA_WIDTH=128,C_AXI_WID_WIDTH=16,C_AXI_RID_WIDTH=16,C_AXI_AWUSER_WIDTH=1,C_AXI_ARUSER_WIDTH=1,C_AXI_HAS_REGION=0)::pop_reactive_q) 2795000 : POP_REACTIVE_Q: (         1) >>> XIL_AXI_WRITE (49) A:0x0000000800000080 ID:0x000081ad len:0x03 XIL_AXI_SIZE_16BYTE XIL_AXI_BURST_TYPE_INCR C:0b0111 L:XIL_AXI_ALOCK_NOLOCK P:0b011 <<<
INFO: [Slave VIP_wr_driver] (axi_vip_pkg.axi_slv_wr_driver(C_AXI_ADDR_WIDTH=40,C_AXI_WDATA_WIDTH=128,C_AXI_RDATA_WIDTH=128,C_AXI_WID_WIDTH=16,C_AXI_RID_WIDTH=16,C_AXI_AWUSER_WIDTH=1,C_AXI_ARUSER_WIDTH=1,C_AXI_HAS_REGION=0)::get_and_drive.GET_AND_DRIVE) 2795000 : GNI : XIL_AXI_WRITE (49) A:0x0000000800000080 ID:0x000081ad len:0x03 XIL_AXI_SIZE_16BYTE XIL_AXI_BURST_TYPE_INCR C:0b0111 L:XIL_AXI_ALOCK_NOLOCK P:0b011
INFO: [Slave VIP_wr_driver] (axi_vip_pkg.axi_slv_wr_driver(C_AXI_ADDR_WIDTH=40,C_AXI_WDATA_WIDTH=128,C_AXI_RDATA_WIDTH=128,C_AXI_WID_WIDTH=16,C_AXI_RID_WIDTH=16,C_AXI_AWUSER_WIDTH=1,C_AXI_ARUSER_WIDTH=1,C_AXI_HAS_REGION=0)::push_b_q) 2795000 : B PUSH (         0)
INFO: [Slave VIP_wr_driver] (axi_vip_pkg.axi_slv_wr_driver(C_AXI_ADDR_WIDTH=40,C_AXI_WDATA_WIDTH=128,C_AXI_RDATA_WIDTH=128,C_AXI_WID_WIDTH=16,C_AXI_RID_WIDTH=16,C_AXI_AWUSER_WIDTH=1,C_AXI_ARUSER_WIDTH=1,C_AXI_HAS_REGION=0)::push_b_q) 2795000 : ID=0x000081ad - State 0b0111
Entries in BQ : NumEntries:         0 >>> 
 <<<
Command       : XIL_AXI_WRITE (49) A:0x0000000800000080 ID:0x000081ad len:0x03 XIL_AXI_SIZE_16BYTE XIL_AXI_BURST_TYPE_INCR C:0b0111 L:XIL_AXI_ALOCK_NOLOCK P:0b011
INFO: [Master VIP_wr_driver] (axi_vip_pkg.axi_mst_wr_driver(C_AXI_ADDR_WIDTH=40,C_AXI_WDATA_WIDTH=128,C_AXI_RDATA_WIDTH=128,C_AXI_WID_WIDTH=16,C_AXI_RID_WIDTH=16,C_AXI_AWUSER_WIDTH=16,C_AXI_ARUSER_WIDTH=16)::service_done_q.SERVICE_DONE_Q) 2805000 : SERVICE_DONE_Q: XIL_AXI_WRITE (20) A:0x0000004800008080 ID:0x000001ad len:0x03 XIL_AXI_SIZE_16BYTE XIL_AXI_BURST_TYPE_INCR C:0b0111 L:XIL_AXI_ALOCK_NOLOCK P:0b011
INFO: [Slave VIP_wr_driver] (axi_vip_pkg.axi_slv_wr_driver(C_AXI_ADDR_WIDTH=40,C_AXI_WDATA_WIDTH=128,C_AXI_RDATA_WIDTH=128,C_AXI_WID_WIDTH=16,C_AXI_RID_WIDTH=16,C_AXI_AWUSER_WIDTH=1,C_AXI_ARUSER_WIDTH=1,C_AXI_HAS_REGION=0)::service_done_q.SERVICE_DONE_Q) 2805000 : SERVICE_DONE_Q: XIL_AXI_WRITE (49) A:0x0000000800000080 ID:0x000081ad len:0x03 XIL_AXI_SIZE_16BYTE XIL_AXI_BURST_TYPE_INCR C:0b0111 L:XIL_AXI_ALOCK_NOLOCK P:0b011
INFO: [Slave VIP_wr_driver] (axi_vip_pkg.axi_slv_wr_driver(C_AXI_ADDR_WIDTH=40,C_AXI_WDATA_WIDTH=128,C_AXI_RDATA_WIDTH=128,C_AXI_WID_WIDTH=16,C_AXI_RID_WIDTH=16,C_AXI_AWUSER_WIDTH=1,C_AXI_ARUSER_WIDTH=1,C_AXI_HAS_REGION=0)::aw_channel.AW_CHANNEL) 3375000 : AWVALID >>>
XIL_AXI_WRITE (53) A:0x00000008000000c0 ID:0x000081ad len:0x03 XIL_AXI_SIZE_16BYTE XIL_AXI_BURST_TYPE_INCR C:0b0111 L:XIL_AXI_ALOCK_NOLOCK P:0b010<<<
INFO: [Slave VIP_wr_driver] (axi_vip_pkg.axi_slv_wr_driver(C_AXI_ADDR_WIDTH=40,C_AXI_WDATA_WIDTH=128,C_AXI_RDATA_WIDTH=128,C_AXI_WID_WIDTH=16,C_AXI_RID_WIDTH=16,C_AXI_AWUSER_WIDTH=1,C_AXI_ARUSER_WIDTH=1,C_AXI_HAS_REGION=0)::w_channel.W_CHANNEL) 3385000 : W BEAT -- write_beat     Last:0 D:0xed2c202459b99b1f9cd09f6f96981bb7 BE:0b1111111111111111 
INFO: [Slave VIP_wr_driver] (axi_vip_pkg.axi_slv_wr_driver(C_AXI_ADDR_WIDTH=40,C_AXI_WDATA_WIDTH=128,C_AXI_RDATA_WIDTH=128,C_AXI_WID_WIDTH=16,C_AXI_RID_WIDTH=16,C_AXI_AWUSER_WIDTH=1,C_AXI_ARUSER_WIDTH=1,C_AXI_HAS_REGION=0)::w_channel.W_CHANNEL) 3415000 : W BEAT -- write_beat     Last:0 D:0x72f8779902132d06cff5a97c5e94f599 BE:0b1111111111111111 
INFO: [Slave VIP_wr_driver] (axi_vip_pkg.axi_slv_wr_driver(C_AXI_ADDR_WIDTH=40,C_AXI_WDATA_WIDTH=128,C_AXI_RDATA_WIDTH=128,C_AXI_WID_WIDTH=16,C_AXI_RID_WIDTH=16,C_AXI_AWUSER_WIDTH=1,C_AXI_ARUSER_WIDTH=1,C_AXI_HAS_REGION=0)::w_channel.W_CHANNEL) 3445000 : W BEAT -- write_beat     Last:0 D:0x9ff86c00e748de1452da7002b4521f1a BE:0b1111111111111111 
INFO: [Slave VIP_wr_driver] (axi_vip_pkg.axi_slv_wr_driver(C_AXI_ADDR_WIDTH=40,C_AXI_WDATA_WIDTH=128,C_AXI_RDATA_WIDTH=128,C_AXI_WID_WIDTH=16,C_AXI_RID_WIDTH=16,C_AXI_AWUSER_WIDTH=1,C_AXI_ARUSER_WIDTH=1,C_AXI_HAS_REGION=0)::w_channel.W_CHANNEL) 3475000 : W LAST -- write_beat     Last:1 D:0xfaa15fb975262d2c749d6068e5d4e3cd BE:0b1111111111111111 
INFO: [Slave VIP_wr_driver] (axi_vip_pkg.axi_slv_wr_driver(C_AXI_ADDR_WIDTH=40,C_AXI_WDATA_WIDTH=128,C_AXI_RDATA_WIDTH=128,C_AXI_WID_WIDTH=16,C_AXI_RID_WIDTH=16,C_AXI_AWUSER_WIDTH=1,C_AXI_ARUSER_WIDTH=1,C_AXI_HAS_REGION=0)::push_reactive_q) 3475000 : PUSH_REACTIVE_Q: PUSH (         0) >>> XIL_AXI_WRITE (53) A:0x00000008000000c0 ID:0x000081ad len:0x03 XIL_AXI_SIZE_16BYTE XIL_AXI_BURST_TYPE_INCR C:0b0111 L:XIL_AXI_ALOCK_NOLOCK P:0b010 <<<
INFO: [Slave VIP_wr_driver] (axi_vip_pkg.axi_slv_wr_driver(C_AXI_ADDR_WIDTH=40,C_AXI_WDATA_WIDTH=128,C_AXI_RDATA_WIDTH=128,C_AXI_WID_WIDTH=16,C_AXI_RID_WIDTH=16,C_AXI_AWUSER_WIDTH=1,C_AXI_ARUSER_WIDTH=1,C_AXI_HAS_REGION=0)::pop_reactive_q) 3475000 : POP_REACTIVE_Q: (         1) >>> XIL_AXI_WRITE (53) A:0x00000008000000c0 ID:0x000081ad len:0x03 XIL_AXI_SIZE_16BYTE XIL_AXI_BURST_TYPE_INCR C:0b0111 L:XIL_AXI_ALOCK_NOLOCK P:0b010 <<<
INFO: [Slave VIP_wr_driver] (axi_vip_pkg.axi_slv_wr_driver(C_AXI_ADDR_WIDTH=40,C_AXI_WDATA_WIDTH=128,C_AXI_RDATA_WIDTH=128,C_AXI_WID_WIDTH=16,C_AXI_RID_WIDTH=16,C_AXI_AWUSER_WIDTH=1,C_AXI_ARUSER_WIDTH=1,C_AXI_HAS_REGION=0)::get_and_drive.GET_AND_DRIVE) 3475000 : GNI : XIL_AXI_WRITE (53) A:0x00000008000000c0 ID:0x000081ad len:0x03 XIL_AXI_SIZE_16BYTE XIL_AXI_BURST_TYPE_INCR C:0b0111 L:XIL_AXI_ALOCK_NOLOCK P:0b010
INFO: [Slave VIP_wr_driver] (axi_vip_pkg.axi_slv_wr_driver(C_AXI_ADDR_WIDTH=40,C_AXI_WDATA_WIDTH=128,C_AXI_RDATA_WIDTH=128,C_AXI_WID_WIDTH=16,C_AXI_RID_WIDTH=16,C_AXI_AWUSER_WIDTH=1,C_AXI_ARUSER_WIDTH=1,C_AXI_HAS_REGION=0)::push_b_q) 3475000 : B PUSH (         0)
INFO: [Slave VIP_wr_driver] (axi_vip_pkg.axi_slv_wr_driver(C_AXI_ADDR_WIDTH=40,C_AXI_WDATA_WIDTH=128,C_AXI_RDATA_WIDTH=128,C_AXI_WID_WIDTH=16,C_AXI_RID_WIDTH=16,C_AXI_AWUSER_WIDTH=1,C_AXI_ARUSER_WIDTH=1,C_AXI_HAS_REGION=0)::push_b_q) 3475000 : ID=0x000081ad - State 0b0111
Entries in BQ : NumEntries:         0 >>> 
 <<<
Command       : XIL_AXI_WRITE (53) A:0x00000008000000c0 ID:0x000081ad len:0x03 XIL_AXI_SIZE_16BYTE XIL_AXI_BURST_TYPE_INCR C:0b0111 L:XIL_AXI_ALOCK_NOLOCK P:0b010
INFO: [Master VIP_wr_driver] (axi_vip_pkg.axi_mst_wr_driver(C_AXI_ADDR_WIDTH=40,C_AXI_WDATA_WIDTH=128,C_AXI_RDATA_WIDTH=128,C_AXI_WID_WIDTH=16,C_AXI_RID_WIDTH=16,C_AXI_AWUSER_WIDTH=16,C_AXI_ARUSER_WIDTH=16)::service_done_q.SERVICE_DONE_Q) 3485000 : SERVICE_DONE_Q: XIL_AXI_WRITE (22) A:0x00000048000080c0 ID:0x000001ad len:0x03 XIL_AXI_SIZE_16BYTE XIL_AXI_BURST_TYPE_INCR C:0b0111 L:XIL_AXI_ALOCK_NOLOCK P:0b010
INFO: [Slave VIP_wr_driver] (axi_vip_pkg.axi_slv_wr_driver(C_AXI_ADDR_WIDTH=40,C_AXI_WDATA_WIDTH=128,C_AXI_RDATA_WIDTH=128,C_AXI_WID_WIDTH=16,C_AXI_RID_WIDTH=16,C_AXI_AWUSER_WIDTH=1,C_AXI_ARUSER_WIDTH=1,C_AXI_HAS_REGION=0)::service_done_q.SERVICE_DONE_Q) 3485000 : SERVICE_DONE_Q: XIL_AXI_WRITE (53) A:0x00000008000000c0 ID:0x000081ad len:0x03 XIL_AXI_SIZE_16BYTE XIL_AXI_BURST_TYPE_INCR C:0b0111 L:XIL_AXI_ALOCK_NOLOCK P:0b010
INFO: [Slave VIP_wr_driver] (axi_vip_pkg.axi_slv_wr_driver(C_AXI_ADDR_WIDTH=40,C_AXI_WDATA_WIDTH=128,C_AXI_RDATA_WIDTH=128,C_AXI_WID_WIDTH=16,C_AXI_RID_WIDTH=16,C_AXI_AWUSER_WIDTH=1,C_AXI_ARUSER_WIDTH=1,C_AXI_HAS_REGION=0)::aw_channel.AW_CHANNEL) 4055000 : AWVALID >>>
XIL_AXI_WRITE (57) A:0x0000000800000100 ID:0x000081ad len:0x03 XIL_AXI_SIZE_16BYTE XIL_AXI_BURST_TYPE_INCR C:0b1110 L:XIL_AXI_ALOCK_NOLOCK P:0b001<<<
INFO: [Slave VIP_wr_driver] (axi_vip_pkg.axi_slv_wr_driver(C_AXI_ADDR_WIDTH=40,C_AXI_WDATA_WIDTH=128,C_AXI_RDATA_WIDTH=128,C_AXI_WID_WIDTH=16,C_AXI_RID_WIDTH=16,C_AXI_AWUSER_WIDTH=1,C_AXI_ARUSER_WIDTH=1,C_AXI_HAS_REGION=0)::w_channel.W_CHANNEL) 4065000 : W BEAT -- write_beat     Last:0 D:0x7694b3b69d516342b703fca7cc9a8c6b BE:0b1111111111111111 
INFO: [Slave VIP_wr_driver] (axi_vip_pkg.axi_slv_wr_driver(C_AXI_ADDR_WIDTH=40,C_AXI_WDATA_WIDTH=128,C_AXI_RDATA_WIDTH=128,C_AXI_WID_WIDTH=16,C_AXI_RID_WIDTH=16,C_AXI_AWUSER_WIDTH=1,C_AXI_ARUSER_WIDTH=1,C_AXI_HAS_REGION=0)::w_channel.W_CHANNEL) 4095000 : W BEAT -- write_beat     Last:0 D:0x46cdd2e2883b1a5e9957e91604ac9047 BE:0b1111111111111111 
INFO: [Slave VIP_wr_driver] (axi_vip_pkg.axi_slv_wr_driver(C_AXI_ADDR_WIDTH=40,C_AXI_WDATA_WIDTH=128,C_AXI_RDATA_WIDTH=128,C_AXI_WID_WIDTH=16,C_AXI_RID_WIDTH=16,C_AXI_AWUSER_WIDTH=1,C_AXI_ARUSER_WIDTH=1,C_AXI_HAS_REGION=0)::w_channel.W_CHANNEL) 4125000 : W BEAT -- write_beat     Last:0 D:0xd27bf56a88b6abf45168f71bab676c3d BE:0b1111111111111111 
INFO: [Slave VIP_wr_driver] (axi_vip_pkg.axi_slv_wr_driver(C_AXI_ADDR_WIDTH=40,C_AXI_WDATA_WIDTH=128,C_AXI_RDATA_WIDTH=128,C_AXI_WID_WIDTH=16,C_AXI_RID_WIDTH=16,C_AXI_AWUSER_WIDTH=1,C_AXI_ARUSER_WIDTH=1,C_AXI_HAS_REGION=0)::w_channel.W_CHANNEL) 4155000 : W LAST -- write_beat     Last:1 D:0x9d15de20079811d39e8f1836626ee3d9 BE:0b1111111111111111 
INFO: [Slave VIP_wr_driver] (axi_vip_pkg.axi_slv_wr_driver(C_AXI_ADDR_WIDTH=40,C_AXI_WDATA_WIDTH=128,C_AXI_RDATA_WIDTH=128,C_AXI_WID_WIDTH=16,C_AXI_RID_WIDTH=16,C_AXI_AWUSER_WIDTH=1,C_AXI_ARUSER_WIDTH=1,C_AXI_HAS_REGION=0)::push_reactive_q) 4155000 : PUSH_REACTIVE_Q: PUSH (         0) >>> XIL_AXI_WRITE (57) A:0x0000000800000100 ID:0x000081ad len:0x03 XIL_AXI_SIZE_16BYTE XIL_AXI_BURST_TYPE_INCR C:0b1110 L:XIL_AXI_ALOCK_NOLOCK P:0b001 <<<
INFO: [Slave VIP_wr_driver] (axi_vip_pkg.axi_slv_wr_driver(C_AXI_ADDR_WIDTH=40,C_AXI_WDATA_WIDTH=128,C_AXI_RDATA_WIDTH=128,C_AXI_WID_WIDTH=16,C_AXI_RID_WIDTH=16,C_AXI_AWUSER_WIDTH=1,C_AXI_ARUSER_WIDTH=1,C_AXI_HAS_REGION=0)::pop_reactive_q) 4155000 : POP_REACTIVE_Q: (         1) >>> XIL_AXI_WRITE (57) A:0x0000000800000100 ID:0x000081ad len:0x03 XIL_AXI_SIZE_16BYTE XIL_AXI_BURST_TYPE_INCR C:0b1110 L:XIL_AXI_ALOCK_NOLOCK P:0b001 <<<
INFO: [Slave VIP_wr_driver] (axi_vip_pkg.axi_slv_wr_driver(C_AXI_ADDR_WIDTH=40,C_AXI_WDATA_WIDTH=128,C_AXI_RDATA_WIDTH=128,C_AXI_WID_WIDTH=16,C_AXI_RID_WIDTH=16,C_AXI_AWUSER_WIDTH=1,C_AXI_ARUSER_WIDTH=1,C_AXI_HAS_REGION=0)::get_and_drive.GET_AND_DRIVE) 4155000 : GNI : XIL_AXI_WRITE (57) A:0x0000000800000100 ID:0x000081ad len:0x03 XIL_AXI_SIZE_16BYTE XIL_AXI_BURST_TYPE_INCR C:0b1110 L:XIL_AXI_ALOCK_NOLOCK P:0b001
INFO: [Slave VIP_wr_driver] (axi_vip_pkg.axi_slv_wr_driver(C_AXI_ADDR_WIDTH=40,C_AXI_WDATA_WIDTH=128,C_AXI_RDATA_WIDTH=128,C_AXI_WID_WIDTH=16,C_AXI_RID_WIDTH=16,C_AXI_AWUSER_WIDTH=1,C_AXI_ARUSER_WIDTH=1,C_AXI_HAS_REGION=0)::push_b_q) 4155000 : B PUSH (         0)
INFO: [Slave VIP_wr_driver] (axi_vip_pkg.axi_slv_wr_driver(C_AXI_ADDR_WIDTH=40,C_AXI_WDATA_WIDTH=128,C_AXI_RDATA_WIDTH=128,C_AXI_WID_WIDTH=16,C_AXI_RID_WIDTH=16,C_AXI_AWUSER_WIDTH=1,C_AXI_ARUSER_WIDTH=1,C_AXI_HAS_REGION=0)::push_b_q) 4155000 : ID=0x000081ad - State 0b0111
Entries in BQ : NumEntries:         0 >>> 
 <<<
Command       : XIL_AXI_WRITE (57) A:0x0000000800000100 ID:0x000081ad len:0x03 XIL_AXI_SIZE_16BYTE XIL_AXI_BURST_TYPE_INCR C:0b1110 L:XIL_AXI_ALOCK_NOLOCK P:0b001
INFO: [Master VIP_wr_driver] (axi_vip_pkg.axi_mst_wr_driver(C_AXI_ADDR_WIDTH=40,C_AXI_WDATA_WIDTH=128,C_AXI_RDATA_WIDTH=128,C_AXI_WID_WIDTH=16,C_AXI_RID_WIDTH=16,C_AXI_AWUSER_WIDTH=16,C_AXI_ARUSER_WIDTH=16)::service_done_q.SERVICE_DONE_Q) 4165000 : SERVICE_DONE_Q: XIL_AXI_WRITE (24) A:0x0000004800008100 ID:0x000001ad len:0x03 XIL_AXI_SIZE_16BYTE XIL_AXI_BURST_TYPE_INCR C:0b1110 L:XIL_AXI_ALOCK_NOLOCK P:0b001
INFO: [Slave VIP_wr_driver] (axi_vip_pkg.axi_slv_wr_driver(C_AXI_ADDR_WIDTH=40,C_AXI_WDATA_WIDTH=128,C_AXI_RDATA_WIDTH=128,C_AXI_WID_WIDTH=16,C_AXI_RID_WIDTH=16,C_AXI_AWUSER_WIDTH=1,C_AXI_ARUSER_WIDTH=1,C_AXI_HAS_REGION=0)::service_done_q.SERVICE_DONE_Q) 4165000 : SERVICE_DONE_Q: XIL_AXI_WRITE (57) A:0x0000000800000100 ID:0x000081ad len:0x03 XIL_AXI_SIZE_16BYTE XIL_AXI_BURST_TYPE_INCR C:0b1110 L:XIL_AXI_ALOCK_NOLOCK P:0b001
INFO: [Slave VIP_wr_driver] (axi_vip_pkg.axi_slv_wr_driver(C_AXI_ADDR_WIDTH=40,C_AXI_WDATA_WIDTH=128,C_AXI_RDATA_WIDTH=128,C_AXI_WID_WIDTH=16,C_AXI_RID_WIDTH=16,C_AXI_AWUSER_WIDTH=1,C_AXI_ARUSER_WIDTH=1,C_AXI_HAS_REGION=0)::aw_channel.AW_CHANNEL) 4735000 : AWVALID >>>
XIL_AXI_WRITE (61) A:0x0000000800000140 ID:0x000081ad len:0x03 XIL_AXI_SIZE_16BYTE XIL_AXI_BURST_TYPE_INCR C:0b0011 L:XIL_AXI_ALOCK_NOLOCK P:0b001<<<
INFO: [Slave VIP_wr_driver] (axi_vip_pkg.axi_slv_wr_driver(C_AXI_ADDR_WIDTH=40,C_AXI_WDATA_WIDTH=128,C_AXI_RDATA_WIDTH=128,C_AXI_WID_WIDTH=16,C_AXI_RID_WIDTH=16,C_AXI_AWUSER_WIDTH=1,C_AXI_ARUSER_WIDTH=1,C_AXI_HAS_REGION=0)::w_channel.W_CHANNEL) 4745000 : W BEAT -- write_beat     Last:0 D:0xadeb8d122f5bb8eddff4a060cbef1c3d BE:0b1111111111111111 
INFO: [Slave VIP_wr_driver] (axi_vip_pkg.axi_slv_wr_driver(C_AXI_ADDR_WIDTH=40,C_AXI_WDATA_WIDTH=128,C_AXI_RDATA_WIDTH=128,C_AXI_WID_WIDTH=16,C_AXI_RID_WIDTH=16,C_AXI_AWUSER_WIDTH=1,C_AXI_ARUSER_WIDTH=1,C_AXI_HAS_REGION=0)::w_channel.W_CHANNEL) 4775000 : W BEAT -- write_beat     Last:0 D:0xf175fe60a5caf6fc6370ceffdbdb7a9a BE:0b1111111111111111 
INFO: [Slave VIP_wr_driver] (axi_vip_pkg.axi_slv_wr_driver(C_AXI_ADDR_WIDTH=40,C_AXI_WDATA_WIDTH=128,C_AXI_RDATA_WIDTH=128,C_AXI_WID_WIDTH=16,C_AXI_RID_WIDTH=16,C_AXI_AWUSER_WIDTH=1,C_AXI_ARUSER_WIDTH=1,C_AXI_HAS_REGION=0)::w_channel.W_CHANNEL) 4805000 : W BEAT -- write_beat     Last:0 D:0x5eb1bfc80fb4265b9325c22596dbe57e BE:0b1111111111111111 
INFO: [Slave VIP_wr_driver] (axi_vip_pkg.axi_slv_wr_driver(C_AXI_ADDR_WIDTH=40,C_AXI_WDATA_WIDTH=128,C_AXI_RDATA_WIDTH=128,C_AXI_WID_WIDTH=16,C_AXI_RID_WIDTH=16,C_AXI_AWUSER_WIDTH=1,C_AXI_ARUSER_WIDTH=1,C_AXI_HAS_REGION=0)::w_channel.W_CHANNEL) 4835000 : W LAST -- write_beat     Last:1 D:0x7797e3cd9e5c34abae78717fc4eaa925 BE:0b1111111111111111 
INFO: [Slave VIP_wr_driver] (axi_vip_pkg.axi_slv_wr_driver(C_AXI_ADDR_WIDTH=40,C_AXI_WDATA_WIDTH=128,C_AXI_RDATA_WIDTH=128,C_AXI_WID_WIDTH=16,C_AXI_RID_WIDTH=16,C_AXI_AWUSER_WIDTH=1,C_AXI_ARUSER_WIDTH=1,C_AXI_HAS_REGION=0)::push_reactive_q) 4835000 : PUSH_REACTIVE_Q: PUSH (         0) >>> XIL_AXI_WRITE (61) A:0x0000000800000140 ID:0x000081ad len:0x03 XIL_AXI_SIZE_16BYTE XIL_AXI_BURST_TYPE_INCR C:0b0011 L:XIL_AXI_ALOCK_NOLOCK P:0b001 <<<
INFO: [Slave VIP_wr_driver] (axi_vip_pkg.axi_slv_wr_driver(C_AXI_ADDR_WIDTH=40,C_AXI_WDATA_WIDTH=128,C_AXI_RDATA_WIDTH=128,C_AXI_WID_WIDTH=16,C_AXI_RID_WIDTH=16,C_AXI_AWUSER_WIDTH=1,C_AXI_ARUSER_WIDTH=1,C_AXI_HAS_REGION=0)::pop_reactive_q) 4835000 : POP_REACTIVE_Q: (         1) >>> XIL_AXI_WRITE (61) A:0x0000000800000140 ID:0x000081ad len:0x03 XIL_AXI_SIZE_16BYTE XIL_AXI_BURST_TYPE_INCR C:0b0011 L:XIL_AXI_ALOCK_NOLOCK P:0b001 <<<
INFO: [Slave VIP_wr_driver] (axi_vip_pkg.axi_slv_wr_driver(C_AXI_ADDR_WIDTH=40,C_AXI_WDATA_WIDTH=128,C_AXI_RDATA_WIDTH=128,C_AXI_WID_WIDTH=16,C_AXI_RID_WIDTH=16,C_AXI_AWUSER_WIDTH=1,C_AXI_ARUSER_WIDTH=1,C_AXI_HAS_REGION=0)::get_and_drive.GET_AND_DRIVE) 4835000 : GNI : XIL_AXI_WRITE (61) A:0x0000000800000140 ID:0x000081ad len:0x03 XIL_AXI_SIZE_16BYTE XIL_AXI_BURST_TYPE_INCR C:0b0011 L:XIL_AXI_ALOCK_NOLOCK P:0b001
INFO: [Slave VIP_wr_driver] (axi_vip_pkg.axi_slv_wr_driver(C_AXI_ADDR_WIDTH=40,C_AXI_WDATA_WIDTH=128,C_AXI_RDATA_WIDTH=128,C_AXI_WID_WIDTH=16,C_AXI_RID_WIDTH=16,C_AXI_AWUSER_WIDTH=1,C_AXI_ARUSER_WIDTH=1,C_AXI_HAS_REGION=0)::push_b_q) 4835000 : B PUSH (         0)
INFO: [Slave VIP_wr_driver] (axi_vip_pkg.axi_slv_wr_driver(C_AXI_ADDR_WIDTH=40,C_AXI_WDATA_WIDTH=128,C_AXI_RDATA_WIDTH=128,C_AXI_WID_WIDTH=16,C_AXI_RID_WIDTH=16,C_AXI_AWUSER_WIDTH=1,C_AXI_ARUSER_WIDTH=1,C_AXI_HAS_REGION=0)::push_b_q) 4835000 : ID=0x000081ad - State 0b0111
Entries in BQ : NumEntries:         0 >>> 
 <<<
Command       : XIL_AXI_WRITE (61) A:0x0000000800000140 ID:0x000081ad len:0x03 XIL_AXI_SIZE_16BYTE XIL_AXI_BURST_TYPE_INCR C:0b0011 L:XIL_AXI_ALOCK_NOLOCK P:0b001
INFO: [Master VIP_wr_driver] (axi_vip_pkg.axi_mst_wr_driver(C_AXI_ADDR_WIDTH=40,C_AXI_WDATA_WIDTH=128,C_AXI_RDATA_WIDTH=128,C_AXI_WID_WIDTH=16,C_AXI_RID_WIDTH=16,C_AXI_AWUSER_WIDTH=16,C_AXI_ARUSER_WIDTH=16)::service_done_q.SERVICE_DONE_Q) 4845000 : SERVICE_DONE_Q: XIL_AXI_WRITE (26) A:0x0000004800008140 ID:0x000001ad len:0x03 XIL_AXI_SIZE_16BYTE XIL_AXI_BURST_TYPE_INCR C:0b0011 L:XIL_AXI_ALOCK_NOLOCK P:0b001
INFO: [Slave VIP_wr_driver] (axi_vip_pkg.axi_slv_wr_driver(C_AXI_ADDR_WIDTH=40,C_AXI_WDATA_WIDTH=128,C_AXI_RDATA_WIDTH=128,C_AXI_WID_WIDTH=16,C_AXI_RID_WIDTH=16,C_AXI_AWUSER_WIDTH=1,C_AXI_ARUSER_WIDTH=1,C_AXI_HAS_REGION=0)::service_done_q.SERVICE_DONE_Q) 4845000 : SERVICE_DONE_Q: XIL_AXI_WRITE (61) A:0x0000000800000140 ID:0x000081ad len:0x03 XIL_AXI_SIZE_16BYTE XIL_AXI_BURST_TYPE_INCR C:0b0011 L:XIL_AXI_ALOCK_NOLOCK P:0b001
INFO: [Slave VIP_wr_driver] (axi_vip_pkg.axi_slv_wr_driver(C_AXI_ADDR_WIDTH=40,C_AXI_WDATA_WIDTH=128,C_AXI_RDATA_WIDTH=128,C_AXI_WID_WIDTH=16,C_AXI_RID_WIDTH=16,C_AXI_AWUSER_WIDTH=1,C_AXI_ARUSER_WIDTH=1,C_AXI_HAS_REGION=0)::aw_channel.AW_CHANNEL) 5415000 : AWVALID >>>
XIL_AXI_WRITE (65) A:0x0000000800000180 ID:0x000081ad len:0x03 XIL_AXI_SIZE_16BYTE XIL_AXI_BURST_TYPE_INCR C:0b0011 L:XIL_AXI_ALOCK_NOLOCK P:0b100<<<
INFO: [Slave VIP_wr_driver] (axi_vip_pkg.axi_slv_wr_driver(C_AXI_ADDR_WIDTH=40,C_AXI_WDATA_WIDTH=128,C_AXI_RDATA_WIDTH=128,C_AXI_WID_WIDTH=16,C_AXI_RID_WIDTH=16,C_AXI_AWUSER_WIDTH=1,C_AXI_ARUSER_WIDTH=1,C_AXI_HAS_REGION=0)::w_channel.W_CHANNEL) 5425000 : W BEAT -- write_beat     Last:0 D:0xd6d55da6f3901f26c927cdc498c8e1ca BE:0b1111111111111111 
INFO: [Slave VIP_wr_driver] (axi_vip_pkg.axi_slv_wr_driver(C_AXI_ADDR_WIDTH=40,C_AXI_WDATA_WIDTH=128,C_AXI_RDATA_WIDTH=128,C_AXI_WID_WIDTH=16,C_AXI_RID_WIDTH=16,C_AXI_AWUSER_WIDTH=1,C_AXI_ARUSER_WIDTH=1,C_AXI_HAS_REGION=0)::w_channel.W_CHANNEL) 5455000 : W BEAT -- write_beat     Last:0 D:0xf5663b81ffa5eac1401eb8548a46a9fe BE:0b1111111111111111 
INFO: [Slave VIP_wr_driver] (axi_vip_pkg.axi_slv_wr_driver(C_AXI_ADDR_WIDTH=40,C_AXI_WDATA_WIDTH=128,C_AXI_RDATA_WIDTH=128,C_AXI_WID_WIDTH=16,C_AXI_RID_WIDTH=16,C_AXI_AWUSER_WIDTH=1,C_AXI_ARUSER_WIDTH=1,C_AXI_HAS_REGION=0)::w_channel.W_CHANNEL) 5485000 : W BEAT -- write_beat     Last:0 D:0x2375cd22b05b950477f9015736494505 BE:0b1111111111111111 
INFO: [Slave VIP_wr_driver] (axi_vip_pkg.axi_slv_wr_driver(C_AXI_ADDR_WIDTH=40,C_AXI_WDATA_WIDTH=128,C_AXI_RDATA_WIDTH=128,C_AXI_WID_WIDTH=16,C_AXI_RID_WIDTH=16,C_AXI_AWUSER_WIDTH=1,C_AXI_ARUSER_WIDTH=1,C_AXI_HAS_REGION=0)::w_channel.W_CHANNEL) 5515000 : W LAST -- write_beat     Last:1 D:0x7904a8269f14f7c05683e15fbfa88d73 BE:0b1111111111111111 
INFO: [Slave VIP_wr_driver] (axi_vip_pkg.axi_slv_wr_driver(C_AXI_ADDR_WIDTH=40,C_AXI_WDATA_WIDTH=128,C_AXI_RDATA_WIDTH=128,C_AXI_WID_WIDTH=16,C_AXI_RID_WIDTH=16,C_AXI_AWUSER_WIDTH=1,C_AXI_ARUSER_WIDTH=1,C_AXI_HAS_REGION=0)::push_reactive_q) 5515000 : PUSH_REACTIVE_Q: PUSH (         0) >>> XIL_AXI_WRITE (65) A:0x0000000800000180 ID:0x000081ad len:0x03 XIL_AXI_SIZE_16BYTE XIL_AXI_BURST_TYPE_INCR C:0b0011 L:XIL_AXI_ALOCK_NOLOCK P:0b100 <<<
INFO: [Slave VIP_wr_driver] (axi_vip_pkg.axi_slv_wr_driver(C_AXI_ADDR_WIDTH=40,C_AXI_WDATA_WIDTH=128,C_AXI_RDATA_WIDTH=128,C_AXI_WID_WIDTH=16,C_AXI_RID_WIDTH=16,C_AXI_AWUSER_WIDTH=1,C_AXI_ARUSER_WIDTH=1,C_AXI_HAS_REGION=0)::pop_reactive_q) 5515000 : POP_REACTIVE_Q: (         1) >>> XIL_AXI_WRITE (65) A:0x0000000800000180 ID:0x000081ad len:0x03 XIL_AXI_SIZE_16BYTE XIL_AXI_BURST_TYPE_INCR C:0b0011 L:XIL_AXI_ALOCK_NOLOCK P:0b100 <<<
INFO: [Slave VIP_wr_driver] (axi_vip_pkg.axi_slv_wr_driver(C_AXI_ADDR_WIDTH=40,C_AXI_WDATA_WIDTH=128,C_AXI_RDATA_WIDTH=128,C_AXI_WID_WIDTH=16,C_AXI_RID_WIDTH=16,C_AXI_AWUSER_WIDTH=1,C_AXI_ARUSER_WIDTH=1,C_AXI_HAS_REGION=0)::get_and_drive.GET_AND_DRIVE) 5515000 : GNI : XIL_AXI_WRITE (65) A:0x0000000800000180 ID:0x000081ad len:0x03 XIL_AXI_SIZE_16BYTE XIL_AXI_BURST_TYPE_INCR C:0b0011 L:XIL_AXI_ALOCK_NOLOCK P:0b100
INFO: [Slave VIP_wr_driver] (axi_vip_pkg.axi_slv_wr_driver(C_AXI_ADDR_WIDTH=40,C_AXI_WDATA_WIDTH=128,C_AXI_RDATA_WIDTH=128,C_AXI_WID_WIDTH=16,C_AXI_RID_WIDTH=16,C_AXI_AWUSER_WIDTH=1,C_AXI_ARUSER_WIDTH=1,C_AXI_HAS_REGION=0)::push_b_q) 5515000 : B PUSH (         0)
INFO: [Slave VIP_wr_driver] (axi_vip_pkg.axi_slv_wr_driver(C_AXI_ADDR_WIDTH=40,C_AXI_WDATA_WIDTH=128,C_AXI_RDATA_WIDTH=128,C_AXI_WID_WIDTH=16,C_AXI_RID_WIDTH=16,C_AXI_AWUSER_WIDTH=1,C_AXI_ARUSER_WIDTH=1,C_AXI_HAS_REGION=0)::push_b_q) 5515000 : ID=0x000081ad - State 0b0111
Entries in BQ : NumEntries:         0 >>> 
 <<<
Command       : XIL_AXI_WRITE (65) A:0x0000000800000180 ID:0x000081ad len:0x03 XIL_AXI_SIZE_16BYTE XIL_AXI_BURST_TYPE_INCR C:0b0011 L:XIL_AXI_ALOCK_NOLOCK P:0b100
INFO: [Master VIP_wr_driver] (axi_vip_pkg.axi_mst_wr_driver(C_AXI_ADDR_WIDTH=40,C_AXI_WDATA_WIDTH=128,C_AXI_RDATA_WIDTH=128,C_AXI_WID_WIDTH=16,C_AXI_RID_WIDTH=16,C_AXI_AWUSER_WIDTH=16,C_AXI_ARUSER_WIDTH=16)::service_done_q.SERVICE_DONE_Q) 5525000 : SERVICE_DONE_Q: XIL_AXI_WRITE (28) A:0x0000004800008180 ID:0x000001ad len:0x03 XIL_AXI_SIZE_16BYTE XIL_AXI_BURST_TYPE_INCR C:0b0011 L:XIL_AXI_ALOCK_NOLOCK P:0b100
INFO: [Slave VIP_wr_driver] (axi_vip_pkg.axi_slv_wr_driver(C_AXI_ADDR_WIDTH=40,C_AXI_WDATA_WIDTH=128,C_AXI_RDATA_WIDTH=128,C_AXI_WID_WIDTH=16,C_AXI_RID_WIDTH=16,C_AXI_AWUSER_WIDTH=1,C_AXI_ARUSER_WIDTH=1,C_AXI_HAS_REGION=0)::service_done_q.SERVICE_DONE_Q) 5525000 : SERVICE_DONE_Q: XIL_AXI_WRITE (65) A:0x0000000800000180 ID:0x000081ad len:0x03 XIL_AXI_SIZE_16BYTE XIL_AXI_BURST_TYPE_INCR C:0b0011 L:XIL_AXI_ALOCK_NOLOCK P:0b100
