Vivado Simulator 2017.4
Time resolution is 1 ps
INFO: ID width is 16 bigger than 16, AXI protocol Checker will not be instantiated in this case 
XilinxAXIVIP: Found at Path: TB_MemorEDF.DUT.design_1_i.axi_vip_0.inst
INFO: ID width is 16 bigger than 16, AXI protocol Checker will not be instantiated in this case 
XilinxAXIVIP: Found at Path: TB_MemorEDF.DUT.design_1_i.axi_vip_1.inst
INFO: [Master VIP_rd_driver] (.axi_vip_pkg.axi_mst_rd_driver(C_AXI_WDATA_WIDTH=128,C_AXI_RDATA_WIDTH=128,C_AXI_WID_WIDTH=16,C_AXI_RID_WIDTH=16,C_AXI_AWUSER_WIDTH=16,C_AXI_ARUSER_WIDTH=16)::run_phase.Block10873_286.) 25001 : run()
INFO: [Master VIP_wr_driver] (.axi_vip_pkg.axi_mst_wr_driver(C_AXI_WDATA_WIDTH=128,C_AXI_RDATA_WIDTH=128,C_AXI_WID_WIDTH=16,C_AXI_RID_WIDTH=16,C_AXI_AWUSER_WIDTH=16,C_AXI_ARUSER_WIDTH=16)::run_phase.Block9793_240.) 25001 : run()
INFO: [Master VIP_monitor] (.axi_vip_pkg.axi_monitor(C_AXI_WDATA_WIDTH=128,C_AXI_RDATA_WIDTH=128,C_AXI_WID_WIDTH=16,C_AXI_RID_WIDTH=16,C_AXI_AWUSER_WIDTH=16,C_AXI_ARUSER_WIDTH=16)::run_phase.Block8620_207.) 25001 : run()
INFO: [Slave VIP_rd_driver] (.axi_vip_pkg.axi_slv_rd_driver(C_AXI_ADDR_WIDTH=40,C_AXI_WDATA_WIDTH=128,C_AXI_RDATA_WIDTH=128,C_AXI_WID_WIDTH=16,C_AXI_RID_WIDTH=16,C_AXI_AWUSER_WIDTH=16,C_AXI_ARUSER_WIDTH=16,C_AXI_HAS_REGION=0)::run_phase.Block14104_384.) 25001 : run()
INFO: [Slave VIP_wr_driver] (.axi_vip_pkg.axi_slv_wr_driver(C_AXI_ADDR_WIDTH=40,C_AXI_WDATA_WIDTH=128,C_AXI_RDATA_WIDTH=128,C_AXI_WID_WIDTH=16,C_AXI_RID_WIDTH=16,C_AXI_AWUSER_WIDTH=16,C_AXI_ARUSER_WIDTH=16,C_AXI_HAS_REGION=0)::run_phase.Block12612_333.) 25001 : run()
INFO: [Slave VIP_monitor] (.axi_vip_pkg.axi_monitor(C_AXI_ADDR_WIDTH=40,C_AXI_WDATA_WIDTH=128,C_AXI_RDATA_WIDTH=128,C_AXI_WID_WIDTH=16,C_AXI_RID_WIDTH=16,C_AXI_AWUSER_WIDTH=16,C_AXI_ARUSER_WIDTH=16,C_AXI_HAS_REGION=0)::run_phase.Block8620_224.) 25001 : run()
INFO: [Master VIP_wr_driver] (axi_vip_pkg.axi_mst_wr_driver(C_AXI_WDATA_WIDTH=128,C_AXI_RDATA_WIDTH=128,C_AXI_WID_WIDTH=16,C_AXI_RID_WIDTH=16,C_AXI_AWUSER_WIDTH=16,C_AXI_ARUSER_WIDTH=16)::get_and_drive.GET_AND_DRIVE) 40000 : Sending transaction: 
INFO: [Master VIP_wr_driver] (axi_vip_pkg.axi_mst_wr_driver(C_AXI_WDATA_WIDTH=128,C_AXI_RDATA_WIDTH=128,C_AXI_WID_WIDTH=16,C_AXI_RID_WIDTH=16,C_AXI_AWUSER_WIDTH=16,C_AXI_ARUSER_WIDTH=16)::get_and_drive.GET_AND_DRIVE) 40000 : ---------------------------------------------------------------------------------------------
  Name                         Value
---------------------------------------------------------------------------------------------
  CMD                          XIL_AXI_WRITE
  ADDR                         0x0000000000000000 
  WID                          0x00000000
  LEN                          0x00
  SIZE                         0x100
  BURST                        0x01
  CACHE                        0x0000
  LOCK                         0x00
  PROT                         0x000
  REGION                       0x0000
  QOS                          0x0000
  AWUSER                       0x0000
  BRESP                        XIL_AXI_RESP_OKAY
  DRIVER_RETURN_ITEM           XIL_AXI_PAYLOAD_RETURN 
  CREATION_TIME                40000
  SUBMIT_TIME                  0
  PAYLOAD                      16
    BEAT[          0]          0x00000000000000000000000000000020 (strb : 0b1111111111111111) :beat_delay:         0
--------------------------------------------------------------------------------------------
INFO: [Master VIP_wr_driver] (axi_vip_pkg.axi_mst_wr_driver(C_AXI_WDATA_WIDTH=128,C_AXI_RDATA_WIDTH=128,C_AXI_WID_WIDTH=16,C_AXI_RID_WIDTH=16,C_AXI_AWUSER_WIDTH=16,C_AXI_ARUSER_WIDTH=16)::w_channel.W_CHANNEL.Block10274_272.Block10274_273) 115000 : WREADY+WLAST (         0) id=0x00000000
INFO: [Master VIP_wr_driver] (axi_vip_pkg.axi_mst_wr_driver(C_AXI_WDATA_WIDTH=128,C_AXI_RDATA_WIDTH=128,C_AXI_WID_WIDTH=16,C_AXI_RID_WIDTH=16,C_AXI_AWUSER_WIDTH=16,C_AXI_ARUSER_WIDTH=16)::service_done_q.SERVICE_DONE_Q) 125000 : SERVICE_DONE_Q: XIL_AXI_WRITE (0) A:0x0000000000000000 ID:0x00000000 len:0x00 XIL_AXI_SIZE_16BYTE XIL_AXI_BURST_TYPE_INCR C:0b0000 L:XIL_AXI_ALOCK_NOLOCK P:0b000
INFO: [Master VIP_wr_driver] (axi_vip_pkg.axi_mst_wr_driver(C_AXI_WDATA_WIDTH=128,C_AXI_RDATA_WIDTH=128,C_AXI_WID_WIDTH=16,C_AXI_RID_WIDTH=16,C_AXI_AWUSER_WIDTH=16,C_AXI_ARUSER_WIDTH=16)::get_and_drive.GET_AND_DRIVE) 145000 : Sending transaction: 
INFO: [Master VIP_wr_driver] (axi_vip_pkg.axi_mst_wr_driver(C_AXI_WDATA_WIDTH=128,C_AXI_RDATA_WIDTH=128,C_AXI_WID_WIDTH=16,C_AXI_RID_WIDTH=16,C_AXI_AWUSER_WIDTH=16,C_AXI_ARUSER_WIDTH=16)::get_and_drive.GET_AND_DRIVE) 145000 : ---------------------------------------------------------------------------------------------
  Name                         Value
---------------------------------------------------------------------------------------------
  CMD                          XIL_AXI_WRITE
  ADDR                         0x0000000000000010 
  WID                          0x00000000
  LEN                          0x00
  SIZE                         0x100
  BURST                        0x01
  CACHE                        0x0000
  LOCK                         0x00
  PROT                         0x000
  REGION                       0x0000
  QOS                          0x0000
  AWUSER                       0x0000
  BRESP                        XIL_AXI_RESP_OKAY
  DRIVER_RETURN_ITEM           XIL_AXI_PAYLOAD_RETURN 
  CREATION_TIME                145000
  SUBMIT_TIME                  0
  PAYLOAD                      16
    BEAT[          0]          0x00000000000000000000000000000030 (strb : 0b1111111111111111) :beat_delay:         0
--------------------------------------------------------------------------------------------
INFO: [Master VIP_wr_driver] (axi_vip_pkg.axi_mst_wr_driver(C_AXI_WDATA_WIDTH=128,C_AXI_RDATA_WIDTH=128,C_AXI_WID_WIDTH=16,C_AXI_RID_WIDTH=16,C_AXI_AWUSER_WIDTH=16,C_AXI_ARUSER_WIDTH=16)::w_channel.W_CHANNEL.Block10274_272.Block10274_273) 225000 : WREADY+WLAST (         0) id=0x00000000
INFO: [Master VIP_wr_driver] (axi_vip_pkg.axi_mst_wr_driver(C_AXI_WDATA_WIDTH=128,C_AXI_RDATA_WIDTH=128,C_AXI_WID_WIDTH=16,C_AXI_RID_WIDTH=16,C_AXI_AWUSER_WIDTH=16,C_AXI_ARUSER_WIDTH=16)::service_done_q.SERVICE_DONE_Q) 235000 : SERVICE_DONE_Q: XIL_AXI_WRITE (4) A:0x0000000000000010 ID:0x00000000 len:0x00 XIL_AXI_SIZE_16BYTE XIL_AXI_BURST_TYPE_INCR C:0b0000 L:XIL_AXI_ALOCK_NOLOCK P:0b000
INFO: [Master VIP_wr_driver] (axi_vip_pkg.axi_mst_wr_driver(C_AXI_WDATA_WIDTH=128,C_AXI_RDATA_WIDTH=128,C_AXI_WID_WIDTH=16,C_AXI_RID_WIDTH=16,C_AXI_AWUSER_WIDTH=16,C_AXI_ARUSER_WIDTH=16)::get_and_drive.GET_AND_DRIVE) 255000 : Sending transaction: 
INFO: [Master VIP_wr_driver] (axi_vip_pkg.axi_mst_wr_driver(C_AXI_WDATA_WIDTH=128,C_AXI_RDATA_WIDTH=128,C_AXI_WID_WIDTH=16,C_AXI_RID_WIDTH=16,C_AXI_AWUSER_WIDTH=16,C_AXI_ARUSER_WIDTH=16)::get_and_drive.GET_AND_DRIVE) 255000 : ---------------------------------------------------------------------------------------------
  Name                         Value
---------------------------------------------------------------------------------------------
  CMD                          XIL_AXI_WRITE
  ADDR                         0x0000000000000020 
  WID                          0x00000000
  LEN                          0x00
  SIZE                         0x100
  BURST                        0x01
  CACHE                        0x0000
  LOCK                         0x00
  PROT                         0x000
  REGION                       0x0000
  QOS                          0x0000
  AWUSER                       0x0000
  BRESP                        XIL_AXI_RESP_OKAY
  DRIVER_RETURN_ITEM           XIL_AXI_PAYLOAD_RETURN 
  CREATION_TIME                255000
  SUBMIT_TIME                  0
  PAYLOAD                      16
    BEAT[          0]          0x00000000000000000000000000000000 (strb : 0b1111111111111111) :beat_delay:         0
--------------------------------------------------------------------------------------------
INFO: [Master VIP_wr_driver] (axi_vip_pkg.axi_mst_wr_driver(C_AXI_WDATA_WIDTH=128,C_AXI_RDATA_WIDTH=128,C_AXI_WID_WIDTH=16,C_AXI_RID_WIDTH=16,C_AXI_AWUSER_WIDTH=16,C_AXI_ARUSER_WIDTH=16)::w_channel.W_CHANNEL.Block10274_272.Block10274_273) 335000 : WREADY+WLAST (         0) id=0x00000000
INFO: [Master VIP_wr_driver] (axi_vip_pkg.axi_mst_wr_driver(C_AXI_WDATA_WIDTH=128,C_AXI_RDATA_WIDTH=128,C_AXI_WID_WIDTH=16,C_AXI_RID_WIDTH=16,C_AXI_AWUSER_WIDTH=16,C_AXI_ARUSER_WIDTH=16)::service_done_q.SERVICE_DONE_Q) 345000 : SERVICE_DONE_Q: XIL_AXI_WRITE (8) A:0x0000000000000020 ID:0x00000000 len:0x00 XIL_AXI_SIZE_16BYTE XIL_AXI_BURST_TYPE_INCR C:0b0000 L:XIL_AXI_ALOCK_NOLOCK P:0b000
INFO: [Master VIP_wr_driver] (axi_vip_pkg.axi_mst_wr_driver(C_AXI_WDATA_WIDTH=128,C_AXI_RDATA_WIDTH=128,C_AXI_WID_WIDTH=16,C_AXI_RID_WIDTH=16,C_AXI_AWUSER_WIDTH=16,C_AXI_ARUSER_WIDTH=16)::get_and_drive.GET_AND_DRIVE) 365000 : Sending transaction: 
INFO: [Master VIP_wr_driver] (axi_vip_pkg.axi_mst_wr_driver(C_AXI_WDATA_WIDTH=128,C_AXI_RDATA_WIDTH=128,C_AXI_WID_WIDTH=16,C_AXI_RID_WIDTH=16,C_AXI_AWUSER_WIDTH=16,C_AXI_ARUSER_WIDTH=16)::get_and_drive.GET_AND_DRIVE) 365000 : ---------------------------------------------------------------------------------------------
  Name                         Value
---------------------------------------------------------------------------------------------
  CMD                          XIL_AXI_WRITE
  ADDR                         0x0000000000000030 
  WID                          0x00000000
  LEN                          0x00
  SIZE                         0x100
  BURST                        0x01
  CACHE                        0x0000
  LOCK                         0x00
  PROT                         0x000
  REGION                       0x0000
  QOS                          0x0000
  AWUSER                       0x0000
  BRESP                        XIL_AXI_RESP_OKAY
  DRIVER_RETURN_ITEM           XIL_AXI_PAYLOAD_RETURN 
  CREATION_TIME                365000
  SUBMIT_TIME                  0
  PAYLOAD                      16
    BEAT[          0]          0x00000000000000000000000000000000 (strb : 0b1111111111111111) :beat_delay:         0
--------------------------------------------------------------------------------------------
INFO: [Master VIP_wr_driver] (axi_vip_pkg.axi_mst_wr_driver(C_AXI_WDATA_WIDTH=128,C_AXI_RDATA_WIDTH=128,C_AXI_WID_WIDTH=16,C_AXI_RID_WIDTH=16,C_AXI_AWUSER_WIDTH=16,C_AXI_ARUSER_WIDTH=16)::w_channel.W_CHANNEL.Block10274_272.Block10274_273) 445000 : WREADY+WLAST (         0) id=0x00000000
INFO: [Master VIP_wr_driver] (axi_vip_pkg.axi_mst_wr_driver(C_AXI_WDATA_WIDTH=128,C_AXI_RDATA_WIDTH=128,C_AXI_WID_WIDTH=16,C_AXI_RID_WIDTH=16,C_AXI_AWUSER_WIDTH=16,C_AXI_ARUSER_WIDTH=16)::service_done_q.SERVICE_DONE_Q) 455000 : SERVICE_DONE_Q: XIL_AXI_WRITE (12) A:0x0000000000000030 ID:0x00000000 len:0x00 XIL_AXI_SIZE_16BYTE XIL_AXI_BURST_TYPE_INCR C:0b0000 L:XIL_AXI_ALOCK_NOLOCK P:0b000
INFO: [Master VIP_rd_driver] (axi_vip_pkg.axi_mst_rd_driver(C_AXI_WDATA_WIDTH=128,C_AXI_RDATA_WIDTH=128,C_AXI_WID_WIDTH=16,C_AXI_RID_WIDTH=16,C_AXI_AWUSER_WIDTH=16,C_AXI_ARUSER_WIDTH=16)::ar_channel.AR_CHANNEL) 535001 : ARVALID id=0x00000000
INFO: [Master VIP_rd_driver] (axi_vip_pkg.axi_mst_rd_driver(C_AXI_WDATA_WIDTH=128,C_AXI_RDATA_WIDTH=128,C_AXI_WID_WIDTH=16,C_AXI_RID_WIDTH=16,C_AXI_AWUSER_WIDTH=16,C_AXI_ARUSER_WIDTH=16)::ar_channel.AR_CHANNEL) 595001 : ARVALID id=0x00000000
INFO: [Master VIP_rd_driver] (axi_vip_pkg.axi_mst_rd_driver(C_AXI_WDATA_WIDTH=128,C_AXI_RDATA_WIDTH=128,C_AXI_WID_WIDTH=16,C_AXI_RID_WIDTH=16,C_AXI_AWUSER_WIDTH=16,C_AXI_ARUSER_WIDTH=16)::ar_channel.AR_CHANNEL) 655001 : ARVALID id=0x00000000
INFO: [Master VIP_rd_driver] (axi_vip_pkg.axi_mst_rd_driver(C_AXI_WDATA_WIDTH=128,C_AXI_RDATA_WIDTH=128,C_AXI_WID_WIDTH=16,C_AXI_RID_WIDTH=16,C_AXI_AWUSER_WIDTH=16,C_AXI_ARUSER_WIDTH=16)::ar_channel.AR_CHANNEL) 715001 : ARVALID id=0x00000000
Data match, test succeeded
INFO: [Slave VIP_wr_driver] (axi_vip_pkg.axi_slv_wr_driver(C_AXI_ADDR_WIDTH=40,C_AXI_WDATA_WIDTH=128,C_AXI_RDATA_WIDTH=128,C_AXI_WID_WIDTH=16,C_AXI_RID_WIDTH=16,C_AXI_AWUSER_WIDTH=16,C_AXI_ARUSER_WIDTH=16,C_AXI_HAS_REGION=0)::aw_channel.AW_CHANNEL) 2725000 : AWVALID >>>
XIL_AXI_WRITE (32) A:0x0000008000000000 ID:0x000001ad len:0x03 XIL_AXI_SIZE_16BYTE XIL_AXI_BURST_TYPE_INCR C:0b0010 L:XIL_AXI_ALOCK_NOLOCK P:0b000<<<
INFO: [Slave VIP_wr_driver] (axi_vip_pkg.axi_slv_wr_driver(C_AXI_ADDR_WIDTH=40,C_AXI_WDATA_WIDTH=128,C_AXI_RDATA_WIDTH=128,C_AXI_WID_WIDTH=16,C_AXI_RID_WIDTH=16,C_AXI_AWUSER_WIDTH=16,C_AXI_ARUSER_WIDTH=16,C_AXI_HAS_REGION=0)::w_channel.W_CHANNEL) 2725000 : W BEAT -- write_beat     Last:0 D:0x00000000000000000000000000000001 BE:0b1111111111111111 
INFO: [Slave VIP_wr_driver] (axi_vip_pkg.axi_slv_wr_driver(C_AXI_ADDR_WIDTH=40,C_AXI_WDATA_WIDTH=128,C_AXI_RDATA_WIDTH=128,C_AXI_WID_WIDTH=16,C_AXI_RID_WIDTH=16,C_AXI_AWUSER_WIDTH=16,C_AXI_ARUSER_WIDTH=16,C_AXI_HAS_REGION=0)::w_channel.W_CHANNEL) 2755000 : W BEAT -- write_beat     Last:0 D:0x00000000000000000000000000000002 BE:0b1111111111111111 
INFO: [Slave VIP_wr_driver] (axi_vip_pkg.axi_slv_wr_driver(C_AXI_ADDR_WIDTH=40,C_AXI_WDATA_WIDTH=128,C_AXI_RDATA_WIDTH=128,C_AXI_WID_WIDTH=16,C_AXI_RID_WIDTH=16,C_AXI_AWUSER_WIDTH=16,C_AXI_ARUSER_WIDTH=16,C_AXI_HAS_REGION=0)::w_channel.W_CHANNEL) 2785000 : W BEAT -- write_beat     Last:0 D:0x00000000000000000000000000000003 BE:0b1111111111111111 
INFO: [Slave VIP_wr_driver] (axi_vip_pkg.axi_slv_wr_driver(C_AXI_ADDR_WIDTH=40,C_AXI_WDATA_WIDTH=128,C_AXI_RDATA_WIDTH=128,C_AXI_WID_WIDTH=16,C_AXI_RID_WIDTH=16,C_AXI_AWUSER_WIDTH=16,C_AXI_ARUSER_WIDTH=16,C_AXI_HAS_REGION=0)::w_channel.W_CHANNEL) 2815000 : W LAST -- write_beat     Last:1 D:0x00000000000000000000000000000004 BE:0b1111111111111111 
INFO: [Slave VIP_wr_driver] (axi_vip_pkg.axi_slv_wr_driver(C_AXI_ADDR_WIDTH=40,C_AXI_WDATA_WIDTH=128,C_AXI_RDATA_WIDTH=128,C_AXI_WID_WIDTH=16,C_AXI_RID_WIDTH=16,C_AXI_AWUSER_WIDTH=16,C_AXI_ARUSER_WIDTH=16,C_AXI_HAS_REGION=0)::push_reactive_q) 2815000 : PUSH_REACTIVE_Q: PUSH (         0) >>> XIL_AXI_WRITE (32) A:0x0000008000000000 ID:0x000001ad len:0x03 XIL_AXI_SIZE_16BYTE XIL_AXI_BURST_TYPE_INCR C:0b0010 L:XIL_AXI_ALOCK_NOLOCK P:0b000 <<<
INFO: [Slave VIP_wr_driver] (axi_vip_pkg.axi_slv_wr_driver(C_AXI_ADDR_WIDTH=40,C_AXI_WDATA_WIDTH=128,C_AXI_RDATA_WIDTH=128,C_AXI_WID_WIDTH=16,C_AXI_RID_WIDTH=16,C_AXI_AWUSER_WIDTH=16,C_AXI_ARUSER_WIDTH=16,C_AXI_HAS_REGION=0)::pop_reactive_q) 2815000 : POP_REACTIVE_Q: (         1) >>> XIL_AXI_WRITE (32) A:0x0000008000000000 ID:0x000001ad len:0x03 XIL_AXI_SIZE_16BYTE XIL_AXI_BURST_TYPE_INCR C:0b0010 L:XIL_AXI_ALOCK_NOLOCK P:0b000 <<<
INFO: [Slave VIP_wr_driver] (axi_vip_pkg.axi_slv_wr_driver(C_AXI_ADDR_WIDTH=40,C_AXI_WDATA_WIDTH=128,C_AXI_RDATA_WIDTH=128,C_AXI_WID_WIDTH=16,C_AXI_RID_WIDTH=16,C_AXI_AWUSER_WIDTH=16,C_AXI_ARUSER_WIDTH=16,C_AXI_HAS_REGION=0)::get_and_drive.GET_AND_DRIVE) 2815000 : GNI : XIL_AXI_WRITE (32) A:0x0000008000000000 ID:0x000001ad len:0x03 XIL_AXI_SIZE_16BYTE XIL_AXI_BURST_TYPE_INCR C:0b0010 L:XIL_AXI_ALOCK_NOLOCK P:0b000
INFO: [Slave VIP_wr_driver] (axi_vip_pkg.axi_slv_wr_driver(C_AXI_ADDR_WIDTH=40,C_AXI_WDATA_WIDTH=128,C_AXI_RDATA_WIDTH=128,C_AXI_WID_WIDTH=16,C_AXI_RID_WIDTH=16,C_AXI_AWUSER_WIDTH=16,C_AXI_ARUSER_WIDTH=16,C_AXI_HAS_REGION=0)::push_b_q) 2815000 : B PUSH (         0)
INFO: [Slave VIP_wr_driver] (axi_vip_pkg.axi_slv_wr_driver(C_AXI_ADDR_WIDTH=40,C_AXI_WDATA_WIDTH=128,C_AXI_RDATA_WIDTH=128,C_AXI_WID_WIDTH=16,C_AXI_RID_WIDTH=16,C_AXI_AWUSER_WIDTH=16,C_AXI_ARUSER_WIDTH=16,C_AXI_HAS_REGION=0)::push_b_q) 2815000 : ID=0x000001ad - State 0b0111
Entries in BQ : NumEntries:         0 >>> 
 <<<
Command       : XIL_AXI_WRITE (32) A:0x0000008000000000 ID:0x000001ad len:0x03 XIL_AXI_SIZE_16BYTE XIL_AXI_BURST_TYPE_INCR C:0b0010 L:XIL_AXI_ALOCK_NOLOCK P:0b000
INFO: [Slave VIP_wr_driver] (axi_vip_pkg.axi_slv_wr_driver(C_AXI_ADDR_WIDTH=40,C_AXI_WDATA_WIDTH=128,C_AXI_RDATA_WIDTH=128,C_AXI_WID_WIDTH=16,C_AXI_RID_WIDTH=16,C_AXI_AWUSER_WIDTH=16,C_AXI_ARUSER_WIDTH=16,C_AXI_HAS_REGION=0)::service_done_q.SERVICE_DONE_Q) 2835000 : SERVICE_DONE_Q: XIL_AXI_WRITE (32) A:0x0000008000000000 ID:0x000001ad len:0x03 XIL_AXI_SIZE_16BYTE XIL_AXI_BURST_TYPE_INCR C:0b0010 L:XIL_AXI_ALOCK_NOLOCK P:0b000
INFO: [Slave VIP_wr_driver] (axi_vip_pkg.axi_slv_wr_driver(C_AXI_ADDR_WIDTH=40,C_AXI_WDATA_WIDTH=128,C_AXI_RDATA_WIDTH=128,C_AXI_WID_WIDTH=16,C_AXI_RID_WIDTH=16,C_AXI_AWUSER_WIDTH=16,C_AXI_ARUSER_WIDTH=16,C_AXI_HAS_REGION=0)::aw_channel.AW_CHANNEL) 2865000 : AWVALID >>>
XIL_AXI_WRITE (36) A:0x0000008000000040 ID:0x000001ad len:0x03 XIL_AXI_SIZE_16BYTE XIL_AXI_BURST_TYPE_INCR C:0b0010 L:XIL_AXI_ALOCK_NOLOCK P:0b000<<<
INFO: [Slave VIP_wr_driver] (axi_vip_pkg.axi_slv_wr_driver(C_AXI_ADDR_WIDTH=40,C_AXI_WDATA_WIDTH=128,C_AXI_RDATA_WIDTH=128,C_AXI_WID_WIDTH=16,C_AXI_RID_WIDTH=16,C_AXI_AWUSER_WIDTH=16,C_AXI_ARUSER_WIDTH=16,C_AXI_HAS_REGION=0)::w_channel.W_CHANNEL) 2865000 : W BEAT -- write_beat     Last:0 D:0x00000000000000000000000000000005 BE:0b1111111111111111 
INFO: [Slave VIP_wr_driver] (axi_vip_pkg.axi_slv_wr_driver(C_AXI_ADDR_WIDTH=40,C_AXI_WDATA_WIDTH=128,C_AXI_RDATA_WIDTH=128,C_AXI_WID_WIDTH=16,C_AXI_RID_WIDTH=16,C_AXI_AWUSER_WIDTH=16,C_AXI_ARUSER_WIDTH=16,C_AXI_HAS_REGION=0)::w_channel.W_CHANNEL) 2895000 : W BEAT -- write_beat     Last:0 D:0x00000000000000000000000000000006 BE:0b1111111111111111 
INFO: [Slave VIP_wr_driver] (axi_vip_pkg.axi_slv_wr_driver(C_AXI_ADDR_WIDTH=40,C_AXI_WDATA_WIDTH=128,C_AXI_RDATA_WIDTH=128,C_AXI_WID_WIDTH=16,C_AXI_RID_WIDTH=16,C_AXI_AWUSER_WIDTH=16,C_AXI_ARUSER_WIDTH=16,C_AXI_HAS_REGION=0)::w_channel.W_CHANNEL) 2925000 : W BEAT -- write_beat     Last:0 D:0x00000000000000000000000000000007 BE:0b1111111111111111 
INFO: [Slave VIP_wr_driver] (axi_vip_pkg.axi_slv_wr_driver(C_AXI_ADDR_WIDTH=40,C_AXI_WDATA_WIDTH=128,C_AXI_RDATA_WIDTH=128,C_AXI_WID_WIDTH=16,C_AXI_RID_WIDTH=16,C_AXI_AWUSER_WIDTH=16,C_AXI_ARUSER_WIDTH=16,C_AXI_HAS_REGION=0)::w_channel.W_CHANNEL) 2955000 : W LAST -- write_beat     Last:1 D:0x00000000000000000000000000000008 BE:0b1111111111111111 
INFO: [Slave VIP_wr_driver] (axi_vip_pkg.axi_slv_wr_driver(C_AXI_ADDR_WIDTH=40,C_AXI_WDATA_WIDTH=128,C_AXI_RDATA_WIDTH=128,C_AXI_WID_WIDTH=16,C_AXI_RID_WIDTH=16,C_AXI_AWUSER_WIDTH=16,C_AXI_ARUSER_WIDTH=16,C_AXI_HAS_REGION=0)::push_reactive_q) 2955000 : PUSH_REACTIVE_Q: PUSH (         0) >>> XIL_AXI_WRITE (36) A:0x0000008000000040 ID:0x000001ad len:0x03 XIL_AXI_SIZE_16BYTE XIL_AXI_BURST_TYPE_INCR C:0b0010 L:XIL_AXI_ALOCK_NOLOCK P:0b000 <<<
INFO: [Slave VIP_wr_driver] (axi_vip_pkg.axi_slv_wr_driver(C_AXI_ADDR_WIDTH=40,C_AXI_WDATA_WIDTH=128,C_AXI_RDATA_WIDTH=128,C_AXI_WID_WIDTH=16,C_AXI_RID_WIDTH=16,C_AXI_AWUSER_WIDTH=16,C_AXI_ARUSER_WIDTH=16,C_AXI_HAS_REGION=0)::pop_reactive_q) 2955000 : POP_REACTIVE_Q: (         1) >>> XIL_AXI_WRITE (36) A:0x0000008000000040 ID:0x000001ad len:0x03 XIL_AXI_SIZE_16BYTE XIL_AXI_BURST_TYPE_INCR C:0b0010 L:XIL_AXI_ALOCK_NOLOCK P:0b000 <<<
INFO: [Slave VIP_wr_driver] (axi_vip_pkg.axi_slv_wr_driver(C_AXI_ADDR_WIDTH=40,C_AXI_WDATA_WIDTH=128,C_AXI_RDATA_WIDTH=128,C_AXI_WID_WIDTH=16,C_AXI_RID_WIDTH=16,C_AXI_AWUSER_WIDTH=16,C_AXI_ARUSER_WIDTH=16,C_AXI_HAS_REGION=0)::get_and_drive.GET_AND_DRIVE) 2955000 : GNI : XIL_AXI_WRITE (36) A:0x0000008000000040 ID:0x000001ad len:0x03 XIL_AXI_SIZE_16BYTE XIL_AXI_BURST_TYPE_INCR C:0b0010 L:XIL_AXI_ALOCK_NOLOCK P:0b000
INFO: [Slave VIP_wr_driver] (axi_vip_pkg.axi_slv_wr_driver(C_AXI_ADDR_WIDTH=40,C_AXI_WDATA_WIDTH=128,C_AXI_RDATA_WIDTH=128,C_AXI_WID_WIDTH=16,C_AXI_RID_WIDTH=16,C_AXI_AWUSER_WIDTH=16,C_AXI_ARUSER_WIDTH=16,C_AXI_HAS_REGION=0)::push_b_q) 2955000 : B PUSH (         0)
INFO: [Slave VIP_wr_driver] (axi_vip_pkg.axi_slv_wr_driver(C_AXI_ADDR_WIDTH=40,C_AXI_WDATA_WIDTH=128,C_AXI_RDATA_WIDTH=128,C_AXI_WID_WIDTH=16,C_AXI_RID_WIDTH=16,C_AXI_AWUSER_WIDTH=16,C_AXI_ARUSER_WIDTH=16,C_AXI_HAS_REGION=0)::push_b_q) 2955000 : ID=0x000001ad - State 0b0111
Entries in BQ : NumEntries:         0 >>> 
 <<<
Command       : XIL_AXI_WRITE (36) A:0x0000008000000040 ID:0x000001ad len:0x03 XIL_AXI_SIZE_16BYTE XIL_AXI_BURST_TYPE_INCR C:0b0010 L:XIL_AXI_ALOCK_NOLOCK P:0b000
INFO: [Slave VIP_wr_driver] (axi_vip_pkg.axi_slv_wr_driver(C_AXI_ADDR_WIDTH=40,C_AXI_WDATA_WIDTH=128,C_AXI_RDATA_WIDTH=128,C_AXI_WID_WIDTH=16,C_AXI_RID_WIDTH=16,C_AXI_AWUSER_WIDTH=16,C_AXI_ARUSER_WIDTH=16,C_AXI_HAS_REGION=0)::service_done_q.SERVICE_DONE_Q) 2975000 : SERVICE_DONE_Q: XIL_AXI_WRITE (36) A:0x0000008000000040 ID:0x000001ad len:0x03 XIL_AXI_SIZE_16BYTE XIL_AXI_BURST_TYPE_INCR C:0b0010 L:XIL_AXI_ALOCK_NOLOCK P:0b000
INFO: [Slave VIP_wr_driver] (axi_vip_pkg.axi_slv_wr_driver(C_AXI_ADDR_WIDTH=40,C_AXI_WDATA_WIDTH=128,C_AXI_RDATA_WIDTH=128,C_AXI_WID_WIDTH=16,C_AXI_RID_WIDTH=16,C_AXI_AWUSER_WIDTH=16,C_AXI_ARUSER_WIDTH=16,C_AXI_HAS_REGION=0)::aw_channel.AW_CHANNEL) 3005000 : AWVALID >>>
XIL_AXI_WRITE (40) A:0x0000008000000080 ID:0x000001ad len:0x03 XIL_AXI_SIZE_16BYTE XIL_AXI_BURST_TYPE_INCR C:0b0010 L:XIL_AXI_ALOCK_NOLOCK P:0b000<<<
INFO: [Slave VIP_wr_driver] (axi_vip_pkg.axi_slv_wr_driver(C_AXI_ADDR_WIDTH=40,C_AXI_WDATA_WIDTH=128,C_AXI_RDATA_WIDTH=128,C_AXI_WID_WIDTH=16,C_AXI_RID_WIDTH=16,C_AXI_AWUSER_WIDTH=16,C_AXI_ARUSER_WIDTH=16,C_AXI_HAS_REGION=0)::w_channel.W_CHANNEL) 3005000 : W BEAT -- write_beat     Last:0 D:0x00000000000000000000000000000009 BE:0b1111111111111111 
INFO: [Slave VIP_wr_driver] (axi_vip_pkg.axi_slv_wr_driver(C_AXI_ADDR_WIDTH=40,C_AXI_WDATA_WIDTH=128,C_AXI_RDATA_WIDTH=128,C_AXI_WID_WIDTH=16,C_AXI_RID_WIDTH=16,C_AXI_AWUSER_WIDTH=16,C_AXI_ARUSER_WIDTH=16,C_AXI_HAS_REGION=0)::w_channel.W_CHANNEL) 3035000 : W BEAT -- write_beat     Last:0 D:0x0000000000000000000000000000000a BE:0b1111111111111111 
INFO: [Slave VIP_wr_driver] (axi_vip_pkg.axi_slv_wr_driver(C_AXI_ADDR_WIDTH=40,C_AXI_WDATA_WIDTH=128,C_AXI_RDATA_WIDTH=128,C_AXI_WID_WIDTH=16,C_AXI_RID_WIDTH=16,C_AXI_AWUSER_WIDTH=16,C_AXI_ARUSER_WIDTH=16,C_AXI_HAS_REGION=0)::w_channel.W_CHANNEL) 3065000 : W BEAT -- write_beat     Last:0 D:0x0000000000000000000000000000000b BE:0b1111111111111111 
INFO: [Slave VIP_wr_driver] (axi_vip_pkg.axi_slv_wr_driver(C_AXI_ADDR_WIDTH=40,C_AXI_WDATA_WIDTH=128,C_AXI_RDATA_WIDTH=128,C_AXI_WID_WIDTH=16,C_AXI_RID_WIDTH=16,C_AXI_AWUSER_WIDTH=16,C_AXI_ARUSER_WIDTH=16,C_AXI_HAS_REGION=0)::w_channel.W_CHANNEL) 3095000 : W LAST -- write_beat     Last:1 D:0x0000000000000000000000000000000c BE:0b1111111111111111 
INFO: [Slave VIP_wr_driver] (axi_vip_pkg.axi_slv_wr_driver(C_AXI_ADDR_WIDTH=40,C_AXI_WDATA_WIDTH=128,C_AXI_RDATA_WIDTH=128,C_AXI_WID_WIDTH=16,C_AXI_RID_WIDTH=16,C_AXI_AWUSER_WIDTH=16,C_AXI_ARUSER_WIDTH=16,C_AXI_HAS_REGION=0)::push_reactive_q) 3095000 : PUSH_REACTIVE_Q: PUSH (         0) >>> XIL_AXI_WRITE (40) A:0x0000008000000080 ID:0x000001ad len:0x03 XIL_AXI_SIZE_16BYTE XIL_AXI_BURST_TYPE_INCR C:0b0010 L:XIL_AXI_ALOCK_NOLOCK P:0b000 <<<
INFO: [Slave VIP_wr_driver] (axi_vip_pkg.axi_slv_wr_driver(C_AXI_ADDR_WIDTH=40,C_AXI_WDATA_WIDTH=128,C_AXI_RDATA_WIDTH=128,C_AXI_WID_WIDTH=16,C_AXI_RID_WIDTH=16,C_AXI_AWUSER_WIDTH=16,C_AXI_ARUSER_WIDTH=16,C_AXI_HAS_REGION=0)::pop_reactive_q) 3095000 : POP_REACTIVE_Q: (         1) >>> XIL_AXI_WRITE (40) A:0x0000008000000080 ID:0x000001ad len:0x03 XIL_AXI_SIZE_16BYTE XIL_AXI_BURST_TYPE_INCR C:0b0010 L:XIL_AXI_ALOCK_NOLOCK P:0b000 <<<
INFO: [Slave VIP_wr_driver] (axi_vip_pkg.axi_slv_wr_driver(C_AXI_ADDR_WIDTH=40,C_AXI_WDATA_WIDTH=128,C_AXI_RDATA_WIDTH=128,C_AXI_WID_WIDTH=16,C_AXI_RID_WIDTH=16,C_AXI_AWUSER_WIDTH=16,C_AXI_ARUSER_WIDTH=16,C_AXI_HAS_REGION=0)::get_and_drive.GET_AND_DRIVE) 3095000 : GNI : XIL_AXI_WRITE (40) A:0x0000008000000080 ID:0x000001ad len:0x03 XIL_AXI_SIZE_16BYTE XIL_AXI_BURST_TYPE_INCR C:0b0010 L:XIL_AXI_ALOCK_NOLOCK P:0b000
INFO: [Slave VIP_wr_driver] (axi_vip_pkg.axi_slv_wr_driver(C_AXI_ADDR_WIDTH=40,C_AXI_WDATA_WIDTH=128,C_AXI_RDATA_WIDTH=128,C_AXI_WID_WIDTH=16,C_AXI_RID_WIDTH=16,C_AXI_AWUSER_WIDTH=16,C_AXI_ARUSER_WIDTH=16,C_AXI_HAS_REGION=0)::push_b_q) 3095000 : B PUSH (         0)
INFO: [Slave VIP_wr_driver] (axi_vip_pkg.axi_slv_wr_driver(C_AXI_ADDR_WIDTH=40,C_AXI_WDATA_WIDTH=128,C_AXI_RDATA_WIDTH=128,C_AXI_WID_WIDTH=16,C_AXI_RID_WIDTH=16,C_AXI_AWUSER_WIDTH=16,C_AXI_ARUSER_WIDTH=16,C_AXI_HAS_REGION=0)::push_b_q) 3095000 : ID=0x000001ad - State 0b0111
Entries in BQ : NumEntries:         0 >>> 
 <<<
Command       : XIL_AXI_WRITE (40) A:0x0000008000000080 ID:0x000001ad len:0x03 XIL_AXI_SIZE_16BYTE XIL_AXI_BURST_TYPE_INCR C:0b0010 L:XIL_AXI_ALOCK_NOLOCK P:0b000
INFO: [Slave VIP_wr_driver] (axi_vip_pkg.axi_slv_wr_driver(C_AXI_ADDR_WIDTH=40,C_AXI_WDATA_WIDTH=128,C_AXI_RDATA_WIDTH=128,C_AXI_WID_WIDTH=16,C_AXI_RID_WIDTH=16,C_AXI_AWUSER_WIDTH=16,C_AXI_ARUSER_WIDTH=16,C_AXI_HAS_REGION=0)::service_done_q.SERVICE_DONE_Q) 3115000 : SERVICE_DONE_Q: XIL_AXI_WRITE (40) A:0x0000008000000080 ID:0x000001ad len:0x03 XIL_AXI_SIZE_16BYTE XIL_AXI_BURST_TYPE_INCR C:0b0010 L:XIL_AXI_ALOCK_NOLOCK P:0b000
INFO: [Slave VIP_wr_driver] (axi_vip_pkg.axi_slv_wr_driver(C_AXI_ADDR_WIDTH=40,C_AXI_WDATA_WIDTH=128,C_AXI_RDATA_WIDTH=128,C_AXI_WID_WIDTH=16,C_AXI_RID_WIDTH=16,C_AXI_AWUSER_WIDTH=16,C_AXI_ARUSER_WIDTH=16,C_AXI_HAS_REGION=0)::aw_channel.AW_CHANNEL) 3145000 : AWVALID >>>
XIL_AXI_WRITE (44) A:0x00000080000000c0 ID:0x000001ad len:0x03 XIL_AXI_SIZE_16BYTE XIL_AXI_BURST_TYPE_INCR C:0b0010 L:XIL_AXI_ALOCK_NOLOCK P:0b000<<<
INFO: [Slave VIP_wr_driver] (axi_vip_pkg.axi_slv_wr_driver(C_AXI_ADDR_WIDTH=40,C_AXI_WDATA_WIDTH=128,C_AXI_RDATA_WIDTH=128,C_AXI_WID_WIDTH=16,C_AXI_RID_WIDTH=16,C_AXI_AWUSER_WIDTH=16,C_AXI_ARUSER_WIDTH=16,C_AXI_HAS_REGION=0)::w_channel.W_CHANNEL) 3145000 : W BEAT -- write_beat     Last:0 D:0x0000000000000000000000000000000d BE:0b1111111111111111 
INFO: [Slave VIP_wr_driver] (axi_vip_pkg.axi_slv_wr_driver(C_AXI_ADDR_WIDTH=40,C_AXI_WDATA_WIDTH=128,C_AXI_RDATA_WIDTH=128,C_AXI_WID_WIDTH=16,C_AXI_RID_WIDTH=16,C_AXI_AWUSER_WIDTH=16,C_AXI_ARUSER_WIDTH=16,C_AXI_HAS_REGION=0)::w_channel.W_CHANNEL) 3175000 : W BEAT -- write_beat     Last:0 D:0x0000000000000000000000000000000e BE:0b1111111111111111 
INFO: [Slave VIP_wr_driver] (axi_vip_pkg.axi_slv_wr_driver(C_AXI_ADDR_WIDTH=40,C_AXI_WDATA_WIDTH=128,C_AXI_RDATA_WIDTH=128,C_AXI_WID_WIDTH=16,C_AXI_RID_WIDTH=16,C_AXI_AWUSER_WIDTH=16,C_AXI_ARUSER_WIDTH=16,C_AXI_HAS_REGION=0)::w_channel.W_CHANNEL) 3205000 : W BEAT -- write_beat     Last:0 D:0x0000000000000000000000000000000f BE:0b1111111111111111 
INFO: [Slave VIP_wr_driver] (axi_vip_pkg.axi_slv_wr_driver(C_AXI_ADDR_WIDTH=40,C_AXI_WDATA_WIDTH=128,C_AXI_RDATA_WIDTH=128,C_AXI_WID_WIDTH=16,C_AXI_RID_WIDTH=16,C_AXI_AWUSER_WIDTH=16,C_AXI_ARUSER_WIDTH=16,C_AXI_HAS_REGION=0)::w_channel.W_CHANNEL) 3235000 : W LAST -- write_beat     Last:1 D:0x00000000000000000000000000000010 BE:0b1111111111111111 
INFO: [Slave VIP_wr_driver] (axi_vip_pkg.axi_slv_wr_driver(C_AXI_ADDR_WIDTH=40,C_AXI_WDATA_WIDTH=128,C_AXI_RDATA_WIDTH=128,C_AXI_WID_WIDTH=16,C_AXI_RID_WIDTH=16,C_AXI_AWUSER_WIDTH=16,C_AXI_ARUSER_WIDTH=16,C_AXI_HAS_REGION=0)::push_reactive_q) 3235000 : PUSH_REACTIVE_Q: PUSH (         0) >>> XIL_AXI_WRITE (44) A:0x00000080000000c0 ID:0x000001ad len:0x03 XIL_AXI_SIZE_16BYTE XIL_AXI_BURST_TYPE_INCR C:0b0010 L:XIL_AXI_ALOCK_NOLOCK P:0b000 <<<
INFO: [Slave VIP_wr_driver] (axi_vip_pkg.axi_slv_wr_driver(C_AXI_ADDR_WIDTH=40,C_AXI_WDATA_WIDTH=128,C_AXI_RDATA_WIDTH=128,C_AXI_WID_WIDTH=16,C_AXI_RID_WIDTH=16,C_AXI_AWUSER_WIDTH=16,C_AXI_ARUSER_WIDTH=16,C_AXI_HAS_REGION=0)::pop_reactive_q) 3235000 : POP_REACTIVE_Q: (         1) >>> XIL_AXI_WRITE (44) A:0x00000080000000c0 ID:0x000001ad len:0x03 XIL_AXI_SIZE_16BYTE XIL_AXI_BURST_TYPE_INCR C:0b0010 L:XIL_AXI_ALOCK_NOLOCK P:0b000 <<<
INFO: [Slave VIP_wr_driver] (axi_vip_pkg.axi_slv_wr_driver(C_AXI_ADDR_WIDTH=40,C_AXI_WDATA_WIDTH=128,C_AXI_RDATA_WIDTH=128,C_AXI_WID_WIDTH=16,C_AXI_RID_WIDTH=16,C_AXI_AWUSER_WIDTH=16,C_AXI_ARUSER_WIDTH=16,C_AXI_HAS_REGION=0)::get_and_drive.GET_AND_DRIVE) 3235000 : GNI : XIL_AXI_WRITE (44) A:0x00000080000000c0 ID:0x000001ad len:0x03 XIL_AXI_SIZE_16BYTE XIL_AXI_BURST_TYPE_INCR C:0b0010 L:XIL_AXI_ALOCK_NOLOCK P:0b000
INFO: [Slave VIP_wr_driver] (axi_vip_pkg.axi_slv_wr_driver(C_AXI_ADDR_WIDTH=40,C_AXI_WDATA_WIDTH=128,C_AXI_RDATA_WIDTH=128,C_AXI_WID_WIDTH=16,C_AXI_RID_WIDTH=16,C_AXI_AWUSER_WIDTH=16,C_AXI_ARUSER_WIDTH=16,C_AXI_HAS_REGION=0)::push_b_q) 3235000 : B PUSH (         0)
INFO: [Slave VIP_wr_driver] (axi_vip_pkg.axi_slv_wr_driver(C_AXI_ADDR_WIDTH=40,C_AXI_WDATA_WIDTH=128,C_AXI_RDATA_WIDTH=128,C_AXI_WID_WIDTH=16,C_AXI_RID_WIDTH=16,C_AXI_AWUSER_WIDTH=16,C_AXI_ARUSER_WIDTH=16,C_AXI_HAS_REGION=0)::push_b_q) 3235000 : ID=0x000001ad - State 0b0111
Entries in BQ : NumEntries:         0 >>> 
 <<<
Command       : XIL_AXI_WRITE (44) A:0x00000080000000c0 ID:0x000001ad len:0x03 XIL_AXI_SIZE_16BYTE XIL_AXI_BURST_TYPE_INCR C:0b0010 L:XIL_AXI_ALOCK_NOLOCK P:0b000
INFO: [Slave VIP_wr_driver] (axi_vip_pkg.axi_slv_wr_driver(C_AXI_ADDR_WIDTH=40,C_AXI_WDATA_WIDTH=128,C_AXI_RDATA_WIDTH=128,C_AXI_WID_WIDTH=16,C_AXI_RID_WIDTH=16,C_AXI_AWUSER_WIDTH=16,C_AXI_ARUSER_WIDTH=16,C_AXI_HAS_REGION=0)::service_done_q.SERVICE_DONE_Q) 3255000 : SERVICE_DONE_Q: XIL_AXI_WRITE (44) A:0x00000080000000c0 ID:0x000001ad len:0x03 XIL_AXI_SIZE_16BYTE XIL_AXI_BURST_TYPE_INCR C:0b0010 L:XIL_AXI_ALOCK_NOLOCK P:0b000
INFO: [Slave VIP_wr_driver] (axi_vip_pkg.axi_slv_wr_driver(C_AXI_ADDR_WIDTH=40,C_AXI_WDATA_WIDTH=128,C_AXI_RDATA_WIDTH=128,C_AXI_WID_WIDTH=16,C_AXI_RID_WIDTH=16,C_AXI_AWUSER_WIDTH=16,C_AXI_ARUSER_WIDTH=16,C_AXI_HAS_REGION=0)::aw_channel.AW_CHANNEL) 3285000 : AWVALID >>>
XIL_AXI_WRITE (48) A:0x0000008000000100 ID:0x000001ad len:0x03 XIL_AXI_SIZE_16BYTE XIL_AXI_BURST_TYPE_INCR C:0b0010 L:XIL_AXI_ALOCK_NOLOCK P:0b000<<<
INFO: [Slave VIP_wr_driver] (axi_vip_pkg.axi_slv_wr_driver(C_AXI_ADDR_WIDTH=40,C_AXI_WDATA_WIDTH=128,C_AXI_RDATA_WIDTH=128,C_AXI_WID_WIDTH=16,C_AXI_RID_WIDTH=16,C_AXI_AWUSER_WIDTH=16,C_AXI_ARUSER_WIDTH=16,C_AXI_HAS_REGION=0)::w_channel.W_CHANNEL) 3285000 : W BEAT -- write_beat     Last:0 D:0x00000000000000000000000000000011 BE:0b1111111111111111 
INFO: [Slave VIP_wr_driver] (axi_vip_pkg.axi_slv_wr_driver(C_AXI_ADDR_WIDTH=40,C_AXI_WDATA_WIDTH=128,C_AXI_RDATA_WIDTH=128,C_AXI_WID_WIDTH=16,C_AXI_RID_WIDTH=16,C_AXI_AWUSER_WIDTH=16,C_AXI_ARUSER_WIDTH=16,C_AXI_HAS_REGION=0)::w_channel.W_CHANNEL) 3315000 : W BEAT -- write_beat     Last:0 D:0x00000000000000000000000000000012 BE:0b1111111111111111 
INFO: [Slave VIP_wr_driver] (axi_vip_pkg.axi_slv_wr_driver(C_AXI_ADDR_WIDTH=40,C_AXI_WDATA_WIDTH=128,C_AXI_RDATA_WIDTH=128,C_AXI_WID_WIDTH=16,C_AXI_RID_WIDTH=16,C_AXI_AWUSER_WIDTH=16,C_AXI_ARUSER_WIDTH=16,C_AXI_HAS_REGION=0)::w_channel.W_CHANNEL) 3345000 : W BEAT -- write_beat     Last:0 D:0x00000000000000000000000000000013 BE:0b1111111111111111 
INFO: [Slave VIP_wr_driver] (axi_vip_pkg.axi_slv_wr_driver(C_AXI_ADDR_WIDTH=40,C_AXI_WDATA_WIDTH=128,C_AXI_RDATA_WIDTH=128,C_AXI_WID_WIDTH=16,C_AXI_RID_WIDTH=16,C_AXI_AWUSER_WIDTH=16,C_AXI_ARUSER_WIDTH=16,C_AXI_HAS_REGION=0)::w_channel.W_CHANNEL) 3375000 : W LAST -- write_beat     Last:1 D:0x00000000000000000000000000000014 BE:0b1111111111111111 
INFO: [Slave VIP_wr_driver] (axi_vip_pkg.axi_slv_wr_driver(C_AXI_ADDR_WIDTH=40,C_AXI_WDATA_WIDTH=128,C_AXI_RDATA_WIDTH=128,C_AXI_WID_WIDTH=16,C_AXI_RID_WIDTH=16,C_AXI_AWUSER_WIDTH=16,C_AXI_ARUSER_WIDTH=16,C_AXI_HAS_REGION=0)::push_reactive_q) 3375000 : PUSH_REACTIVE_Q: PUSH (         0) >>> XIL_AXI_WRITE (48) A:0x0000008000000100 ID:0x000001ad len:0x03 XIL_AXI_SIZE_16BYTE XIL_AXI_BURST_TYPE_INCR C:0b0010 L:XIL_AXI_ALOCK_NOLOCK P:0b000 <<<
INFO: [Slave VIP_wr_driver] (axi_vip_pkg.axi_slv_wr_driver(C_AXI_ADDR_WIDTH=40,C_AXI_WDATA_WIDTH=128,C_AXI_RDATA_WIDTH=128,C_AXI_WID_WIDTH=16,C_AXI_RID_WIDTH=16,C_AXI_AWUSER_WIDTH=16,C_AXI_ARUSER_WIDTH=16,C_AXI_HAS_REGION=0)::pop_reactive_q) 3375000 : POP_REACTIVE_Q: (         1) >>> XIL_AXI_WRITE (48) A:0x0000008000000100 ID:0x000001ad len:0x03 XIL_AXI_SIZE_16BYTE XIL_AXI_BURST_TYPE_INCR C:0b0010 L:XIL_AXI_ALOCK_NOLOCK P:0b000 <<<
INFO: [Slave VIP_wr_driver] (axi_vip_pkg.axi_slv_wr_driver(C_AXI_ADDR_WIDTH=40,C_AXI_WDATA_WIDTH=128,C_AXI_RDATA_WIDTH=128,C_AXI_WID_WIDTH=16,C_AXI_RID_WIDTH=16,C_AXI_AWUSER_WIDTH=16,C_AXI_ARUSER_WIDTH=16,C_AXI_HAS_REGION=0)::get_and_drive.GET_AND_DRIVE) 3375000 : GNI : XIL_AXI_WRITE (48) A:0x0000008000000100 ID:0x000001ad len:0x03 XIL_AXI_SIZE_16BYTE XIL_AXI_BURST_TYPE_INCR C:0b0010 L:XIL_AXI_ALOCK_NOLOCK P:0b000
INFO: [Slave VIP_wr_driver] (axi_vip_pkg.axi_slv_wr_driver(C_AXI_ADDR_WIDTH=40,C_AXI_WDATA_WIDTH=128,C_AXI_RDATA_WIDTH=128,C_AXI_WID_WIDTH=16,C_AXI_RID_WIDTH=16,C_AXI_AWUSER_WIDTH=16,C_AXI_ARUSER_WIDTH=16,C_AXI_HAS_REGION=0)::push_b_q) 3375000 : B PUSH (         0)
INFO: [Slave VIP_wr_driver] (axi_vip_pkg.axi_slv_wr_driver(C_AXI_ADDR_WIDTH=40,C_AXI_WDATA_WIDTH=128,C_AXI_RDATA_WIDTH=128,C_AXI_WID_WIDTH=16,C_AXI_RID_WIDTH=16,C_AXI_AWUSER_WIDTH=16,C_AXI_ARUSER_WIDTH=16,C_AXI_HAS_REGION=0)::push_b_q) 3375000 : ID=0x000001ad - State 0b0111
Entries in BQ : NumEntries:         0 >>> 
 <<<
Command       : XIL_AXI_WRITE (48) A:0x0000008000000100 ID:0x000001ad len:0x03 XIL_AXI_SIZE_16BYTE XIL_AXI_BURST_TYPE_INCR C:0b0010 L:XIL_AXI_ALOCK_NOLOCK P:0b000
INFO: [Slave VIP_wr_driver] (axi_vip_pkg.axi_slv_wr_driver(C_AXI_ADDR_WIDTH=40,C_AXI_WDATA_WIDTH=128,C_AXI_RDATA_WIDTH=128,C_AXI_WID_WIDTH=16,C_AXI_RID_WIDTH=16,C_AXI_AWUSER_WIDTH=16,C_AXI_ARUSER_WIDTH=16,C_AXI_HAS_REGION=0)::service_done_q.SERVICE_DONE_Q) 3395000 : SERVICE_DONE_Q: XIL_AXI_WRITE (48) A:0x0000008000000100 ID:0x000001ad len:0x03 XIL_AXI_SIZE_16BYTE XIL_AXI_BURST_TYPE_INCR C:0b0010 L:XIL_AXI_ALOCK_NOLOCK P:0b000
INFO: [Slave VIP_wr_driver] (axi_vip_pkg.axi_slv_wr_driver(C_AXI_ADDR_WIDTH=40,C_AXI_WDATA_WIDTH=128,C_AXI_RDATA_WIDTH=128,C_AXI_WID_WIDTH=16,C_AXI_RID_WIDTH=16,C_AXI_AWUSER_WIDTH=16,C_AXI_ARUSER_WIDTH=16,C_AXI_HAS_REGION=0)::aw_channel.AW_CHANNEL) 3425000 : AWVALID >>>
XIL_AXI_WRITE (52) A:0x0000008000000140 ID:0x000001ad len:0x03 XIL_AXI_SIZE_16BYTE XIL_AXI_BURST_TYPE_INCR C:0b0010 L:XIL_AXI_ALOCK_NOLOCK P:0b000<<<
INFO: [Slave VIP_wr_driver] (axi_vip_pkg.axi_slv_wr_driver(C_AXI_ADDR_WIDTH=40,C_AXI_WDATA_WIDTH=128,C_AXI_RDATA_WIDTH=128,C_AXI_WID_WIDTH=16,C_AXI_RID_WIDTH=16,C_AXI_AWUSER_WIDTH=16,C_AXI_ARUSER_WIDTH=16,C_AXI_HAS_REGION=0)::w_channel.W_CHANNEL) 3425000 : W BEAT -- write_beat     Last:0 D:0x00000000000000000000000000000015 BE:0b1111111111111111 
INFO: [Slave VIP_wr_driver] (axi_vip_pkg.axi_slv_wr_driver(C_AXI_ADDR_WIDTH=40,C_AXI_WDATA_WIDTH=128,C_AXI_RDATA_WIDTH=128,C_AXI_WID_WIDTH=16,C_AXI_RID_WIDTH=16,C_AXI_AWUSER_WIDTH=16,C_AXI_ARUSER_WIDTH=16,C_AXI_HAS_REGION=0)::w_channel.W_CHANNEL) 3455000 : W BEAT -- write_beat     Last:0 D:0x00000000000000000000000000000016 BE:0b1111111111111111 
INFO: [Slave VIP_wr_driver] (axi_vip_pkg.axi_slv_wr_driver(C_AXI_ADDR_WIDTH=40,C_AXI_WDATA_WIDTH=128,C_AXI_RDATA_WIDTH=128,C_AXI_WID_WIDTH=16,C_AXI_RID_WIDTH=16,C_AXI_AWUSER_WIDTH=16,C_AXI_ARUSER_WIDTH=16,C_AXI_HAS_REGION=0)::w_channel.W_CHANNEL) 3485000 : W BEAT -- write_beat     Last:0 D:0x00000000000000000000000000000017 BE:0b1111111111111111 
INFO: [Slave VIP_wr_driver] (axi_vip_pkg.axi_slv_wr_driver(C_AXI_ADDR_WIDTH=40,C_AXI_WDATA_WIDTH=128,C_AXI_RDATA_WIDTH=128,C_AXI_WID_WIDTH=16,C_AXI_RID_WIDTH=16,C_AXI_AWUSER_WIDTH=16,C_AXI_ARUSER_WIDTH=16,C_AXI_HAS_REGION=0)::w_channel.W_CHANNEL) 3515000 : W LAST -- write_beat     Last:1 D:0x00000000000000000000000000000018 BE:0b1111111111111111 
INFO: [Slave VIP_wr_driver] (axi_vip_pkg.axi_slv_wr_driver(C_AXI_ADDR_WIDTH=40,C_AXI_WDATA_WIDTH=128,C_AXI_RDATA_WIDTH=128,C_AXI_WID_WIDTH=16,C_AXI_RID_WIDTH=16,C_AXI_AWUSER_WIDTH=16,C_AXI_ARUSER_WIDTH=16,C_AXI_HAS_REGION=0)::push_reactive_q) 3515000 : PUSH_REACTIVE_Q: PUSH (         0) >>> XIL_AXI_WRITE (52) A:0x0000008000000140 ID:0x000001ad len:0x03 XIL_AXI_SIZE_16BYTE XIL_AXI_BURST_TYPE_INCR C:0b0010 L:XIL_AXI_ALOCK_NOLOCK P:0b000 <<<
INFO: [Slave VIP_wr_driver] (axi_vip_pkg.axi_slv_wr_driver(C_AXI_ADDR_WIDTH=40,C_AXI_WDATA_WIDTH=128,C_AXI_RDATA_WIDTH=128,C_AXI_WID_WIDTH=16,C_AXI_RID_WIDTH=16,C_AXI_AWUSER_WIDTH=16,C_AXI_ARUSER_WIDTH=16,C_AXI_HAS_REGION=0)::pop_reactive_q) 3515000 : POP_REACTIVE_Q: (         1) >>> XIL_AXI_WRITE (52) A:0x0000008000000140 ID:0x000001ad len:0x03 XIL_AXI_SIZE_16BYTE XIL_AXI_BURST_TYPE_INCR C:0b0010 L:XIL_AXI_ALOCK_NOLOCK P:0b000 <<<
INFO: [Slave VIP_wr_driver] (axi_vip_pkg.axi_slv_wr_driver(C_AXI_ADDR_WIDTH=40,C_AXI_WDATA_WIDTH=128,C_AXI_RDATA_WIDTH=128,C_AXI_WID_WIDTH=16,C_AXI_RID_WIDTH=16,C_AXI_AWUSER_WIDTH=16,C_AXI_ARUSER_WIDTH=16,C_AXI_HAS_REGION=0)::get_and_drive.GET_AND_DRIVE) 3515000 : GNI : XIL_AXI_WRITE (52) A:0x0000008000000140 ID:0x000001ad len:0x03 XIL_AXI_SIZE_16BYTE XIL_AXI_BURST_TYPE_INCR C:0b0010 L:XIL_AXI_ALOCK_NOLOCK P:0b000
INFO: [Slave VIP_wr_driver] (axi_vip_pkg.axi_slv_wr_driver(C_AXI_ADDR_WIDTH=40,C_AXI_WDATA_WIDTH=128,C_AXI_RDATA_WIDTH=128,C_AXI_WID_WIDTH=16,C_AXI_RID_WIDTH=16,C_AXI_AWUSER_WIDTH=16,C_AXI_ARUSER_WIDTH=16,C_AXI_HAS_REGION=0)::push_b_q) 3515000 : B PUSH (         0)
INFO: [Slave VIP_wr_driver] (axi_vip_pkg.axi_slv_wr_driver(C_AXI_ADDR_WIDTH=40,C_AXI_WDATA_WIDTH=128,C_AXI_RDATA_WIDTH=128,C_AXI_WID_WIDTH=16,C_AXI_RID_WIDTH=16,C_AXI_AWUSER_WIDTH=16,C_AXI_ARUSER_WIDTH=16,C_AXI_HAS_REGION=0)::push_b_q) 3515000 : ID=0x000001ad - State 0b0111
Entries in BQ : NumEntries:         0 >>> 
 <<<
Command       : XIL_AXI_WRITE (52) A:0x0000008000000140 ID:0x000001ad len:0x03 XIL_AXI_SIZE_16BYTE XIL_AXI_BURST_TYPE_INCR C:0b0010 L:XIL_AXI_ALOCK_NOLOCK P:0b000
INFO: [Slave VIP_wr_driver] (axi_vip_pkg.axi_slv_wr_driver(C_AXI_ADDR_WIDTH=40,C_AXI_WDATA_WIDTH=128,C_AXI_RDATA_WIDTH=128,C_AXI_WID_WIDTH=16,C_AXI_RID_WIDTH=16,C_AXI_AWUSER_WIDTH=16,C_AXI_ARUSER_WIDTH=16,C_AXI_HAS_REGION=0)::service_done_q.SERVICE_DONE_Q) 3535000 : SERVICE_DONE_Q: XIL_AXI_WRITE (52) A:0x0000008000000140 ID:0x000001ad len:0x03 XIL_AXI_SIZE_16BYTE XIL_AXI_BURST_TYPE_INCR C:0b0010 L:XIL_AXI_ALOCK_NOLOCK P:0b000
INFO: [Slave VIP_wr_driver] (axi_vip_pkg.axi_slv_wr_driver(C_AXI_ADDR_WIDTH=40,C_AXI_WDATA_WIDTH=128,C_AXI_RDATA_WIDTH=128,C_AXI_WID_WIDTH=16,C_AXI_RID_WIDTH=16,C_AXI_AWUSER_WIDTH=16,C_AXI_ARUSER_WIDTH=16,C_AXI_HAS_REGION=0)::aw_channel.AW_CHANNEL) 3565000 : AWVALID >>>
XIL_AXI_WRITE (56) A:0x0000008000000180 ID:0x000001ad len:0x03 XIL_AXI_SIZE_16BYTE XIL_AXI_BURST_TYPE_INCR C:0b0010 L:XIL_AXI_ALOCK_NOLOCK P:0b000<<<
INFO: [Slave VIP_wr_driver] (axi_vip_pkg.axi_slv_wr_driver(C_AXI_ADDR_WIDTH=40,C_AXI_WDATA_WIDTH=128,C_AXI_RDATA_WIDTH=128,C_AXI_WID_WIDTH=16,C_AXI_RID_WIDTH=16,C_AXI_AWUSER_WIDTH=16,C_AXI_ARUSER_WIDTH=16,C_AXI_HAS_REGION=0)::w_channel.W_CHANNEL) 3565000 : W BEAT -- write_beat     Last:0 D:0x00000000000000000000000000000019 BE:0b1111111111111111 
INFO: [Slave VIP_wr_driver] (axi_vip_pkg.axi_slv_wr_driver(C_AXI_ADDR_WIDTH=40,C_AXI_WDATA_WIDTH=128,C_AXI_RDATA_WIDTH=128,C_AXI_WID_WIDTH=16,C_AXI_RID_WIDTH=16,C_AXI_AWUSER_WIDTH=16,C_AXI_ARUSER_WIDTH=16,C_AXI_HAS_REGION=0)::w_channel.W_CHANNEL) 3595000 : W BEAT -- write_beat     Last:0 D:0x0000000000000000000000000000001a BE:0b1111111111111111 
INFO: [Slave VIP_wr_driver] (axi_vip_pkg.axi_slv_wr_driver(C_AXI_ADDR_WIDTH=40,C_AXI_WDATA_WIDTH=128,C_AXI_RDATA_WIDTH=128,C_AXI_WID_WIDTH=16,C_AXI_RID_WIDTH=16,C_AXI_AWUSER_WIDTH=16,C_AXI_ARUSER_WIDTH=16,C_AXI_HAS_REGION=0)::w_channel.W_CHANNEL) 3625000 : W BEAT -- write_beat     Last:0 D:0x0000000000000000000000000000001b BE:0b1111111111111111 
INFO: [Slave VIP_wr_driver] (axi_vip_pkg.axi_slv_wr_driver(C_AXI_ADDR_WIDTH=40,C_AXI_WDATA_WIDTH=128,C_AXI_RDATA_WIDTH=128,C_AXI_WID_WIDTH=16,C_AXI_RID_WIDTH=16,C_AXI_AWUSER_WIDTH=16,C_AXI_ARUSER_WIDTH=16,C_AXI_HAS_REGION=0)::w_channel.W_CHANNEL) 3655000 : W LAST -- write_beat     Last:1 D:0x0000000000000000000000000000001c BE:0b1111111111111111 
INFO: [Slave VIP_wr_driver] (axi_vip_pkg.axi_slv_wr_driver(C_AXI_ADDR_WIDTH=40,C_AXI_WDATA_WIDTH=128,C_AXI_RDATA_WIDTH=128,C_AXI_WID_WIDTH=16,C_AXI_RID_WIDTH=16,C_AXI_AWUSER_WIDTH=16,C_AXI_ARUSER_WIDTH=16,C_AXI_HAS_REGION=0)::push_reactive_q) 3655000 : PUSH_REACTIVE_Q: PUSH (         0) >>> XIL_AXI_WRITE (56) A:0x0000008000000180 ID:0x000001ad len:0x03 XIL_AXI_SIZE_16BYTE XIL_AXI_BURST_TYPE_INCR C:0b0010 L:XIL_AXI_ALOCK_NOLOCK P:0b000 <<<
INFO: [Slave VIP_wr_driver] (axi_vip_pkg.axi_slv_wr_driver(C_AXI_ADDR_WIDTH=40,C_AXI_WDATA_WIDTH=128,C_AXI_RDATA_WIDTH=128,C_AXI_WID_WIDTH=16,C_AXI_RID_WIDTH=16,C_AXI_AWUSER_WIDTH=16,C_AXI_ARUSER_WIDTH=16,C_AXI_HAS_REGION=0)::pop_reactive_q) 3655000 : POP_REACTIVE_Q: (         1) >>> XIL_AXI_WRITE (56) A:0x0000008000000180 ID:0x000001ad len:0x03 XIL_AXI_SIZE_16BYTE XIL_AXI_BURST_TYPE_INCR C:0b0010 L:XIL_AXI_ALOCK_NOLOCK P:0b000 <<<
INFO: [Slave VIP_wr_driver] (axi_vip_pkg.axi_slv_wr_driver(C_AXI_ADDR_WIDTH=40,C_AXI_WDATA_WIDTH=128,C_AXI_RDATA_WIDTH=128,C_AXI_WID_WIDTH=16,C_AXI_RID_WIDTH=16,C_AXI_AWUSER_WIDTH=16,C_AXI_ARUSER_WIDTH=16,C_AXI_HAS_REGION=0)::get_and_drive.GET_AND_DRIVE) 3655000 : GNI : XIL_AXI_WRITE (56) A:0x0000008000000180 ID:0x000001ad len:0x03 XIL_AXI_SIZE_16BYTE XIL_AXI_BURST_TYPE_INCR C:0b0010 L:XIL_AXI_ALOCK_NOLOCK P:0b000
INFO: [Slave VIP_wr_driver] (axi_vip_pkg.axi_slv_wr_driver(C_AXI_ADDR_WIDTH=40,C_AXI_WDATA_WIDTH=128,C_AXI_RDATA_WIDTH=128,C_AXI_WID_WIDTH=16,C_AXI_RID_WIDTH=16,C_AXI_AWUSER_WIDTH=16,C_AXI_ARUSER_WIDTH=16,C_AXI_HAS_REGION=0)::push_b_q) 3655000 : B PUSH (         0)
INFO: [Slave VIP_wr_driver] (axi_vip_pkg.axi_slv_wr_driver(C_AXI_ADDR_WIDTH=40,C_AXI_WDATA_WIDTH=128,C_AXI_RDATA_WIDTH=128,C_AXI_WID_WIDTH=16,C_AXI_RID_WIDTH=16,C_AXI_AWUSER_WIDTH=16,C_AXI_ARUSER_WIDTH=16,C_AXI_HAS_REGION=0)::push_b_q) 3655000 : ID=0x000001ad - State 0b0111
Entries in BQ : NumEntries:         0 >>> 
 <<<
Command       : XIL_AXI_WRITE (56) A:0x0000008000000180 ID:0x000001ad len:0x03 XIL_AXI_SIZE_16BYTE XIL_AXI_BURST_TYPE_INCR C:0b0010 L:XIL_AXI_ALOCK_NOLOCK P:0b000
INFO: [Slave VIP_wr_driver] (axi_vip_pkg.axi_slv_wr_driver(C_AXI_ADDR_WIDTH=40,C_AXI_WDATA_WIDTH=128,C_AXI_RDATA_WIDTH=128,C_AXI_WID_WIDTH=16,C_AXI_RID_WIDTH=16,C_AXI_AWUSER_WIDTH=16,C_AXI_ARUSER_WIDTH=16,C_AXI_HAS_REGION=0)::service_done_q.SERVICE_DONE_Q) 3675000 : SERVICE_DONE_Q: XIL_AXI_WRITE (56) A:0x0000008000000180 ID:0x000001ad len:0x03 XIL_AXI_SIZE_16BYTE XIL_AXI_BURST_TYPE_INCR C:0b0010 L:XIL_AXI_ALOCK_NOLOCK P:0b000
INFO: [Slave VIP_wr_driver] (axi_vip_pkg.axi_slv_wr_driver(C_AXI_ADDR_WIDTH=40,C_AXI_WDATA_WIDTH=128,C_AXI_RDATA_WIDTH=128,C_AXI_WID_WIDTH=16,C_AXI_RID_WIDTH=16,C_AXI_AWUSER_WIDTH=16,C_AXI_ARUSER_WIDTH=16,C_AXI_HAS_REGION=0)::aw_channel.AW_CHANNEL) 3705000 : AWVALID >>>
XIL_AXI_WRITE (60) A:0x00000080000001c0 ID:0x000001ad len:0x03 XIL_AXI_SIZE_16BYTE XIL_AXI_BURST_TYPE_INCR C:0b0010 L:XIL_AXI_ALOCK_NOLOCK P:0b000<<<
INFO: [Slave VIP_wr_driver] (axi_vip_pkg.axi_slv_wr_driver(C_AXI_ADDR_WIDTH=40,C_AXI_WDATA_WIDTH=128,C_AXI_RDATA_WIDTH=128,C_AXI_WID_WIDTH=16,C_AXI_RID_WIDTH=16,C_AXI_AWUSER_WIDTH=16,C_AXI_ARUSER_WIDTH=16,C_AXI_HAS_REGION=0)::w_channel.W_CHANNEL) 3705000 : W BEAT -- write_beat     Last:0 D:0x0000000000000000000000000000001d BE:0b1111111111111111 
INFO: [Slave VIP_wr_driver] (axi_vip_pkg.axi_slv_wr_driver(C_AXI_ADDR_WIDTH=40,C_AXI_WDATA_WIDTH=128,C_AXI_RDATA_WIDTH=128,C_AXI_WID_WIDTH=16,C_AXI_RID_WIDTH=16,C_AXI_AWUSER_WIDTH=16,C_AXI_ARUSER_WIDTH=16,C_AXI_HAS_REGION=0)::w_channel.W_CHANNEL) 3735000 : W BEAT -- write_beat     Last:0 D:0x0000000000000000000000000000001e BE:0b1111111111111111 
INFO: [Slave VIP_wr_driver] (axi_vip_pkg.axi_slv_wr_driver(C_AXI_ADDR_WIDTH=40,C_AXI_WDATA_WIDTH=128,C_AXI_RDATA_WIDTH=128,C_AXI_WID_WIDTH=16,C_AXI_RID_WIDTH=16,C_AXI_AWUSER_WIDTH=16,C_AXI_ARUSER_WIDTH=16,C_AXI_HAS_REGION=0)::w_channel.W_CHANNEL) 3765000 : W BEAT -- write_beat     Last:0 D:0x0000000000000000000000000000001f BE:0b1111111111111111 
INFO: [Slave VIP_wr_driver] (axi_vip_pkg.axi_slv_wr_driver(C_AXI_ADDR_WIDTH=40,C_AXI_WDATA_WIDTH=128,C_AXI_RDATA_WIDTH=128,C_AXI_WID_WIDTH=16,C_AXI_RID_WIDTH=16,C_AXI_AWUSER_WIDTH=16,C_AXI_ARUSER_WIDTH=16,C_AXI_HAS_REGION=0)::w_channel.W_CHANNEL) 3795000 : W LAST -- write_beat     Last:1 D:0x00000000000000000000000000000020 BE:0b1111111111111111 
INFO: [Slave VIP_wr_driver] (axi_vip_pkg.axi_slv_wr_driver(C_AXI_ADDR_WIDTH=40,C_AXI_WDATA_WIDTH=128,C_AXI_RDATA_WIDTH=128,C_AXI_WID_WIDTH=16,C_AXI_RID_WIDTH=16,C_AXI_AWUSER_WIDTH=16,C_AXI_ARUSER_WIDTH=16,C_AXI_HAS_REGION=0)::push_reactive_q) 3795000 : PUSH_REACTIVE_Q: PUSH (         0) >>> XIL_AXI_WRITE (60) A:0x00000080000001c0 ID:0x000001ad len:0x03 XIL_AXI_SIZE_16BYTE XIL_AXI_BURST_TYPE_INCR C:0b0010 L:XIL_AXI_ALOCK_NOLOCK P:0b000 <<<
INFO: [Slave VIP_wr_driver] (axi_vip_pkg.axi_slv_wr_driver(C_AXI_ADDR_WIDTH=40,C_AXI_WDATA_WIDTH=128,C_AXI_RDATA_WIDTH=128,C_AXI_WID_WIDTH=16,C_AXI_RID_WIDTH=16,C_AXI_AWUSER_WIDTH=16,C_AXI_ARUSER_WIDTH=16,C_AXI_HAS_REGION=0)::pop_reactive_q) 3795000 : POP_REACTIVE_Q: (         1) >>> XIL_AXI_WRITE (60) A:0x00000080000001c0 ID:0x000001ad len:0x03 XIL_AXI_SIZE_16BYTE XIL_AXI_BURST_TYPE_INCR C:0b0010 L:XIL_AXI_ALOCK_NOLOCK P:0b000 <<<
INFO: [Slave VIP_wr_driver] (axi_vip_pkg.axi_slv_wr_driver(C_AXI_ADDR_WIDTH=40,C_AXI_WDATA_WIDTH=128,C_AXI_RDATA_WIDTH=128,C_AXI_WID_WIDTH=16,C_AXI_RID_WIDTH=16,C_AXI_AWUSER_WIDTH=16,C_AXI_ARUSER_WIDTH=16,C_AXI_HAS_REGION=0)::get_and_drive.GET_AND_DRIVE) 3795000 : GNI : XIL_AXI_WRITE (60) A:0x00000080000001c0 ID:0x000001ad len:0x03 XIL_AXI_SIZE_16BYTE XIL_AXI_BURST_TYPE_INCR C:0b0010 L:XIL_AXI_ALOCK_NOLOCK P:0b000
INFO: [Slave VIP_wr_driver] (axi_vip_pkg.axi_slv_wr_driver(C_AXI_ADDR_WIDTH=40,C_AXI_WDATA_WIDTH=128,C_AXI_RDATA_WIDTH=128,C_AXI_WID_WIDTH=16,C_AXI_RID_WIDTH=16,C_AXI_AWUSER_WIDTH=16,C_AXI_ARUSER_WIDTH=16,C_AXI_HAS_REGION=0)::push_b_q) 3795000 : B PUSH (         0)
INFO: [Slave VIP_wr_driver] (axi_vip_pkg.axi_slv_wr_driver(C_AXI_ADDR_WIDTH=40,C_AXI_WDATA_WIDTH=128,C_AXI_RDATA_WIDTH=128,C_AXI_WID_WIDTH=16,C_AXI_RID_WIDTH=16,C_AXI_AWUSER_WIDTH=16,C_AXI_ARUSER_WIDTH=16,C_AXI_HAS_REGION=0)::push_b_q) 3795000 : ID=0x000001ad - State 0b0111
Entries in BQ : NumEntries:         0 >>> 
 <<<
Command       : XIL_AXI_WRITE (60) A:0x00000080000001c0 ID:0x000001ad len:0x03 XIL_AXI_SIZE_16BYTE XIL_AXI_BURST_TYPE_INCR C:0b0010 L:XIL_AXI_ALOCK_NOLOCK P:0b000
INFO: [Slave VIP_wr_driver] (axi_vip_pkg.axi_slv_wr_driver(C_AXI_ADDR_WIDTH=40,C_AXI_WDATA_WIDTH=128,C_AXI_RDATA_WIDTH=128,C_AXI_WID_WIDTH=16,C_AXI_RID_WIDTH=16,C_AXI_AWUSER_WIDTH=16,C_AXI_ARUSER_WIDTH=16,C_AXI_HAS_REGION=0)::service_done_q.SERVICE_DONE_Q) 3815000 : SERVICE_DONE_Q: XIL_AXI_WRITE (60) A:0x00000080000001c0 ID:0x000001ad len:0x03 XIL_AXI_SIZE_16BYTE XIL_AXI_BURST_TYPE_INCR C:0b0010 L:XIL_AXI_ALOCK_NOLOCK P:0b000
INFO: [Slave VIP_wr_driver] (axi_vip_pkg.axi_slv_wr_driver(C_AXI_ADDR_WIDTH=40,C_AXI_WDATA_WIDTH=128,C_AXI_RDATA_WIDTH=128,C_AXI_WID_WIDTH=16,C_AXI_RID_WIDTH=16,C_AXI_AWUSER_WIDTH=16,C_AXI_ARUSER_WIDTH=16,C_AXI_HAS_REGION=0)::aw_channel.AW_CHANNEL) 3845000 : AWVALID >>>
XIL_AXI_WRITE (64) A:0x0000008000000200 ID:0x000001ad len:0x03 XIL_AXI_SIZE_16BYTE XIL_AXI_BURST_TYPE_INCR C:0b0010 L:XIL_AXI_ALOCK_NOLOCK P:0b000<<<
INFO: [Slave VIP_wr_driver] (axi_vip_pkg.axi_slv_wr_driver(C_AXI_ADDR_WIDTH=40,C_AXI_WDATA_WIDTH=128,C_AXI_RDATA_WIDTH=128,C_AXI_WID_WIDTH=16,C_AXI_RID_WIDTH=16,C_AXI_AWUSER_WIDTH=16,C_AXI_ARUSER_WIDTH=16,C_AXI_HAS_REGION=0)::w_channel.W_CHANNEL) 3845000 : W BEAT -- write_beat     Last:0 D:0x00000000000000000000000000000021 BE:0b1111111111111111 
INFO: [Slave VIP_wr_driver] (axi_vip_pkg.axi_slv_wr_driver(C_AXI_ADDR_WIDTH=40,C_AXI_WDATA_WIDTH=128,C_AXI_RDATA_WIDTH=128,C_AXI_WID_WIDTH=16,C_AXI_RID_WIDTH=16,C_AXI_AWUSER_WIDTH=16,C_AXI_ARUSER_WIDTH=16,C_AXI_HAS_REGION=0)::w_channel.W_CHANNEL) 3875000 : W BEAT -- write_beat     Last:0 D:0x00000000000000000000000000000022 BE:0b1111111111111111 
INFO: [Slave VIP_wr_driver] (axi_vip_pkg.axi_slv_wr_driver(C_AXI_ADDR_WIDTH=40,C_AXI_WDATA_WIDTH=128,C_AXI_RDATA_WIDTH=128,C_AXI_WID_WIDTH=16,C_AXI_RID_WIDTH=16,C_AXI_AWUSER_WIDTH=16,C_AXI_ARUSER_WIDTH=16,C_AXI_HAS_REGION=0)::w_channel.W_CHANNEL) 3905000 : W BEAT -- write_beat     Last:0 D:0x00000000000000000000000000000023 BE:0b1111111111111111 
INFO: [Slave VIP_wr_driver] (axi_vip_pkg.axi_slv_wr_driver(C_AXI_ADDR_WIDTH=40,C_AXI_WDATA_WIDTH=128,C_AXI_RDATA_WIDTH=128,C_AXI_WID_WIDTH=16,C_AXI_RID_WIDTH=16,C_AXI_AWUSER_WIDTH=16,C_AXI_ARUSER_WIDTH=16,C_AXI_HAS_REGION=0)::w_channel.W_CHANNEL) 3935000 : W LAST -- write_beat     Last:1 D:0x00000000000000000000000000000024 BE:0b1111111111111111 
INFO: [Slave VIP_wr_driver] (axi_vip_pkg.axi_slv_wr_driver(C_AXI_ADDR_WIDTH=40,C_AXI_WDATA_WIDTH=128,C_AXI_RDATA_WIDTH=128,C_AXI_WID_WIDTH=16,C_AXI_RID_WIDTH=16,C_AXI_AWUSER_WIDTH=16,C_AXI_ARUSER_WIDTH=16,C_AXI_HAS_REGION=0)::push_reactive_q) 3935000 : PUSH_REACTIVE_Q: PUSH (         0) >>> XIL_AXI_WRITE (64) A:0x0000008000000200 ID:0x000001ad len:0x03 XIL_AXI_SIZE_16BYTE XIL_AXI_BURST_TYPE_INCR C:0b0010 L:XIL_AXI_ALOCK_NOLOCK P:0b000 <<<
INFO: [Slave VIP_wr_driver] (axi_vip_pkg.axi_slv_wr_driver(C_AXI_ADDR_WIDTH=40,C_AXI_WDATA_WIDTH=128,C_AXI_RDATA_WIDTH=128,C_AXI_WID_WIDTH=16,C_AXI_RID_WIDTH=16,C_AXI_AWUSER_WIDTH=16,C_AXI_ARUSER_WIDTH=16,C_AXI_HAS_REGION=0)::pop_reactive_q) 3935000 : POP_REACTIVE_Q: (         1) >>> XIL_AXI_WRITE (64) A:0x0000008000000200 ID:0x000001ad len:0x03 XIL_AXI_SIZE_16BYTE XIL_AXI_BURST_TYPE_INCR C:0b0010 L:XIL_AXI_ALOCK_NOLOCK P:0b000 <<<
INFO: [Slave VIP_wr_driver] (axi_vip_pkg.axi_slv_wr_driver(C_AXI_ADDR_WIDTH=40,C_AXI_WDATA_WIDTH=128,C_AXI_RDATA_WIDTH=128,C_AXI_WID_WIDTH=16,C_AXI_RID_WIDTH=16,C_AXI_AWUSER_WIDTH=16,C_AXI_ARUSER_WIDTH=16,C_AXI_HAS_REGION=0)::get_and_drive.GET_AND_DRIVE) 3935000 : GNI : XIL_AXI_WRITE (64) A:0x0000008000000200 ID:0x000001ad len:0x03 XIL_AXI_SIZE_16BYTE XIL_AXI_BURST_TYPE_INCR C:0b0010 L:XIL_AXI_ALOCK_NOLOCK P:0b000
INFO: [Slave VIP_wr_driver] (axi_vip_pkg.axi_slv_wr_driver(C_AXI_ADDR_WIDTH=40,C_AXI_WDATA_WIDTH=128,C_AXI_RDATA_WIDTH=128,C_AXI_WID_WIDTH=16,C_AXI_RID_WIDTH=16,C_AXI_AWUSER_WIDTH=16,C_AXI_ARUSER_WIDTH=16,C_AXI_HAS_REGION=0)::push_b_q) 3935000 : B PUSH (         0)
INFO: [Slave VIP_wr_driver] (axi_vip_pkg.axi_slv_wr_driver(C_AXI_ADDR_WIDTH=40,C_AXI_WDATA_WIDTH=128,C_AXI_RDATA_WIDTH=128,C_AXI_WID_WIDTH=16,C_AXI_RID_WIDTH=16,C_AXI_AWUSER_WIDTH=16,C_AXI_ARUSER_WIDTH=16,C_AXI_HAS_REGION=0)::push_b_q) 3935000 : ID=0x000001ad - State 0b0111
Entries in BQ : NumEntries:         0 >>> 
 <<<
Command       : XIL_AXI_WRITE (64) A:0x0000008000000200 ID:0x000001ad len:0x03 XIL_AXI_SIZE_16BYTE XIL_AXI_BURST_TYPE_INCR C:0b0010 L:XIL_AXI_ALOCK_NOLOCK P:0b000
INFO: [Slave VIP_wr_driver] (axi_vip_pkg.axi_slv_wr_driver(C_AXI_ADDR_WIDTH=40,C_AXI_WDATA_WIDTH=128,C_AXI_RDATA_WIDTH=128,C_AXI_WID_WIDTH=16,C_AXI_RID_WIDTH=16,C_AXI_AWUSER_WIDTH=16,C_AXI_ARUSER_WIDTH=16,C_AXI_HAS_REGION=0)::service_done_q.SERVICE_DONE_Q) 3955000 : SERVICE_DONE_Q: XIL_AXI_WRITE (64) A:0x0000008000000200 ID:0x000001ad len:0x03 XIL_AXI_SIZE_16BYTE XIL_AXI_BURST_TYPE_INCR C:0b0010 L:XIL_AXI_ALOCK_NOLOCK P:0b000
INFO: [Slave VIP_wr_driver] (axi_vip_pkg.axi_slv_wr_driver(C_AXI_ADDR_WIDTH=40,C_AXI_WDATA_WIDTH=128,C_AXI_RDATA_WIDTH=128,C_AXI_WID_WIDTH=16,C_AXI_RID_WIDTH=16,C_AXI_AWUSER_WIDTH=16,C_AXI_ARUSER_WIDTH=16,C_AXI_HAS_REGION=0)::aw_channel.AW_CHANNEL) 3985000 : AWVALID >>>
XIL_AXI_WRITE (68) A:0x0000008000000240 ID:0x000001ad len:0x03 XIL_AXI_SIZE_16BYTE XIL_AXI_BURST_TYPE_INCR C:0b0010 L:XIL_AXI_ALOCK_NOLOCK P:0b000<<<
INFO: [Slave VIP_wr_driver] (axi_vip_pkg.axi_slv_wr_driver(C_AXI_ADDR_WIDTH=40,C_AXI_WDATA_WIDTH=128,C_AXI_RDATA_WIDTH=128,C_AXI_WID_WIDTH=16,C_AXI_RID_WIDTH=16,C_AXI_AWUSER_WIDTH=16,C_AXI_ARUSER_WIDTH=16,C_AXI_HAS_REGION=0)::w_channel.W_CHANNEL) 3985000 : W BEAT -- write_beat     Last:0 D:0x00000000000000000000000000000025 BE:0b1111111111111111 
INFO: [Slave VIP_wr_driver] (axi_vip_pkg.axi_slv_wr_driver(C_AXI_ADDR_WIDTH=40,C_AXI_WDATA_WIDTH=128,C_AXI_RDATA_WIDTH=128,C_AXI_WID_WIDTH=16,C_AXI_RID_WIDTH=16,C_AXI_AWUSER_WIDTH=16,C_AXI_ARUSER_WIDTH=16,C_AXI_HAS_REGION=0)::w_channel.W_CHANNEL) 4015000 : W BEAT -- write_beat     Last:0 D:0x00000000000000000000000000000026 BE:0b1111111111111111 
INFO: [Slave VIP_wr_driver] (axi_vip_pkg.axi_slv_wr_driver(C_AXI_ADDR_WIDTH=40,C_AXI_WDATA_WIDTH=128,C_AXI_RDATA_WIDTH=128,C_AXI_WID_WIDTH=16,C_AXI_RID_WIDTH=16,C_AXI_AWUSER_WIDTH=16,C_AXI_ARUSER_WIDTH=16,C_AXI_HAS_REGION=0)::w_channel.W_CHANNEL) 4045000 : W BEAT -- write_beat     Last:0 D:0x00000000000000000000000000000027 BE:0b1111111111111111 
INFO: [Slave VIP_wr_driver] (axi_vip_pkg.axi_slv_wr_driver(C_AXI_ADDR_WIDTH=40,C_AXI_WDATA_WIDTH=128,C_AXI_RDATA_WIDTH=128,C_AXI_WID_WIDTH=16,C_AXI_RID_WIDTH=16,C_AXI_AWUSER_WIDTH=16,C_AXI_ARUSER_WIDTH=16,C_AXI_HAS_REGION=0)::w_channel.W_CHANNEL) 4075000 : W LAST -- write_beat     Last:1 D:0x00000000000000000000000000000028 BE:0b1111111111111111 
INFO: [Slave VIP_wr_driver] (axi_vip_pkg.axi_slv_wr_driver(C_AXI_ADDR_WIDTH=40,C_AXI_WDATA_WIDTH=128,C_AXI_RDATA_WIDTH=128,C_AXI_WID_WIDTH=16,C_AXI_RID_WIDTH=16,C_AXI_AWUSER_WIDTH=16,C_AXI_ARUSER_WIDTH=16,C_AXI_HAS_REGION=0)::push_reactive_q) 4075000 : PUSH_REACTIVE_Q: PUSH (         0) >>> XIL_AXI_WRITE (68) A:0x0000008000000240 ID:0x000001ad len:0x03 XIL_AXI_SIZE_16BYTE XIL_AXI_BURST_TYPE_INCR C:0b0010 L:XIL_AXI_ALOCK_NOLOCK P:0b000 <<<
INFO: [Slave VIP_wr_driver] (axi_vip_pkg.axi_slv_wr_driver(C_AXI_ADDR_WIDTH=40,C_AXI_WDATA_WIDTH=128,C_AXI_RDATA_WIDTH=128,C_AXI_WID_WIDTH=16,C_AXI_RID_WIDTH=16,C_AXI_AWUSER_WIDTH=16,C_AXI_ARUSER_WIDTH=16,C_AXI_HAS_REGION=0)::pop_reactive_q) 4075000 : POP_REACTIVE_Q: (         1) >>> XIL_AXI_WRITE (68) A:0x0000008000000240 ID:0x000001ad len:0x03 XIL_AXI_SIZE_16BYTE XIL_AXI_BURST_TYPE_INCR C:0b0010 L:XIL_AXI_ALOCK_NOLOCK P:0b000 <<<
INFO: [Slave VIP_wr_driver] (axi_vip_pkg.axi_slv_wr_driver(C_AXI_ADDR_WIDTH=40,C_AXI_WDATA_WIDTH=128,C_AXI_RDATA_WIDTH=128,C_AXI_WID_WIDTH=16,C_AXI_RID_WIDTH=16,C_AXI_AWUSER_WIDTH=16,C_AXI_ARUSER_WIDTH=16,C_AXI_HAS_REGION=0)::get_and_drive.GET_AND_DRIVE) 4075000 : GNI : XIL_AXI_WRITE (68) A:0x0000008000000240 ID:0x000001ad len:0x03 XIL_AXI_SIZE_16BYTE XIL_AXI_BURST_TYPE_INCR C:0b0010 L:XIL_AXI_ALOCK_NOLOCK P:0b000
INFO: [Slave VIP_wr_driver] (axi_vip_pkg.axi_slv_wr_driver(C_AXI_ADDR_WIDTH=40,C_AXI_WDATA_WIDTH=128,C_AXI_RDATA_WIDTH=128,C_AXI_WID_WIDTH=16,C_AXI_RID_WIDTH=16,C_AXI_AWUSER_WIDTH=16,C_AXI_ARUSER_WIDTH=16,C_AXI_HAS_REGION=0)::push_b_q) 4075000 : B PUSH (         0)
INFO: [Slave VIP_wr_driver] (axi_vip_pkg.axi_slv_wr_driver(C_AXI_ADDR_WIDTH=40,C_AXI_WDATA_WIDTH=128,C_AXI_RDATA_WIDTH=128,C_AXI_WID_WIDTH=16,C_AXI_RID_WIDTH=16,C_AXI_AWUSER_WIDTH=16,C_AXI_ARUSER_WIDTH=16,C_AXI_HAS_REGION=0)::push_b_q) 4075000 : ID=0x000001ad - State 0b0111
Entries in BQ : NumEntries:         0 >>> 
 <<<
Command       : XIL_AXI_WRITE (68) A:0x0000008000000240 ID:0x000001ad len:0x03 XIL_AXI_SIZE_16BYTE XIL_AXI_BURST_TYPE_INCR C:0b0010 L:XIL_AXI_ALOCK_NOLOCK P:0b000
INFO: [Slave VIP_wr_driver] (axi_vip_pkg.axi_slv_wr_driver(C_AXI_ADDR_WIDTH=40,C_AXI_WDATA_WIDTH=128,C_AXI_RDATA_WIDTH=128,C_AXI_WID_WIDTH=16,C_AXI_RID_WIDTH=16,C_AXI_AWUSER_WIDTH=16,C_AXI_ARUSER_WIDTH=16,C_AXI_HAS_REGION=0)::service_done_q.SERVICE_DONE_Q) 4095000 : SERVICE_DONE_Q: XIL_AXI_WRITE (68) A:0x0000008000000240 ID:0x000001ad len:0x03 XIL_AXI_SIZE_16BYTE XIL_AXI_BURST_TYPE_INCR C:0b0010 L:XIL_AXI_ALOCK_NOLOCK P:0b000
INFO: [Slave VIP_wr_driver] (axi_vip_pkg.axi_slv_wr_driver(C_AXI_ADDR_WIDTH=40,C_AXI_WDATA_WIDTH=128,C_AXI_RDATA_WIDTH=128,C_AXI_WID_WIDTH=16,C_AXI_RID_WIDTH=16,C_AXI_AWUSER_WIDTH=16,C_AXI_ARUSER_WIDTH=16,C_AXI_HAS_REGION=0)::aw_channel.AW_CHANNEL) 4125000 : AWVALID >>>
XIL_AXI_WRITE (72) A:0x0000008000000280 ID:0x000001ad len:0x03 XIL_AXI_SIZE_16BYTE XIL_AXI_BURST_TYPE_INCR C:0b0010 L:XIL_AXI_ALOCK_NOLOCK P:0b000<<<
INFO: [Slave VIP_wr_driver] (axi_vip_pkg.axi_slv_wr_driver(C_AXI_ADDR_WIDTH=40,C_AXI_WDATA_WIDTH=128,C_AXI_RDATA_WIDTH=128,C_AXI_WID_WIDTH=16,C_AXI_RID_WIDTH=16,C_AXI_AWUSER_WIDTH=16,C_AXI_ARUSER_WIDTH=16,C_AXI_HAS_REGION=0)::w_channel.W_CHANNEL) 4125000 : W BEAT -- write_beat     Last:0 D:0x00000000000000000000000000000029 BE:0b1111111111111111 
INFO: [Slave VIP_wr_driver] (axi_vip_pkg.axi_slv_wr_driver(C_AXI_ADDR_WIDTH=40,C_AXI_WDATA_WIDTH=128,C_AXI_RDATA_WIDTH=128,C_AXI_WID_WIDTH=16,C_AXI_RID_WIDTH=16,C_AXI_AWUSER_WIDTH=16,C_AXI_ARUSER_WIDTH=16,C_AXI_HAS_REGION=0)::w_channel.W_CHANNEL) 4155000 : W BEAT -- write_beat     Last:0 D:0x0000000000000000000000000000002a BE:0b1111111111111111 
INFO: [Slave VIP_wr_driver] (axi_vip_pkg.axi_slv_wr_driver(C_AXI_ADDR_WIDTH=40,C_AXI_WDATA_WIDTH=128,C_AXI_RDATA_WIDTH=128,C_AXI_WID_WIDTH=16,C_AXI_RID_WIDTH=16,C_AXI_AWUSER_WIDTH=16,C_AXI_ARUSER_WIDTH=16,C_AXI_HAS_REGION=0)::w_channel.W_CHANNEL) 4185000 : W BEAT -- write_beat     Last:0 D:0x0000000000000000000000000000002b BE:0b1111111111111111 
INFO: [Slave VIP_wr_driver] (axi_vip_pkg.axi_slv_wr_driver(C_AXI_ADDR_WIDTH=40,C_AXI_WDATA_WIDTH=128,C_AXI_RDATA_WIDTH=128,C_AXI_WID_WIDTH=16,C_AXI_RID_WIDTH=16,C_AXI_AWUSER_WIDTH=16,C_AXI_ARUSER_WIDTH=16,C_AXI_HAS_REGION=0)::w_channel.W_CHANNEL) 4215000 : W LAST -- write_beat     Last:1 D:0x0000000000000000000000000000002c BE:0b1111111111111111 
INFO: [Slave VIP_wr_driver] (axi_vip_pkg.axi_slv_wr_driver(C_AXI_ADDR_WIDTH=40,C_AXI_WDATA_WIDTH=128,C_AXI_RDATA_WIDTH=128,C_AXI_WID_WIDTH=16,C_AXI_RID_WIDTH=16,C_AXI_AWUSER_WIDTH=16,C_AXI_ARUSER_WIDTH=16,C_AXI_HAS_REGION=0)::push_reactive_q) 4215000 : PUSH_REACTIVE_Q: PUSH (         0) >>> XIL_AXI_WRITE (72) A:0x0000008000000280 ID:0x000001ad len:0x03 XIL_AXI_SIZE_16BYTE XIL_AXI_BURST_TYPE_INCR C:0b0010 L:XIL_AXI_ALOCK_NOLOCK P:0b000 <<<
INFO: [Slave VIP_wr_driver] (axi_vip_pkg.axi_slv_wr_driver(C_AXI_ADDR_WIDTH=40,C_AXI_WDATA_WIDTH=128,C_AXI_RDATA_WIDTH=128,C_AXI_WID_WIDTH=16,C_AXI_RID_WIDTH=16,C_AXI_AWUSER_WIDTH=16,C_AXI_ARUSER_WIDTH=16,C_AXI_HAS_REGION=0)::pop_reactive_q) 4215000 : POP_REACTIVE_Q: (         1) >>> XIL_AXI_WRITE (72) A:0x0000008000000280 ID:0x000001ad len:0x03 XIL_AXI_SIZE_16BYTE XIL_AXI_BURST_TYPE_INCR C:0b0010 L:XIL_AXI_ALOCK_NOLOCK P:0b000 <<<
INFO: [Slave VIP_wr_driver] (axi_vip_pkg.axi_slv_wr_driver(C_AXI_ADDR_WIDTH=40,C_AXI_WDATA_WIDTH=128,C_AXI_RDATA_WIDTH=128,C_AXI_WID_WIDTH=16,C_AXI_RID_WIDTH=16,C_AXI_AWUSER_WIDTH=16,C_AXI_ARUSER_WIDTH=16,C_AXI_HAS_REGION=0)::get_and_drive.GET_AND_DRIVE) 4215000 : GNI : XIL_AXI_WRITE (72) A:0x0000008000000280 ID:0x000001ad len:0x03 XIL_AXI_SIZE_16BYTE XIL_AXI_BURST_TYPE_INCR C:0b0010 L:XIL_AXI_ALOCK_NOLOCK P:0b000
INFO: [Slave VIP_wr_driver] (axi_vip_pkg.axi_slv_wr_driver(C_AXI_ADDR_WIDTH=40,C_AXI_WDATA_WIDTH=128,C_AXI_RDATA_WIDTH=128,C_AXI_WID_WIDTH=16,C_AXI_RID_WIDTH=16,C_AXI_AWUSER_WIDTH=16,C_AXI_ARUSER_WIDTH=16,C_AXI_HAS_REGION=0)::push_b_q) 4215000 : B PUSH (         0)
INFO: [Slave VIP_wr_driver] (axi_vip_pkg.axi_slv_wr_driver(C_AXI_ADDR_WIDTH=40,C_AXI_WDATA_WIDTH=128,C_AXI_RDATA_WIDTH=128,C_AXI_WID_WIDTH=16,C_AXI_RID_WIDTH=16,C_AXI_AWUSER_WIDTH=16,C_AXI_ARUSER_WIDTH=16,C_AXI_HAS_REGION=0)::push_b_q) 4215000 : ID=0x000001ad - State 0b0111
Entries in BQ : NumEntries:         0 >>> 
 <<<
Command       : XIL_AXI_WRITE (72) A:0x0000008000000280 ID:0x000001ad len:0x03 XIL_AXI_SIZE_16BYTE XIL_AXI_BURST_TYPE_INCR C:0b0010 L:XIL_AXI_ALOCK_NOLOCK P:0b000
INFO: [Slave VIP_wr_driver] (axi_vip_pkg.axi_slv_wr_driver(C_AXI_ADDR_WIDTH=40,C_AXI_WDATA_WIDTH=128,C_AXI_RDATA_WIDTH=128,C_AXI_WID_WIDTH=16,C_AXI_RID_WIDTH=16,C_AXI_AWUSER_WIDTH=16,C_AXI_ARUSER_WIDTH=16,C_AXI_HAS_REGION=0)::service_done_q.SERVICE_DONE_Q) 4235000 : SERVICE_DONE_Q: XIL_AXI_WRITE (72) A:0x0000008000000280 ID:0x000001ad len:0x03 XIL_AXI_SIZE_16BYTE XIL_AXI_BURST_TYPE_INCR C:0b0010 L:XIL_AXI_ALOCK_NOLOCK P:0b000
INFO: [Slave VIP_wr_driver] (axi_vip_pkg.axi_slv_wr_driver(C_AXI_ADDR_WIDTH=40,C_AXI_WDATA_WIDTH=128,C_AXI_RDATA_WIDTH=128,C_AXI_WID_WIDTH=16,C_AXI_RID_WIDTH=16,C_AXI_AWUSER_WIDTH=16,C_AXI_ARUSER_WIDTH=16,C_AXI_HAS_REGION=0)::aw_channel.AW_CHANNEL) 4265000 : AWVALID >>>
XIL_AXI_WRITE (76) A:0x00000080000002c0 ID:0x000001ad len:0x03 XIL_AXI_SIZE_16BYTE XIL_AXI_BURST_TYPE_INCR C:0b0010 L:XIL_AXI_ALOCK_NOLOCK P:0b000<<<
INFO: [Slave VIP_wr_driver] (axi_vip_pkg.axi_slv_wr_driver(C_AXI_ADDR_WIDTH=40,C_AXI_WDATA_WIDTH=128,C_AXI_RDATA_WIDTH=128,C_AXI_WID_WIDTH=16,C_AXI_RID_WIDTH=16,C_AXI_AWUSER_WIDTH=16,C_AXI_ARUSER_WIDTH=16,C_AXI_HAS_REGION=0)::w_channel.W_CHANNEL) 4265000 : W BEAT -- write_beat     Last:0 D:0x0000000000000000000000000000002d BE:0b1111111111111111 
INFO: [Slave VIP_wr_driver] (axi_vip_pkg.axi_slv_wr_driver(C_AXI_ADDR_WIDTH=40,C_AXI_WDATA_WIDTH=128,C_AXI_RDATA_WIDTH=128,C_AXI_WID_WIDTH=16,C_AXI_RID_WIDTH=16,C_AXI_AWUSER_WIDTH=16,C_AXI_ARUSER_WIDTH=16,C_AXI_HAS_REGION=0)::w_channel.W_CHANNEL) 4295000 : W BEAT -- write_beat     Last:0 D:0x0000000000000000000000000000002e BE:0b1111111111111111 
INFO: [Slave VIP_wr_driver] (axi_vip_pkg.axi_slv_wr_driver(C_AXI_ADDR_WIDTH=40,C_AXI_WDATA_WIDTH=128,C_AXI_RDATA_WIDTH=128,C_AXI_WID_WIDTH=16,C_AXI_RID_WIDTH=16,C_AXI_AWUSER_WIDTH=16,C_AXI_ARUSER_WIDTH=16,C_AXI_HAS_REGION=0)::w_channel.W_CHANNEL) 4325000 : W BEAT -- write_beat     Last:0 D:0x0000000000000000000000000000002f BE:0b1111111111111111 
INFO: [Slave VIP_wr_driver] (axi_vip_pkg.axi_slv_wr_driver(C_AXI_ADDR_WIDTH=40,C_AXI_WDATA_WIDTH=128,C_AXI_RDATA_WIDTH=128,C_AXI_WID_WIDTH=16,C_AXI_RID_WIDTH=16,C_AXI_AWUSER_WIDTH=16,C_AXI_ARUSER_WIDTH=16,C_AXI_HAS_REGION=0)::w_channel.W_CHANNEL) 4355000 : W LAST -- write_beat     Last:1 D:0x00000000000000000000000000000030 BE:0b1111111111111111 
INFO: [Slave VIP_wr_driver] (axi_vip_pkg.axi_slv_wr_driver(C_AXI_ADDR_WIDTH=40,C_AXI_WDATA_WIDTH=128,C_AXI_RDATA_WIDTH=128,C_AXI_WID_WIDTH=16,C_AXI_RID_WIDTH=16,C_AXI_AWUSER_WIDTH=16,C_AXI_ARUSER_WIDTH=16,C_AXI_HAS_REGION=0)::push_reactive_q) 4355000 : PUSH_REACTIVE_Q: PUSH (         0) >>> XIL_AXI_WRITE (76) A:0x00000080000002c0 ID:0x000001ad len:0x03 XIL_AXI_SIZE_16BYTE XIL_AXI_BURST_TYPE_INCR C:0b0010 L:XIL_AXI_ALOCK_NOLOCK P:0b000 <<<
INFO: [Slave VIP_wr_driver] (axi_vip_pkg.axi_slv_wr_driver(C_AXI_ADDR_WIDTH=40,C_AXI_WDATA_WIDTH=128,C_AXI_RDATA_WIDTH=128,C_AXI_WID_WIDTH=16,C_AXI_RID_WIDTH=16,C_AXI_AWUSER_WIDTH=16,C_AXI_ARUSER_WIDTH=16,C_AXI_HAS_REGION=0)::pop_reactive_q) 4355000 : POP_REACTIVE_Q: (         1) >>> XIL_AXI_WRITE (76) A:0x00000080000002c0 ID:0x000001ad len:0x03 XIL_AXI_SIZE_16BYTE XIL_AXI_BURST_TYPE_INCR C:0b0010 L:XIL_AXI_ALOCK_NOLOCK P:0b000 <<<
INFO: [Slave VIP_wr_driver] (axi_vip_pkg.axi_slv_wr_driver(C_AXI_ADDR_WIDTH=40,C_AXI_WDATA_WIDTH=128,C_AXI_RDATA_WIDTH=128,C_AXI_WID_WIDTH=16,C_AXI_RID_WIDTH=16,C_AXI_AWUSER_WIDTH=16,C_AXI_ARUSER_WIDTH=16,C_AXI_HAS_REGION=0)::get_and_drive.GET_AND_DRIVE) 4355000 : GNI : XIL_AXI_WRITE (76) A:0x00000080000002c0 ID:0x000001ad len:0x03 XIL_AXI_SIZE_16BYTE XIL_AXI_BURST_TYPE_INCR C:0b0010 L:XIL_AXI_ALOCK_NOLOCK P:0b000
INFO: [Slave VIP_wr_driver] (axi_vip_pkg.axi_slv_wr_driver(C_AXI_ADDR_WIDTH=40,C_AXI_WDATA_WIDTH=128,C_AXI_RDATA_WIDTH=128,C_AXI_WID_WIDTH=16,C_AXI_RID_WIDTH=16,C_AXI_AWUSER_WIDTH=16,C_AXI_ARUSER_WIDTH=16,C_AXI_HAS_REGION=0)::push_b_q) 4355000 : B PUSH (         0)
INFO: [Slave VIP_wr_driver] (axi_vip_pkg.axi_slv_wr_driver(C_AXI_ADDR_WIDTH=40,C_AXI_WDATA_WIDTH=128,C_AXI_RDATA_WIDTH=128,C_AXI_WID_WIDTH=16,C_AXI_RID_WIDTH=16,C_AXI_AWUSER_WIDTH=16,C_AXI_ARUSER_WIDTH=16,C_AXI_HAS_REGION=0)::push_b_q) 4355000 : ID=0x000001ad - State 0b0111
Entries in BQ : NumEntries:         0 >>> 
 <<<
Command       : XIL_AXI_WRITE (76) A:0x00000080000002c0 ID:0x000001ad len:0x03 XIL_AXI_SIZE_16BYTE XIL_AXI_BURST_TYPE_INCR C:0b0010 L:XIL_AXI_ALOCK_NOLOCK P:0b000
INFO: [Slave VIP_wr_driver] (axi_vip_pkg.axi_slv_wr_driver(C_AXI_ADDR_WIDTH=40,C_AXI_WDATA_WIDTH=128,C_AXI_RDATA_WIDTH=128,C_AXI_WID_WIDTH=16,C_AXI_RID_WIDTH=16,C_AXI_AWUSER_WIDTH=16,C_AXI_ARUSER_WIDTH=16,C_AXI_HAS_REGION=0)::service_done_q.SERVICE_DONE_Q) 4375000 : SERVICE_DONE_Q: XIL_AXI_WRITE (76) A:0x00000080000002c0 ID:0x000001ad len:0x03 XIL_AXI_SIZE_16BYTE XIL_AXI_BURST_TYPE_INCR C:0b0010 L:XIL_AXI_ALOCK_NOLOCK P:0b000
INFO: [Slave VIP_wr_driver] (axi_vip_pkg.axi_slv_wr_driver(C_AXI_ADDR_WIDTH=40,C_AXI_WDATA_WIDTH=128,C_AXI_RDATA_WIDTH=128,C_AXI_WID_WIDTH=16,C_AXI_RID_WIDTH=16,C_AXI_AWUSER_WIDTH=16,C_AXI_ARUSER_WIDTH=16,C_AXI_HAS_REGION=0)::aw_channel.AW_CHANNEL) 4405000 : AWVALID >>>
XIL_AXI_WRITE (80) A:0x0000008000000300 ID:0x000001ad len:0x03 XIL_AXI_SIZE_16BYTE XIL_AXI_BURST_TYPE_INCR C:0b0010 L:XIL_AXI_ALOCK_NOLOCK P:0b000<<<
INFO: [Slave VIP_wr_driver] (axi_vip_pkg.axi_slv_wr_driver(C_AXI_ADDR_WIDTH=40,C_AXI_WDATA_WIDTH=128,C_AXI_RDATA_WIDTH=128,C_AXI_WID_WIDTH=16,C_AXI_RID_WIDTH=16,C_AXI_AWUSER_WIDTH=16,C_AXI_ARUSER_WIDTH=16,C_AXI_HAS_REGION=0)::w_channel.W_CHANNEL) 4405000 : W BEAT -- write_beat     Last:0 D:0x00000000000000000000000000000031 BE:0b1111111111111111 
INFO: [Slave VIP_wr_driver] (axi_vip_pkg.axi_slv_wr_driver(C_AXI_ADDR_WIDTH=40,C_AXI_WDATA_WIDTH=128,C_AXI_RDATA_WIDTH=128,C_AXI_WID_WIDTH=16,C_AXI_RID_WIDTH=16,C_AXI_AWUSER_WIDTH=16,C_AXI_ARUSER_WIDTH=16,C_AXI_HAS_REGION=0)::w_channel.W_CHANNEL) 4435000 : W BEAT -- write_beat     Last:0 D:0x00000000000000000000000000000032 BE:0b1111111111111111 
INFO: [Slave VIP_wr_driver] (axi_vip_pkg.axi_slv_wr_driver(C_AXI_ADDR_WIDTH=40,C_AXI_WDATA_WIDTH=128,C_AXI_RDATA_WIDTH=128,C_AXI_WID_WIDTH=16,C_AXI_RID_WIDTH=16,C_AXI_AWUSER_WIDTH=16,C_AXI_ARUSER_WIDTH=16,C_AXI_HAS_REGION=0)::w_channel.W_CHANNEL) 4465000 : W BEAT -- write_beat     Last:0 D:0x00000000000000000000000000000033 BE:0b1111111111111111 
INFO: [Slave VIP_wr_driver] (axi_vip_pkg.axi_slv_wr_driver(C_AXI_ADDR_WIDTH=40,C_AXI_WDATA_WIDTH=128,C_AXI_RDATA_WIDTH=128,C_AXI_WID_WIDTH=16,C_AXI_RID_WIDTH=16,C_AXI_AWUSER_WIDTH=16,C_AXI_ARUSER_WIDTH=16,C_AXI_HAS_REGION=0)::w_channel.W_CHANNEL) 4495000 : W LAST -- write_beat     Last:1 D:0x00000000000000000000000000000034 BE:0b1111111111111111 
INFO: [Slave VIP_wr_driver] (axi_vip_pkg.axi_slv_wr_driver(C_AXI_ADDR_WIDTH=40,C_AXI_WDATA_WIDTH=128,C_AXI_RDATA_WIDTH=128,C_AXI_WID_WIDTH=16,C_AXI_RID_WIDTH=16,C_AXI_AWUSER_WIDTH=16,C_AXI_ARUSER_WIDTH=16,C_AXI_HAS_REGION=0)::push_reactive_q) 4495000 : PUSH_REACTIVE_Q: PUSH (         0) >>> XIL_AXI_WRITE (80) A:0x0000008000000300 ID:0x000001ad len:0x03 XIL_AXI_SIZE_16BYTE XIL_AXI_BURST_TYPE_INCR C:0b0010 L:XIL_AXI_ALOCK_NOLOCK P:0b000 <<<
INFO: [Slave VIP_wr_driver] (axi_vip_pkg.axi_slv_wr_driver(C_AXI_ADDR_WIDTH=40,C_AXI_WDATA_WIDTH=128,C_AXI_RDATA_WIDTH=128,C_AXI_WID_WIDTH=16,C_AXI_RID_WIDTH=16,C_AXI_AWUSER_WIDTH=16,C_AXI_ARUSER_WIDTH=16,C_AXI_HAS_REGION=0)::pop_reactive_q) 4495000 : POP_REACTIVE_Q: (         1) >>> XIL_AXI_WRITE (80) A:0x0000008000000300 ID:0x000001ad len:0x03 XIL_AXI_SIZE_16BYTE XIL_AXI_BURST_TYPE_INCR C:0b0010 L:XIL_AXI_ALOCK_NOLOCK P:0b000 <<<
INFO: [Slave VIP_wr_driver] (axi_vip_pkg.axi_slv_wr_driver(C_AXI_ADDR_WIDTH=40,C_AXI_WDATA_WIDTH=128,C_AXI_RDATA_WIDTH=128,C_AXI_WID_WIDTH=16,C_AXI_RID_WIDTH=16,C_AXI_AWUSER_WIDTH=16,C_AXI_ARUSER_WIDTH=16,C_AXI_HAS_REGION=0)::get_and_drive.GET_AND_DRIVE) 4495000 : GNI : XIL_AXI_WRITE (80) A:0x0000008000000300 ID:0x000001ad len:0x03 XIL_AXI_SIZE_16BYTE XIL_AXI_BURST_TYPE_INCR C:0b0010 L:XIL_AXI_ALOCK_NOLOCK P:0b000
INFO: [Slave VIP_wr_driver] (axi_vip_pkg.axi_slv_wr_driver(C_AXI_ADDR_WIDTH=40,C_AXI_WDATA_WIDTH=128,C_AXI_RDATA_WIDTH=128,C_AXI_WID_WIDTH=16,C_AXI_RID_WIDTH=16,C_AXI_AWUSER_WIDTH=16,C_AXI_ARUSER_WIDTH=16,C_AXI_HAS_REGION=0)::push_b_q) 4495000 : B PUSH (         0)
INFO: [Slave VIP_wr_driver] (axi_vip_pkg.axi_slv_wr_driver(C_AXI_ADDR_WIDTH=40,C_AXI_WDATA_WIDTH=128,C_AXI_RDATA_WIDTH=128,C_AXI_WID_WIDTH=16,C_AXI_RID_WIDTH=16,C_AXI_AWUSER_WIDTH=16,C_AXI_ARUSER_WIDTH=16,C_AXI_HAS_REGION=0)::push_b_q) 4495000 : ID=0x000001ad - State 0b0111
Entries in BQ : NumEntries:         0 >>> 
 <<<
Command       : XIL_AXI_WRITE (80) A:0x0000008000000300 ID:0x000001ad len:0x03 XIL_AXI_SIZE_16BYTE XIL_AXI_BURST_TYPE_INCR C:0b0010 L:XIL_AXI_ALOCK_NOLOCK P:0b000
INFO: [Slave VIP_wr_driver] (axi_vip_pkg.axi_slv_wr_driver(C_AXI_ADDR_WIDTH=40,C_AXI_WDATA_WIDTH=128,C_AXI_RDATA_WIDTH=128,C_AXI_WID_WIDTH=16,C_AXI_RID_WIDTH=16,C_AXI_AWUSER_WIDTH=16,C_AXI_ARUSER_WIDTH=16,C_AXI_HAS_REGION=0)::service_done_q.SERVICE_DONE_Q) 4515000 : SERVICE_DONE_Q: XIL_AXI_WRITE (80) A:0x0000008000000300 ID:0x000001ad len:0x03 XIL_AXI_SIZE_16BYTE XIL_AXI_BURST_TYPE_INCR C:0b0010 L:XIL_AXI_ALOCK_NOLOCK P:0b000
INFO: [Slave VIP_wr_driver] (axi_vip_pkg.axi_slv_wr_driver(C_AXI_ADDR_WIDTH=40,C_AXI_WDATA_WIDTH=128,C_AXI_RDATA_WIDTH=128,C_AXI_WID_WIDTH=16,C_AXI_RID_WIDTH=16,C_AXI_AWUSER_WIDTH=16,C_AXI_ARUSER_WIDTH=16,C_AXI_HAS_REGION=0)::aw_channel.AW_CHANNEL) 4545000 : AWVALID >>>
XIL_AXI_WRITE (84) A:0x0000008000000340 ID:0x000001ad len:0x03 XIL_AXI_SIZE_16BYTE XIL_AXI_BURST_TYPE_INCR C:0b0010 L:XIL_AXI_ALOCK_NOLOCK P:0b000<<<
INFO: [Slave VIP_wr_driver] (axi_vip_pkg.axi_slv_wr_driver(C_AXI_ADDR_WIDTH=40,C_AXI_WDATA_WIDTH=128,C_AXI_RDATA_WIDTH=128,C_AXI_WID_WIDTH=16,C_AXI_RID_WIDTH=16,C_AXI_AWUSER_WIDTH=16,C_AXI_ARUSER_WIDTH=16,C_AXI_HAS_REGION=0)::w_channel.W_CHANNEL) 4545000 : W BEAT -- write_beat     Last:0 D:0x00000000000000000000000000000035 BE:0b1111111111111111 
INFO: [Slave VIP_wr_driver] (axi_vip_pkg.axi_slv_wr_driver(C_AXI_ADDR_WIDTH=40,C_AXI_WDATA_WIDTH=128,C_AXI_RDATA_WIDTH=128,C_AXI_WID_WIDTH=16,C_AXI_RID_WIDTH=16,C_AXI_AWUSER_WIDTH=16,C_AXI_ARUSER_WIDTH=16,C_AXI_HAS_REGION=0)::w_channel.W_CHANNEL) 4575000 : W BEAT -- write_beat     Last:0 D:0x00000000000000000000000000000036 BE:0b1111111111111111 
INFO: [Slave VIP_wr_driver] (axi_vip_pkg.axi_slv_wr_driver(C_AXI_ADDR_WIDTH=40,C_AXI_WDATA_WIDTH=128,C_AXI_RDATA_WIDTH=128,C_AXI_WID_WIDTH=16,C_AXI_RID_WIDTH=16,C_AXI_AWUSER_WIDTH=16,C_AXI_ARUSER_WIDTH=16,C_AXI_HAS_REGION=0)::w_channel.W_CHANNEL) 4605000 : W BEAT -- write_beat     Last:0 D:0x00000000000000000000000000000037 BE:0b1111111111111111 
INFO: [Slave VIP_wr_driver] (axi_vip_pkg.axi_slv_wr_driver(C_AXI_ADDR_WIDTH=40,C_AXI_WDATA_WIDTH=128,C_AXI_RDATA_WIDTH=128,C_AXI_WID_WIDTH=16,C_AXI_RID_WIDTH=16,C_AXI_AWUSER_WIDTH=16,C_AXI_ARUSER_WIDTH=16,C_AXI_HAS_REGION=0)::w_channel.W_CHANNEL) 4635000 : W LAST -- write_beat     Last:1 D:0x00000000000000000000000000000038 BE:0b1111111111111111 
INFO: [Slave VIP_wr_driver] (axi_vip_pkg.axi_slv_wr_driver(C_AXI_ADDR_WIDTH=40,C_AXI_WDATA_WIDTH=128,C_AXI_RDATA_WIDTH=128,C_AXI_WID_WIDTH=16,C_AXI_RID_WIDTH=16,C_AXI_AWUSER_WIDTH=16,C_AXI_ARUSER_WIDTH=16,C_AXI_HAS_REGION=0)::push_reactive_q) 4635000 : PUSH_REACTIVE_Q: PUSH (         0) >>> XIL_AXI_WRITE (84) A:0x0000008000000340 ID:0x000001ad len:0x03 XIL_AXI_SIZE_16BYTE XIL_AXI_BURST_TYPE_INCR C:0b0010 L:XIL_AXI_ALOCK_NOLOCK P:0b000 <<<
INFO: [Slave VIP_wr_driver] (axi_vip_pkg.axi_slv_wr_driver(C_AXI_ADDR_WIDTH=40,C_AXI_WDATA_WIDTH=128,C_AXI_RDATA_WIDTH=128,C_AXI_WID_WIDTH=16,C_AXI_RID_WIDTH=16,C_AXI_AWUSER_WIDTH=16,C_AXI_ARUSER_WIDTH=16,C_AXI_HAS_REGION=0)::pop_reactive_q) 4635000 : POP_REACTIVE_Q: (         1) >>> XIL_AXI_WRITE (84) A:0x0000008000000340 ID:0x000001ad len:0x03 XIL_AXI_SIZE_16BYTE XIL_AXI_BURST_TYPE_INCR C:0b0010 L:XIL_AXI_ALOCK_NOLOCK P:0b000 <<<
INFO: [Slave VIP_wr_driver] (axi_vip_pkg.axi_slv_wr_driver(C_AXI_ADDR_WIDTH=40,C_AXI_WDATA_WIDTH=128,C_AXI_RDATA_WIDTH=128,C_AXI_WID_WIDTH=16,C_AXI_RID_WIDTH=16,C_AXI_AWUSER_WIDTH=16,C_AXI_ARUSER_WIDTH=16,C_AXI_HAS_REGION=0)::get_and_drive.GET_AND_DRIVE) 4635000 : GNI : XIL_AXI_WRITE (84) A:0x0000008000000340 ID:0x000001ad len:0x03 XIL_AXI_SIZE_16BYTE XIL_AXI_BURST_TYPE_INCR C:0b0010 L:XIL_AXI_ALOCK_NOLOCK P:0b000
INFO: [Slave VIP_wr_driver] (axi_vip_pkg.axi_slv_wr_driver(C_AXI_ADDR_WIDTH=40,C_AXI_WDATA_WIDTH=128,C_AXI_RDATA_WIDTH=128,C_AXI_WID_WIDTH=16,C_AXI_RID_WIDTH=16,C_AXI_AWUSER_WIDTH=16,C_AXI_ARUSER_WIDTH=16,C_AXI_HAS_REGION=0)::push_b_q) 4635000 : B PUSH (         0)
INFO: [Slave VIP_wr_driver] (axi_vip_pkg.axi_slv_wr_driver(C_AXI_ADDR_WIDTH=40,C_AXI_WDATA_WIDTH=128,C_AXI_RDATA_WIDTH=128,C_AXI_WID_WIDTH=16,C_AXI_RID_WIDTH=16,C_AXI_AWUSER_WIDTH=16,C_AXI_ARUSER_WIDTH=16,C_AXI_HAS_REGION=0)::push_b_q) 4635000 : ID=0x000001ad - State 0b0111
Entries in BQ : NumEntries:         0 >>> 
 <<<
Command       : XIL_AXI_WRITE (84) A:0x0000008000000340 ID:0x000001ad len:0x03 XIL_AXI_SIZE_16BYTE XIL_AXI_BURST_TYPE_INCR C:0b0010 L:XIL_AXI_ALOCK_NOLOCK P:0b000
INFO: [Slave VIP_wr_driver] (axi_vip_pkg.axi_slv_wr_driver(C_AXI_ADDR_WIDTH=40,C_AXI_WDATA_WIDTH=128,C_AXI_RDATA_WIDTH=128,C_AXI_WID_WIDTH=16,C_AXI_RID_WIDTH=16,C_AXI_AWUSER_WIDTH=16,C_AXI_ARUSER_WIDTH=16,C_AXI_HAS_REGION=0)::service_done_q.SERVICE_DONE_Q) 4655000 : SERVICE_DONE_Q: XIL_AXI_WRITE (84) A:0x0000008000000340 ID:0x000001ad len:0x03 XIL_AXI_SIZE_16BYTE XIL_AXI_BURST_TYPE_INCR C:0b0010 L:XIL_AXI_ALOCK_NOLOCK P:0b000
INFO: [Slave VIP_wr_driver] (axi_vip_pkg.axi_slv_wr_driver(C_AXI_ADDR_WIDTH=40,C_AXI_WDATA_WIDTH=128,C_AXI_RDATA_WIDTH=128,C_AXI_WID_WIDTH=16,C_AXI_RID_WIDTH=16,C_AXI_AWUSER_WIDTH=16,C_AXI_ARUSER_WIDTH=16,C_AXI_HAS_REGION=0)::aw_channel.AW_CHANNEL) 4685000 : AWVALID >>>
XIL_AXI_WRITE (88) A:0x0000008000000380 ID:0x000001ad len:0x03 XIL_AXI_SIZE_16BYTE XIL_AXI_BURST_TYPE_INCR C:0b0010 L:XIL_AXI_ALOCK_NOLOCK P:0b000<<<
INFO: [Slave VIP_wr_driver] (axi_vip_pkg.axi_slv_wr_driver(C_AXI_ADDR_WIDTH=40,C_AXI_WDATA_WIDTH=128,C_AXI_RDATA_WIDTH=128,C_AXI_WID_WIDTH=16,C_AXI_RID_WIDTH=16,C_AXI_AWUSER_WIDTH=16,C_AXI_ARUSER_WIDTH=16,C_AXI_HAS_REGION=0)::w_channel.W_CHANNEL) 4685000 : W BEAT -- write_beat     Last:0 D:0x00000000000000000000000000000039 BE:0b1111111111111111 
INFO: [Slave VIP_wr_driver] (axi_vip_pkg.axi_slv_wr_driver(C_AXI_ADDR_WIDTH=40,C_AXI_WDATA_WIDTH=128,C_AXI_RDATA_WIDTH=128,C_AXI_WID_WIDTH=16,C_AXI_RID_WIDTH=16,C_AXI_AWUSER_WIDTH=16,C_AXI_ARUSER_WIDTH=16,C_AXI_HAS_REGION=0)::w_channel.W_CHANNEL) 4715000 : W BEAT -- write_beat     Last:0 D:0x0000000000000000000000000000003a BE:0b1111111111111111 
INFO: [Slave VIP_wr_driver] (axi_vip_pkg.axi_slv_wr_driver(C_AXI_ADDR_WIDTH=40,C_AXI_WDATA_WIDTH=128,C_AXI_RDATA_WIDTH=128,C_AXI_WID_WIDTH=16,C_AXI_RID_WIDTH=16,C_AXI_AWUSER_WIDTH=16,C_AXI_ARUSER_WIDTH=16,C_AXI_HAS_REGION=0)::w_channel.W_CHANNEL) 4745000 : W BEAT -- write_beat     Last:0 D:0x0000000000000000000000000000003b BE:0b1111111111111111 
INFO: [Slave VIP_wr_driver] (axi_vip_pkg.axi_slv_wr_driver(C_AXI_ADDR_WIDTH=40,C_AXI_WDATA_WIDTH=128,C_AXI_RDATA_WIDTH=128,C_AXI_WID_WIDTH=16,C_AXI_RID_WIDTH=16,C_AXI_AWUSER_WIDTH=16,C_AXI_ARUSER_WIDTH=16,C_AXI_HAS_REGION=0)::w_channel.W_CHANNEL) 4775000 : W LAST -- write_beat     Last:1 D:0x0000000000000000000000000000003c BE:0b1111111111111111 
INFO: [Slave VIP_wr_driver] (axi_vip_pkg.axi_slv_wr_driver(C_AXI_ADDR_WIDTH=40,C_AXI_WDATA_WIDTH=128,C_AXI_RDATA_WIDTH=128,C_AXI_WID_WIDTH=16,C_AXI_RID_WIDTH=16,C_AXI_AWUSER_WIDTH=16,C_AXI_ARUSER_WIDTH=16,C_AXI_HAS_REGION=0)::push_reactive_q) 4775000 : PUSH_REACTIVE_Q: PUSH (         0) >>> XIL_AXI_WRITE (88) A:0x0000008000000380 ID:0x000001ad len:0x03 XIL_AXI_SIZE_16BYTE XIL_AXI_BURST_TYPE_INCR C:0b0010 L:XIL_AXI_ALOCK_NOLOCK P:0b000 <<<
INFO: [Slave VIP_wr_driver] (axi_vip_pkg.axi_slv_wr_driver(C_AXI_ADDR_WIDTH=40,C_AXI_WDATA_WIDTH=128,C_AXI_RDATA_WIDTH=128,C_AXI_WID_WIDTH=16,C_AXI_RID_WIDTH=16,C_AXI_AWUSER_WIDTH=16,C_AXI_ARUSER_WIDTH=16,C_AXI_HAS_REGION=0)::pop_reactive_q) 4775000 : POP_REACTIVE_Q: (         1) >>> XIL_AXI_WRITE (88) A:0x0000008000000380 ID:0x000001ad len:0x03 XIL_AXI_SIZE_16BYTE XIL_AXI_BURST_TYPE_INCR C:0b0010 L:XIL_AXI_ALOCK_NOLOCK P:0b000 <<<
INFO: [Slave VIP_wr_driver] (axi_vip_pkg.axi_slv_wr_driver(C_AXI_ADDR_WIDTH=40,C_AXI_WDATA_WIDTH=128,C_AXI_RDATA_WIDTH=128,C_AXI_WID_WIDTH=16,C_AXI_RID_WIDTH=16,C_AXI_AWUSER_WIDTH=16,C_AXI_ARUSER_WIDTH=16,C_AXI_HAS_REGION=0)::get_and_drive.GET_AND_DRIVE) 4775000 : GNI : XIL_AXI_WRITE (88) A:0x0000008000000380 ID:0x000001ad len:0x03 XIL_AXI_SIZE_16BYTE XIL_AXI_BURST_TYPE_INCR C:0b0010 L:XIL_AXI_ALOCK_NOLOCK P:0b000
INFO: [Slave VIP_wr_driver] (axi_vip_pkg.axi_slv_wr_driver(C_AXI_ADDR_WIDTH=40,C_AXI_WDATA_WIDTH=128,C_AXI_RDATA_WIDTH=128,C_AXI_WID_WIDTH=16,C_AXI_RID_WIDTH=16,C_AXI_AWUSER_WIDTH=16,C_AXI_ARUSER_WIDTH=16,C_AXI_HAS_REGION=0)::push_b_q) 4775000 : B PUSH (         0)
INFO: [Slave VIP_wr_driver] (axi_vip_pkg.axi_slv_wr_driver(C_AXI_ADDR_WIDTH=40,C_AXI_WDATA_WIDTH=128,C_AXI_RDATA_WIDTH=128,C_AXI_WID_WIDTH=16,C_AXI_RID_WIDTH=16,C_AXI_AWUSER_WIDTH=16,C_AXI_ARUSER_WIDTH=16,C_AXI_HAS_REGION=0)::push_b_q) 4775000 : ID=0x000001ad - State 0b0111
Entries in BQ : NumEntries:         0 >>> 
 <<<
Command       : XIL_AXI_WRITE (88) A:0x0000008000000380 ID:0x000001ad len:0x03 XIL_AXI_SIZE_16BYTE XIL_AXI_BURST_TYPE_INCR C:0b0010 L:XIL_AXI_ALOCK_NOLOCK P:0b000
INFO: [Slave VIP_wr_driver] (axi_vip_pkg.axi_slv_wr_driver(C_AXI_ADDR_WIDTH=40,C_AXI_WDATA_WIDTH=128,C_AXI_RDATA_WIDTH=128,C_AXI_WID_WIDTH=16,C_AXI_RID_WIDTH=16,C_AXI_AWUSER_WIDTH=16,C_AXI_ARUSER_WIDTH=16,C_AXI_HAS_REGION=0)::service_done_q.SERVICE_DONE_Q) 4795000 : SERVICE_DONE_Q: XIL_AXI_WRITE (88) A:0x0000008000000380 ID:0x000001ad len:0x03 XIL_AXI_SIZE_16BYTE XIL_AXI_BURST_TYPE_INCR C:0b0010 L:XIL_AXI_ALOCK_NOLOCK P:0b000
INFO: [Slave VIP_wr_driver] (axi_vip_pkg.axi_slv_wr_driver(C_AXI_ADDR_WIDTH=40,C_AXI_WDATA_WIDTH=128,C_AXI_RDATA_WIDTH=128,C_AXI_WID_WIDTH=16,C_AXI_RID_WIDTH=16,C_AXI_AWUSER_WIDTH=16,C_AXI_ARUSER_WIDTH=16,C_AXI_HAS_REGION=0)::aw_channel.AW_CHANNEL) 4825000 : AWVALID >>>
XIL_AXI_WRITE (92) A:0x00000080000003c0 ID:0x000001ad len:0x03 XIL_AXI_SIZE_16BYTE XIL_AXI_BURST_TYPE_INCR C:0b0010 L:XIL_AXI_ALOCK_NOLOCK P:0b000<<<
INFO: [Slave VIP_wr_driver] (axi_vip_pkg.axi_slv_wr_driver(C_AXI_ADDR_WIDTH=40,C_AXI_WDATA_WIDTH=128,C_AXI_RDATA_WIDTH=128,C_AXI_WID_WIDTH=16,C_AXI_RID_WIDTH=16,C_AXI_AWUSER_WIDTH=16,C_AXI_ARUSER_WIDTH=16,C_AXI_HAS_REGION=0)::w_channel.W_CHANNEL) 4825000 : W BEAT -- write_beat     Last:0 D:0x0000000000000000000000000000003d BE:0b1111111111111111 
INFO: [Slave VIP_wr_driver] (axi_vip_pkg.axi_slv_wr_driver(C_AXI_ADDR_WIDTH=40,C_AXI_WDATA_WIDTH=128,C_AXI_RDATA_WIDTH=128,C_AXI_WID_WIDTH=16,C_AXI_RID_WIDTH=16,C_AXI_AWUSER_WIDTH=16,C_AXI_ARUSER_WIDTH=16,C_AXI_HAS_REGION=0)::w_channel.W_CHANNEL) 4855000 : W BEAT -- write_beat     Last:0 D:0x0000000000000000000000000000003e BE:0b1111111111111111 
INFO: [Slave VIP_wr_driver] (axi_vip_pkg.axi_slv_wr_driver(C_AXI_ADDR_WIDTH=40,C_AXI_WDATA_WIDTH=128,C_AXI_RDATA_WIDTH=128,C_AXI_WID_WIDTH=16,C_AXI_RID_WIDTH=16,C_AXI_AWUSER_WIDTH=16,C_AXI_ARUSER_WIDTH=16,C_AXI_HAS_REGION=0)::w_channel.W_CHANNEL) 4885000 : W BEAT -- write_beat     Last:0 D:0x0000000000000000000000000000003f BE:0b1111111111111111 
INFO: [Slave VIP_wr_driver] (axi_vip_pkg.axi_slv_wr_driver(C_AXI_ADDR_WIDTH=40,C_AXI_WDATA_WIDTH=128,C_AXI_RDATA_WIDTH=128,C_AXI_WID_WIDTH=16,C_AXI_RID_WIDTH=16,C_AXI_AWUSER_WIDTH=16,C_AXI_ARUSER_WIDTH=16,C_AXI_HAS_REGION=0)::w_channel.W_CHANNEL) 4915000 : W LAST -- write_beat     Last:1 D:0x00000000000000000000000000000040 BE:0b1111111111111111 
INFO: [Slave VIP_wr_driver] (axi_vip_pkg.axi_slv_wr_driver(C_AXI_ADDR_WIDTH=40,C_AXI_WDATA_WIDTH=128,C_AXI_RDATA_WIDTH=128,C_AXI_WID_WIDTH=16,C_AXI_RID_WIDTH=16,C_AXI_AWUSER_WIDTH=16,C_AXI_ARUSER_WIDTH=16,C_AXI_HAS_REGION=0)::push_reactive_q) 4915000 : PUSH_REACTIVE_Q: PUSH (         0) >>> XIL_AXI_WRITE (92) A:0x00000080000003c0 ID:0x000001ad len:0x03 XIL_AXI_SIZE_16BYTE XIL_AXI_BURST_TYPE_INCR C:0b0010 L:XIL_AXI_ALOCK_NOLOCK P:0b000 <<<
INFO: [Slave VIP_wr_driver] (axi_vip_pkg.axi_slv_wr_driver(C_AXI_ADDR_WIDTH=40,C_AXI_WDATA_WIDTH=128,C_AXI_RDATA_WIDTH=128,C_AXI_WID_WIDTH=16,C_AXI_RID_WIDTH=16,C_AXI_AWUSER_WIDTH=16,C_AXI_ARUSER_WIDTH=16,C_AXI_HAS_REGION=0)::pop_reactive_q) 4915000 : POP_REACTIVE_Q: (         1) >>> XIL_AXI_WRITE (92) A:0x00000080000003c0 ID:0x000001ad len:0x03 XIL_AXI_SIZE_16BYTE XIL_AXI_BURST_TYPE_INCR C:0b0010 L:XIL_AXI_ALOCK_NOLOCK P:0b000 <<<
INFO: [Slave VIP_wr_driver] (axi_vip_pkg.axi_slv_wr_driver(C_AXI_ADDR_WIDTH=40,C_AXI_WDATA_WIDTH=128,C_AXI_RDATA_WIDTH=128,C_AXI_WID_WIDTH=16,C_AXI_RID_WIDTH=16,C_AXI_AWUSER_WIDTH=16,C_AXI_ARUSER_WIDTH=16,C_AXI_HAS_REGION=0)::get_and_drive.GET_AND_DRIVE) 4915000 : GNI : XIL_AXI_WRITE (92) A:0x00000080000003c0 ID:0x000001ad len:0x03 XIL_AXI_SIZE_16BYTE XIL_AXI_BURST_TYPE_INCR C:0b0010 L:XIL_AXI_ALOCK_NOLOCK P:0b000
INFO: [Slave VIP_wr_driver] (axi_vip_pkg.axi_slv_wr_driver(C_AXI_ADDR_WIDTH=40,C_AXI_WDATA_WIDTH=128,C_AXI_RDATA_WIDTH=128,C_AXI_WID_WIDTH=16,C_AXI_RID_WIDTH=16,C_AXI_AWUSER_WIDTH=16,C_AXI_ARUSER_WIDTH=16,C_AXI_HAS_REGION=0)::push_b_q) 4915000 : B PUSH (         0)
INFO: [Slave VIP_wr_driver] (axi_vip_pkg.axi_slv_wr_driver(C_AXI_ADDR_WIDTH=40,C_AXI_WDATA_WIDTH=128,C_AXI_RDATA_WIDTH=128,C_AXI_WID_WIDTH=16,C_AXI_RID_WIDTH=16,C_AXI_AWUSER_WIDTH=16,C_AXI_ARUSER_WIDTH=16,C_AXI_HAS_REGION=0)::push_b_q) 4915000 : ID=0x000001ad - State 0b0111
Entries in BQ : NumEntries:         0 >>> 
 <<<
Command       : XIL_AXI_WRITE (92) A:0x00000080000003c0 ID:0x000001ad len:0x03 XIL_AXI_SIZE_16BYTE XIL_AXI_BURST_TYPE_INCR C:0b0010 L:XIL_AXI_ALOCK_NOLOCK P:0b000
INFO: [Slave VIP_wr_driver] (axi_vip_pkg.axi_slv_wr_driver(C_AXI_ADDR_WIDTH=40,C_AXI_WDATA_WIDTH=128,C_AXI_RDATA_WIDTH=128,C_AXI_WID_WIDTH=16,C_AXI_RID_WIDTH=16,C_AXI_AWUSER_WIDTH=16,C_AXI_ARUSER_WIDTH=16,C_AXI_HAS_REGION=0)::service_done_q.SERVICE_DONE_Q) 4935000 : SERVICE_DONE_Q: XIL_AXI_WRITE (92) A:0x00000080000003c0 ID:0x000001ad len:0x03 XIL_AXI_SIZE_16BYTE XIL_AXI_BURST_TYPE_INCR C:0b0010 L:XIL_AXI_ALOCK_NOLOCK P:0b000
INFO: [Slave VIP_wr_driver] (axi_vip_pkg.axi_slv_wr_driver(C_AXI_ADDR_WIDTH=40,C_AXI_WDATA_WIDTH=128,C_AXI_RDATA_WIDTH=128,C_AXI_WID_WIDTH=16,C_AXI_RID_WIDTH=16,C_AXI_AWUSER_WIDTH=16,C_AXI_ARUSER_WIDTH=16,C_AXI_HAS_REGION=0)::aw_channel.AW_CHANNEL) 4965000 : AWVALID >>>
XIL_AXI_WRITE (96) A:0x0000008000000400 ID:0x000001ad len:0x03 XIL_AXI_SIZE_16BYTE XIL_AXI_BURST_TYPE_INCR C:0b0010 L:XIL_AXI_ALOCK_NOLOCK P:0b000<<<
INFO: [Slave VIP_wr_driver] (axi_vip_pkg.axi_slv_wr_driver(C_AXI_ADDR_WIDTH=40,C_AXI_WDATA_WIDTH=128,C_AXI_RDATA_WIDTH=128,C_AXI_WID_WIDTH=16,C_AXI_RID_WIDTH=16,C_AXI_AWUSER_WIDTH=16,C_AXI_ARUSER_WIDTH=16,C_AXI_HAS_REGION=0)::w_channel.W_CHANNEL) 4965000 : W BEAT -- write_beat     Last:0 D:0x00000000000000000000000000000041 BE:0b1111111111111111 
INFO: [Slave VIP_wr_driver] (axi_vip_pkg.axi_slv_wr_driver(C_AXI_ADDR_WIDTH=40,C_AXI_WDATA_WIDTH=128,C_AXI_RDATA_WIDTH=128,C_AXI_WID_WIDTH=16,C_AXI_RID_WIDTH=16,C_AXI_AWUSER_WIDTH=16,C_AXI_ARUSER_WIDTH=16,C_AXI_HAS_REGION=0)::w_channel.W_CHANNEL) 4995000 : W BEAT -- write_beat     Last:0 D:0x00000000000000000000000000000042 BE:0b1111111111111111 
INFO: [Slave VIP_wr_driver] (axi_vip_pkg.axi_slv_wr_driver(C_AXI_ADDR_WIDTH=40,C_AXI_WDATA_WIDTH=128,C_AXI_RDATA_WIDTH=128,C_AXI_WID_WIDTH=16,C_AXI_RID_WIDTH=16,C_AXI_AWUSER_WIDTH=16,C_AXI_ARUSER_WIDTH=16,C_AXI_HAS_REGION=0)::w_channel.W_CHANNEL) 5025000 : W BEAT -- write_beat     Last:0 D:0x00000000000000000000000000000043 BE:0b1111111111111111 
INFO: [Slave VIP_wr_driver] (axi_vip_pkg.axi_slv_wr_driver(C_AXI_ADDR_WIDTH=40,C_AXI_WDATA_WIDTH=128,C_AXI_RDATA_WIDTH=128,C_AXI_WID_WIDTH=16,C_AXI_RID_WIDTH=16,C_AXI_AWUSER_WIDTH=16,C_AXI_ARUSER_WIDTH=16,C_AXI_HAS_REGION=0)::w_channel.W_CHANNEL) 5055000 : W LAST -- write_beat     Last:1 D:0x00000000000000000000000000000044 BE:0b1111111111111111 
INFO: [Slave VIP_wr_driver] (axi_vip_pkg.axi_slv_wr_driver(C_AXI_ADDR_WIDTH=40,C_AXI_WDATA_WIDTH=128,C_AXI_RDATA_WIDTH=128,C_AXI_WID_WIDTH=16,C_AXI_RID_WIDTH=16,C_AXI_AWUSER_WIDTH=16,C_AXI_ARUSER_WIDTH=16,C_AXI_HAS_REGION=0)::push_reactive_q) 5055000 : PUSH_REACTIVE_Q: PUSH (         0) >>> XIL_AXI_WRITE (96) A:0x0000008000000400 ID:0x000001ad len:0x03 XIL_AXI_SIZE_16BYTE XIL_AXI_BURST_TYPE_INCR C:0b0010 L:XIL_AXI_ALOCK_NOLOCK P:0b000 <<<
INFO: [Slave VIP_wr_driver] (axi_vip_pkg.axi_slv_wr_driver(C_AXI_ADDR_WIDTH=40,C_AXI_WDATA_WIDTH=128,C_AXI_RDATA_WIDTH=128,C_AXI_WID_WIDTH=16,C_AXI_RID_WIDTH=16,C_AXI_AWUSER_WIDTH=16,C_AXI_ARUSER_WIDTH=16,C_AXI_HAS_REGION=0)::pop_reactive_q) 5055000 : POP_REACTIVE_Q: (         1) >>> XIL_AXI_WRITE (96) A:0x0000008000000400 ID:0x000001ad len:0x03 XIL_AXI_SIZE_16BYTE XIL_AXI_BURST_TYPE_INCR C:0b0010 L:XIL_AXI_ALOCK_NOLOCK P:0b000 <<<
INFO: [Slave VIP_wr_driver] (axi_vip_pkg.axi_slv_wr_driver(C_AXI_ADDR_WIDTH=40,C_AXI_WDATA_WIDTH=128,C_AXI_RDATA_WIDTH=128,C_AXI_WID_WIDTH=16,C_AXI_RID_WIDTH=16,C_AXI_AWUSER_WIDTH=16,C_AXI_ARUSER_WIDTH=16,C_AXI_HAS_REGION=0)::get_and_drive.GET_AND_DRIVE) 5055000 : GNI : XIL_AXI_WRITE (96) A:0x0000008000000400 ID:0x000001ad len:0x03 XIL_AXI_SIZE_16BYTE XIL_AXI_BURST_TYPE_INCR C:0b0010 L:XIL_AXI_ALOCK_NOLOCK P:0b000
INFO: [Slave VIP_wr_driver] (axi_vip_pkg.axi_slv_wr_driver(C_AXI_ADDR_WIDTH=40,C_AXI_WDATA_WIDTH=128,C_AXI_RDATA_WIDTH=128,C_AXI_WID_WIDTH=16,C_AXI_RID_WIDTH=16,C_AXI_AWUSER_WIDTH=16,C_AXI_ARUSER_WIDTH=16,C_AXI_HAS_REGION=0)::push_b_q) 5055000 : B PUSH (         0)
INFO: [Slave VIP_wr_driver] (axi_vip_pkg.axi_slv_wr_driver(C_AXI_ADDR_WIDTH=40,C_AXI_WDATA_WIDTH=128,C_AXI_RDATA_WIDTH=128,C_AXI_WID_WIDTH=16,C_AXI_RID_WIDTH=16,C_AXI_AWUSER_WIDTH=16,C_AXI_ARUSER_WIDTH=16,C_AXI_HAS_REGION=0)::push_b_q) 5055000 : ID=0x000001ad - State 0b0111
Entries in BQ : NumEntries:         0 >>> 
 <<<
Command       : XIL_AXI_WRITE (96) A:0x0000008000000400 ID:0x000001ad len:0x03 XIL_AXI_SIZE_16BYTE XIL_AXI_BURST_TYPE_INCR C:0b0010 L:XIL_AXI_ALOCK_NOLOCK P:0b000
INFO: [Slave VIP_wr_driver] (axi_vip_pkg.axi_slv_wr_driver(C_AXI_ADDR_WIDTH=40,C_AXI_WDATA_WIDTH=128,C_AXI_RDATA_WIDTH=128,C_AXI_WID_WIDTH=16,C_AXI_RID_WIDTH=16,C_AXI_AWUSER_WIDTH=16,C_AXI_ARUSER_WIDTH=16,C_AXI_HAS_REGION=0)::service_done_q.SERVICE_DONE_Q) 5075000 : SERVICE_DONE_Q: XIL_AXI_WRITE (96) A:0x0000008000000400 ID:0x000001ad len:0x03 XIL_AXI_SIZE_16BYTE XIL_AXI_BURST_TYPE_INCR C:0b0010 L:XIL_AXI_ALOCK_NOLOCK P:0b000
INFO: [Slave VIP_wr_driver] (axi_vip_pkg.axi_slv_wr_driver(C_AXI_ADDR_WIDTH=40,C_AXI_WDATA_WIDTH=128,C_AXI_RDATA_WIDTH=128,C_AXI_WID_WIDTH=16,C_AXI_RID_WIDTH=16,C_AXI_AWUSER_WIDTH=16,C_AXI_ARUSER_WIDTH=16,C_AXI_HAS_REGION=0)::aw_channel.AW_CHANNEL) 5105000 : AWVALID >>>
XIL_AXI_WRITE (100) A:0x0000008000000440 ID:0x000001ad len:0x03 XIL_AXI_SIZE_16BYTE XIL_AXI_BURST_TYPE_INCR C:0b0010 L:XIL_AXI_ALOCK_NOLOCK P:0b000<<<
INFO: [Slave VIP_wr_driver] (axi_vip_pkg.axi_slv_wr_driver(C_AXI_ADDR_WIDTH=40,C_AXI_WDATA_WIDTH=128,C_AXI_RDATA_WIDTH=128,C_AXI_WID_WIDTH=16,C_AXI_RID_WIDTH=16,C_AXI_AWUSER_WIDTH=16,C_AXI_ARUSER_WIDTH=16,C_AXI_HAS_REGION=0)::w_channel.W_CHANNEL) 5105000 : W BEAT -- write_beat     Last:0 D:0x00000000000000000000000000000045 BE:0b1111111111111111 
INFO: [Slave VIP_wr_driver] (axi_vip_pkg.axi_slv_wr_driver(C_AXI_ADDR_WIDTH=40,C_AXI_WDATA_WIDTH=128,C_AXI_RDATA_WIDTH=128,C_AXI_WID_WIDTH=16,C_AXI_RID_WIDTH=16,C_AXI_AWUSER_WIDTH=16,C_AXI_ARUSER_WIDTH=16,C_AXI_HAS_REGION=0)::w_channel.W_CHANNEL) 5135000 : W BEAT -- write_beat     Last:0 D:0x00000000000000000000000000000046 BE:0b1111111111111111 
INFO: [Slave VIP_wr_driver] (axi_vip_pkg.axi_slv_wr_driver(C_AXI_ADDR_WIDTH=40,C_AXI_WDATA_WIDTH=128,C_AXI_RDATA_WIDTH=128,C_AXI_WID_WIDTH=16,C_AXI_RID_WIDTH=16,C_AXI_AWUSER_WIDTH=16,C_AXI_ARUSER_WIDTH=16,C_AXI_HAS_REGION=0)::w_channel.W_CHANNEL) 5165000 : W BEAT -- write_beat     Last:0 D:0x00000000000000000000000000000047 BE:0b1111111111111111 
INFO: [Slave VIP_wr_driver] (axi_vip_pkg.axi_slv_wr_driver(C_AXI_ADDR_WIDTH=40,C_AXI_WDATA_WIDTH=128,C_AXI_RDATA_WIDTH=128,C_AXI_WID_WIDTH=16,C_AXI_RID_WIDTH=16,C_AXI_AWUSER_WIDTH=16,C_AXI_ARUSER_WIDTH=16,C_AXI_HAS_REGION=0)::w_channel.W_CHANNEL) 5195000 : W LAST -- write_beat     Last:1 D:0x00000000000000000000000000000048 BE:0b1111111111111111 
INFO: [Slave VIP_wr_driver] (axi_vip_pkg.axi_slv_wr_driver(C_AXI_ADDR_WIDTH=40,C_AXI_WDATA_WIDTH=128,C_AXI_RDATA_WIDTH=128,C_AXI_WID_WIDTH=16,C_AXI_RID_WIDTH=16,C_AXI_AWUSER_WIDTH=16,C_AXI_ARUSER_WIDTH=16,C_AXI_HAS_REGION=0)::push_reactive_q) 5195000 : PUSH_REACTIVE_Q: PUSH (         0) >>> XIL_AXI_WRITE (100) A:0x0000008000000440 ID:0x000001ad len:0x03 XIL_AXI_SIZE_16BYTE XIL_AXI_BURST_TYPE_INCR C:0b0010 L:XIL_AXI_ALOCK_NOLOCK P:0b000 <<<
INFO: [Slave VIP_wr_driver] (axi_vip_pkg.axi_slv_wr_driver(C_AXI_ADDR_WIDTH=40,C_AXI_WDATA_WIDTH=128,C_AXI_RDATA_WIDTH=128,C_AXI_WID_WIDTH=16,C_AXI_RID_WIDTH=16,C_AXI_AWUSER_WIDTH=16,C_AXI_ARUSER_WIDTH=16,C_AXI_HAS_REGION=0)::pop_reactive_q) 5195000 : POP_REACTIVE_Q: (         1) >>> XIL_AXI_WRITE (100) A:0x0000008000000440 ID:0x000001ad len:0x03 XIL_AXI_SIZE_16BYTE XIL_AXI_BURST_TYPE_INCR C:0b0010 L:XIL_AXI_ALOCK_NOLOCK P:0b000 <<<
INFO: [Slave VIP_wr_driver] (axi_vip_pkg.axi_slv_wr_driver(C_AXI_ADDR_WIDTH=40,C_AXI_WDATA_WIDTH=128,C_AXI_RDATA_WIDTH=128,C_AXI_WID_WIDTH=16,C_AXI_RID_WIDTH=16,C_AXI_AWUSER_WIDTH=16,C_AXI_ARUSER_WIDTH=16,C_AXI_HAS_REGION=0)::get_and_drive.GET_AND_DRIVE) 5195000 : GNI : XIL_AXI_WRITE (100) A:0x0000008000000440 ID:0x000001ad len:0x03 XIL_AXI_SIZE_16BYTE XIL_AXI_BURST_TYPE_INCR C:0b0010 L:XIL_AXI_ALOCK_NOLOCK P:0b000
INFO: [Slave VIP_wr_driver] (axi_vip_pkg.axi_slv_wr_driver(C_AXI_ADDR_WIDTH=40,C_AXI_WDATA_WIDTH=128,C_AXI_RDATA_WIDTH=128,C_AXI_WID_WIDTH=16,C_AXI_RID_WIDTH=16,C_AXI_AWUSER_WIDTH=16,C_AXI_ARUSER_WIDTH=16,C_AXI_HAS_REGION=0)::push_b_q) 5195000 : B PUSH (         0)
INFO: [Slave VIP_wr_driver] (axi_vip_pkg.axi_slv_wr_driver(C_AXI_ADDR_WIDTH=40,C_AXI_WDATA_WIDTH=128,C_AXI_RDATA_WIDTH=128,C_AXI_WID_WIDTH=16,C_AXI_RID_WIDTH=16,C_AXI_AWUSER_WIDTH=16,C_AXI_ARUSER_WIDTH=16,C_AXI_HAS_REGION=0)::push_b_q) 5195000 : ID=0x000001ad - State 0b0111
Entries in BQ : NumEntries:         0 >>> 
 <<<
Command       : XIL_AXI_WRITE (100) A:0x0000008000000440 ID:0x000001ad len:0x03 XIL_AXI_SIZE_16BYTE XIL_AXI_BURST_TYPE_INCR C:0b0010 L:XIL_AXI_ALOCK_NOLOCK P:0b000
INFO: [Slave VIP_wr_driver] (axi_vip_pkg.axi_slv_wr_driver(C_AXI_ADDR_WIDTH=40,C_AXI_WDATA_WIDTH=128,C_AXI_RDATA_WIDTH=128,C_AXI_WID_WIDTH=16,C_AXI_RID_WIDTH=16,C_AXI_AWUSER_WIDTH=16,C_AXI_ARUSER_WIDTH=16,C_AXI_HAS_REGION=0)::service_done_q.SERVICE_DONE_Q) 5215000 : SERVICE_DONE_Q: XIL_AXI_WRITE (100) A:0x0000008000000440 ID:0x000001ad len:0x03 XIL_AXI_SIZE_16BYTE XIL_AXI_BURST_TYPE_INCR C:0b0010 L:XIL_AXI_ALOCK_NOLOCK P:0b000
INFO: [Slave VIP_wr_driver] (axi_vip_pkg.axi_slv_wr_driver(C_AXI_ADDR_WIDTH=40,C_AXI_WDATA_WIDTH=128,C_AXI_RDATA_WIDTH=128,C_AXI_WID_WIDTH=16,C_AXI_RID_WIDTH=16,C_AXI_AWUSER_WIDTH=16,C_AXI_ARUSER_WIDTH=16,C_AXI_HAS_REGION=0)::aw_channel.AW_CHANNEL) 5245000 : AWVALID >>>
XIL_AXI_WRITE (104) A:0x0000008000000480 ID:0x000001ad len:0x03 XIL_AXI_SIZE_16BYTE XIL_AXI_BURST_TYPE_INCR C:0b0010 L:XIL_AXI_ALOCK_NOLOCK P:0b000<<<
INFO: [Slave VIP_wr_driver] (axi_vip_pkg.axi_slv_wr_driver(C_AXI_ADDR_WIDTH=40,C_AXI_WDATA_WIDTH=128,C_AXI_RDATA_WIDTH=128,C_AXI_WID_WIDTH=16,C_AXI_RID_WIDTH=16,C_AXI_AWUSER_WIDTH=16,C_AXI_ARUSER_WIDTH=16,C_AXI_HAS_REGION=0)::w_channel.W_CHANNEL) 5245000 : W BEAT -- write_beat     Last:0 D:0x00000000000000000000000000000049 BE:0b1111111111111111 
INFO: [Slave VIP_wr_driver] (axi_vip_pkg.axi_slv_wr_driver(C_AXI_ADDR_WIDTH=40,C_AXI_WDATA_WIDTH=128,C_AXI_RDATA_WIDTH=128,C_AXI_WID_WIDTH=16,C_AXI_RID_WIDTH=16,C_AXI_AWUSER_WIDTH=16,C_AXI_ARUSER_WIDTH=16,C_AXI_HAS_REGION=0)::w_channel.W_CHANNEL) 5275000 : W BEAT -- write_beat     Last:0 D:0x0000000000000000000000000000004a BE:0b1111111111111111 
INFO: [Slave VIP_wr_driver] (axi_vip_pkg.axi_slv_wr_driver(C_AXI_ADDR_WIDTH=40,C_AXI_WDATA_WIDTH=128,C_AXI_RDATA_WIDTH=128,C_AXI_WID_WIDTH=16,C_AXI_RID_WIDTH=16,C_AXI_AWUSER_WIDTH=16,C_AXI_ARUSER_WIDTH=16,C_AXI_HAS_REGION=0)::w_channel.W_CHANNEL) 5305000 : W BEAT -- write_beat     Last:0 D:0x0000000000000000000000000000004b BE:0b1111111111111111 
INFO: [Slave VIP_wr_driver] (axi_vip_pkg.axi_slv_wr_driver(C_AXI_ADDR_WIDTH=40,C_AXI_WDATA_WIDTH=128,C_AXI_RDATA_WIDTH=128,C_AXI_WID_WIDTH=16,C_AXI_RID_WIDTH=16,C_AXI_AWUSER_WIDTH=16,C_AXI_ARUSER_WIDTH=16,C_AXI_HAS_REGION=0)::w_channel.W_CHANNEL) 5335000 : W LAST -- write_beat     Last:1 D:0x0000000000000000000000000000004c BE:0b1111111111111111 
INFO: [Slave VIP_wr_driver] (axi_vip_pkg.axi_slv_wr_driver(C_AXI_ADDR_WIDTH=40,C_AXI_WDATA_WIDTH=128,C_AXI_RDATA_WIDTH=128,C_AXI_WID_WIDTH=16,C_AXI_RID_WIDTH=16,C_AXI_AWUSER_WIDTH=16,C_AXI_ARUSER_WIDTH=16,C_AXI_HAS_REGION=0)::push_reactive_q) 5335000 : PUSH_REACTIVE_Q: PUSH (         0) >>> XIL_AXI_WRITE (104) A:0x0000008000000480 ID:0x000001ad len:0x03 XIL_AXI_SIZE_16BYTE XIL_AXI_BURST_TYPE_INCR C:0b0010 L:XIL_AXI_ALOCK_NOLOCK P:0b000 <<<
INFO: [Slave VIP_wr_driver] (axi_vip_pkg.axi_slv_wr_driver(C_AXI_ADDR_WIDTH=40,C_AXI_WDATA_WIDTH=128,C_AXI_RDATA_WIDTH=128,C_AXI_WID_WIDTH=16,C_AXI_RID_WIDTH=16,C_AXI_AWUSER_WIDTH=16,C_AXI_ARUSER_WIDTH=16,C_AXI_HAS_REGION=0)::pop_reactive_q) 5335000 : POP_REACTIVE_Q: (         1) >>> XIL_AXI_WRITE (104) A:0x0000008000000480 ID:0x000001ad len:0x03 XIL_AXI_SIZE_16BYTE XIL_AXI_BURST_TYPE_INCR C:0b0010 L:XIL_AXI_ALOCK_NOLOCK P:0b000 <<<
INFO: [Slave VIP_wr_driver] (axi_vip_pkg.axi_slv_wr_driver(C_AXI_ADDR_WIDTH=40,C_AXI_WDATA_WIDTH=128,C_AXI_RDATA_WIDTH=128,C_AXI_WID_WIDTH=16,C_AXI_RID_WIDTH=16,C_AXI_AWUSER_WIDTH=16,C_AXI_ARUSER_WIDTH=16,C_AXI_HAS_REGION=0)::get_and_drive.GET_AND_DRIVE) 5335000 : GNI : XIL_AXI_WRITE (104) A:0x0000008000000480 ID:0x000001ad len:0x03 XIL_AXI_SIZE_16BYTE XIL_AXI_BURST_TYPE_INCR C:0b0010 L:XIL_AXI_ALOCK_NOLOCK P:0b000
INFO: [Slave VIP_wr_driver] (axi_vip_pkg.axi_slv_wr_driver(C_AXI_ADDR_WIDTH=40,C_AXI_WDATA_WIDTH=128,C_AXI_RDATA_WIDTH=128,C_AXI_WID_WIDTH=16,C_AXI_RID_WIDTH=16,C_AXI_AWUSER_WIDTH=16,C_AXI_ARUSER_WIDTH=16,C_AXI_HAS_REGION=0)::push_b_q) 5335000 : B PUSH (         0)
INFO: [Slave VIP_wr_driver] (axi_vip_pkg.axi_slv_wr_driver(C_AXI_ADDR_WIDTH=40,C_AXI_WDATA_WIDTH=128,C_AXI_RDATA_WIDTH=128,C_AXI_WID_WIDTH=16,C_AXI_RID_WIDTH=16,C_AXI_AWUSER_WIDTH=16,C_AXI_ARUSER_WIDTH=16,C_AXI_HAS_REGION=0)::push_b_q) 5335000 : ID=0x000001ad - State 0b0111
Entries in BQ : NumEntries:         0 >>> 
 <<<
Command       : XIL_AXI_WRITE (104) A:0x0000008000000480 ID:0x000001ad len:0x03 XIL_AXI_SIZE_16BYTE XIL_AXI_BURST_TYPE_INCR C:0b0010 L:XIL_AXI_ALOCK_NOLOCK P:0b000
INFO: [Slave VIP_wr_driver] (axi_vip_pkg.axi_slv_wr_driver(C_AXI_ADDR_WIDTH=40,C_AXI_WDATA_WIDTH=128,C_AXI_RDATA_WIDTH=128,C_AXI_WID_WIDTH=16,C_AXI_RID_WIDTH=16,C_AXI_AWUSER_WIDTH=16,C_AXI_ARUSER_WIDTH=16,C_AXI_HAS_REGION=0)::service_done_q.SERVICE_DONE_Q) 5355000 : SERVICE_DONE_Q: XIL_AXI_WRITE (104) A:0x0000008000000480 ID:0x000001ad len:0x03 XIL_AXI_SIZE_16BYTE XIL_AXI_BURST_TYPE_INCR C:0b0010 L:XIL_AXI_ALOCK_NOLOCK P:0b000
INFO: [Slave VIP_wr_driver] (axi_vip_pkg.axi_slv_wr_driver(C_AXI_ADDR_WIDTH=40,C_AXI_WDATA_WIDTH=128,C_AXI_RDATA_WIDTH=128,C_AXI_WID_WIDTH=16,C_AXI_RID_WIDTH=16,C_AXI_AWUSER_WIDTH=16,C_AXI_ARUSER_WIDTH=16,C_AXI_HAS_REGION=0)::aw_channel.AW_CHANNEL) 5385000 : AWVALID >>>
XIL_AXI_WRITE (108) A:0x00000080000004c0 ID:0x000001ad len:0x03 XIL_AXI_SIZE_16BYTE XIL_AXI_BURST_TYPE_INCR C:0b0010 L:XIL_AXI_ALOCK_NOLOCK P:0b000<<<
INFO: [Slave VIP_wr_driver] (axi_vip_pkg.axi_slv_wr_driver(C_AXI_ADDR_WIDTH=40,C_AXI_WDATA_WIDTH=128,C_AXI_RDATA_WIDTH=128,C_AXI_WID_WIDTH=16,C_AXI_RID_WIDTH=16,C_AXI_AWUSER_WIDTH=16,C_AXI_ARUSER_WIDTH=16,C_AXI_HAS_REGION=0)::w_channel.W_CHANNEL) 5385000 : W BEAT -- write_beat     Last:0 D:0x0000000000000000000000000000004d BE:0b1111111111111111 
INFO: [Slave VIP_wr_driver] (axi_vip_pkg.axi_slv_wr_driver(C_AXI_ADDR_WIDTH=40,C_AXI_WDATA_WIDTH=128,C_AXI_RDATA_WIDTH=128,C_AXI_WID_WIDTH=16,C_AXI_RID_WIDTH=16,C_AXI_AWUSER_WIDTH=16,C_AXI_ARUSER_WIDTH=16,C_AXI_HAS_REGION=0)::w_channel.W_CHANNEL) 5415000 : W BEAT -- write_beat     Last:0 D:0x0000000000000000000000000000004e BE:0b1111111111111111 
INFO: [Slave VIP_wr_driver] (axi_vip_pkg.axi_slv_wr_driver(C_AXI_ADDR_WIDTH=40,C_AXI_WDATA_WIDTH=128,C_AXI_RDATA_WIDTH=128,C_AXI_WID_WIDTH=16,C_AXI_RID_WIDTH=16,C_AXI_AWUSER_WIDTH=16,C_AXI_ARUSER_WIDTH=16,C_AXI_HAS_REGION=0)::w_channel.W_CHANNEL) 5445000 : W BEAT -- write_beat     Last:0 D:0x0000000000000000000000000000004f BE:0b1111111111111111 
INFO: [Slave VIP_wr_driver] (axi_vip_pkg.axi_slv_wr_driver(C_AXI_ADDR_WIDTH=40,C_AXI_WDATA_WIDTH=128,C_AXI_RDATA_WIDTH=128,C_AXI_WID_WIDTH=16,C_AXI_RID_WIDTH=16,C_AXI_AWUSER_WIDTH=16,C_AXI_ARUSER_WIDTH=16,C_AXI_HAS_REGION=0)::w_channel.W_CHANNEL) 5475000 : W LAST -- write_beat     Last:1 D:0x00000000000000000000000000000050 BE:0b1111111111111111 
INFO: [Slave VIP_wr_driver] (axi_vip_pkg.axi_slv_wr_driver(C_AXI_ADDR_WIDTH=40,C_AXI_WDATA_WIDTH=128,C_AXI_RDATA_WIDTH=128,C_AXI_WID_WIDTH=16,C_AXI_RID_WIDTH=16,C_AXI_AWUSER_WIDTH=16,C_AXI_ARUSER_WIDTH=16,C_AXI_HAS_REGION=0)::push_reactive_q) 5475000 : PUSH_REACTIVE_Q: PUSH (         0) >>> XIL_AXI_WRITE (108) A:0x00000080000004c0 ID:0x000001ad len:0x03 XIL_AXI_SIZE_16BYTE XIL_AXI_BURST_TYPE_INCR C:0b0010 L:XIL_AXI_ALOCK_NOLOCK P:0b000 <<<
INFO: [Slave VIP_wr_driver] (axi_vip_pkg.axi_slv_wr_driver(C_AXI_ADDR_WIDTH=40,C_AXI_WDATA_WIDTH=128,C_AXI_RDATA_WIDTH=128,C_AXI_WID_WIDTH=16,C_AXI_RID_WIDTH=16,C_AXI_AWUSER_WIDTH=16,C_AXI_ARUSER_WIDTH=16,C_AXI_HAS_REGION=0)::pop_reactive_q) 5475000 : POP_REACTIVE_Q: (         1) >>> XIL_AXI_WRITE (108) A:0x00000080000004c0 ID:0x000001ad len:0x03 XIL_AXI_SIZE_16BYTE XIL_AXI_BURST_TYPE_INCR C:0b0010 L:XIL_AXI_ALOCK_NOLOCK P:0b000 <<<
INFO: [Slave VIP_wr_driver] (axi_vip_pkg.axi_slv_wr_driver(C_AXI_ADDR_WIDTH=40,C_AXI_WDATA_WIDTH=128,C_AXI_RDATA_WIDTH=128,C_AXI_WID_WIDTH=16,C_AXI_RID_WIDTH=16,C_AXI_AWUSER_WIDTH=16,C_AXI_ARUSER_WIDTH=16,C_AXI_HAS_REGION=0)::get_and_drive.GET_AND_DRIVE) 5475000 : GNI : XIL_AXI_WRITE (108) A:0x00000080000004c0 ID:0x000001ad len:0x03 XIL_AXI_SIZE_16BYTE XIL_AXI_BURST_TYPE_INCR C:0b0010 L:XIL_AXI_ALOCK_NOLOCK P:0b000
INFO: [Slave VIP_wr_driver] (axi_vip_pkg.axi_slv_wr_driver(C_AXI_ADDR_WIDTH=40,C_AXI_WDATA_WIDTH=128,C_AXI_RDATA_WIDTH=128,C_AXI_WID_WIDTH=16,C_AXI_RID_WIDTH=16,C_AXI_AWUSER_WIDTH=16,C_AXI_ARUSER_WIDTH=16,C_AXI_HAS_REGION=0)::push_b_q) 5475000 : B PUSH (         0)
INFO: [Slave VIP_wr_driver] (axi_vip_pkg.axi_slv_wr_driver(C_AXI_ADDR_WIDTH=40,C_AXI_WDATA_WIDTH=128,C_AXI_RDATA_WIDTH=128,C_AXI_WID_WIDTH=16,C_AXI_RID_WIDTH=16,C_AXI_AWUSER_WIDTH=16,C_AXI_ARUSER_WIDTH=16,C_AXI_HAS_REGION=0)::push_b_q) 5475000 : ID=0x000001ad - State 0b0111
Entries in BQ : NumEntries:         0 >>> 
 <<<
Command       : XIL_AXI_WRITE (108) A:0x00000080000004c0 ID:0x000001ad len:0x03 XIL_AXI_SIZE_16BYTE XIL_AXI_BURST_TYPE_INCR C:0b0010 L:XIL_AXI_ALOCK_NOLOCK P:0b000
INFO: [Slave VIP_wr_driver] (axi_vip_pkg.axi_slv_wr_driver(C_AXI_ADDR_WIDTH=40,C_AXI_WDATA_WIDTH=128,C_AXI_RDATA_WIDTH=128,C_AXI_WID_WIDTH=16,C_AXI_RID_WIDTH=16,C_AXI_AWUSER_WIDTH=16,C_AXI_ARUSER_WIDTH=16,C_AXI_HAS_REGION=0)::service_done_q.SERVICE_DONE_Q) 5495000 : SERVICE_DONE_Q: XIL_AXI_WRITE (108) A:0x00000080000004c0 ID:0x000001ad len:0x03 XIL_AXI_SIZE_16BYTE XIL_AXI_BURST_TYPE_INCR C:0b0010 L:XIL_AXI_ALOCK_NOLOCK P:0b000
INFO: [Slave VIP_wr_driver] (axi_vip_pkg.axi_slv_wr_driver(C_AXI_ADDR_WIDTH=40,C_AXI_WDATA_WIDTH=128,C_AXI_RDATA_WIDTH=128,C_AXI_WID_WIDTH=16,C_AXI_RID_WIDTH=16,C_AXI_AWUSER_WIDTH=16,C_AXI_ARUSER_WIDTH=16,C_AXI_HAS_REGION=0)::aw_channel.AW_CHANNEL) 5525000 : AWVALID >>>
XIL_AXI_WRITE (112) A:0x0000008000000500 ID:0x000001ad len:0x03 XIL_AXI_SIZE_16BYTE XIL_AXI_BURST_TYPE_INCR C:0b0010 L:XIL_AXI_ALOCK_NOLOCK P:0b000<<<
INFO: [Slave VIP_wr_driver] (axi_vip_pkg.axi_slv_wr_driver(C_AXI_ADDR_WIDTH=40,C_AXI_WDATA_WIDTH=128,C_AXI_RDATA_WIDTH=128,C_AXI_WID_WIDTH=16,C_AXI_RID_WIDTH=16,C_AXI_AWUSER_WIDTH=16,C_AXI_ARUSER_WIDTH=16,C_AXI_HAS_REGION=0)::w_channel.W_CHANNEL) 5525000 : W BEAT -- write_beat     Last:0 D:0x00000000000000000000000000000051 BE:0b1111111111111111 
INFO: [Slave VIP_wr_driver] (axi_vip_pkg.axi_slv_wr_driver(C_AXI_ADDR_WIDTH=40,C_AXI_WDATA_WIDTH=128,C_AXI_RDATA_WIDTH=128,C_AXI_WID_WIDTH=16,C_AXI_RID_WIDTH=16,C_AXI_AWUSER_WIDTH=16,C_AXI_ARUSER_WIDTH=16,C_AXI_HAS_REGION=0)::w_channel.W_CHANNEL) 5555000 : W BEAT -- write_beat     Last:0 D:0x00000000000000000000000000000052 BE:0b1111111111111111 
INFO: [Slave VIP_wr_driver] (axi_vip_pkg.axi_slv_wr_driver(C_AXI_ADDR_WIDTH=40,C_AXI_WDATA_WIDTH=128,C_AXI_RDATA_WIDTH=128,C_AXI_WID_WIDTH=16,C_AXI_RID_WIDTH=16,C_AXI_AWUSER_WIDTH=16,C_AXI_ARUSER_WIDTH=16,C_AXI_HAS_REGION=0)::w_channel.W_CHANNEL) 5585000 : W BEAT -- write_beat     Last:0 D:0x00000000000000000000000000000053 BE:0b1111111111111111 
INFO: [Slave VIP_wr_driver] (axi_vip_pkg.axi_slv_wr_driver(C_AXI_ADDR_WIDTH=40,C_AXI_WDATA_WIDTH=128,C_AXI_RDATA_WIDTH=128,C_AXI_WID_WIDTH=16,C_AXI_RID_WIDTH=16,C_AXI_AWUSER_WIDTH=16,C_AXI_ARUSER_WIDTH=16,C_AXI_HAS_REGION=0)::w_channel.W_CHANNEL) 5615000 : W LAST -- write_beat     Last:1 D:0x00000000000000000000000000000054 BE:0b1111111111111111 
