Vivado Simulator 2017.4
Time resolution is 1 ps
INFO: ID width is 16 bigger than 16, AXI protocol Checker will not be instantiated in this case 
XilinxAXIVIP: Found at Path: TB_MemorEDF.DUT.design_1_i.axi_vip_0.inst
INFO: ID width is 16 bigger than 16, AXI protocol Checker will not be instantiated in this case 
XilinxAXIVIP: Found at Path: TB_MemorEDF.DUT.design_1_i.axi_vip_1.inst
INFO: [Master VIP_rd_driver] (.axi_vip_pkg.axi_mst_rd_driver(C_AXI_WDATA_WIDTH=128,C_AXI_RDATA_WIDTH=128,C_AXI_WID_WIDTH=16,C_AXI_RID_WIDTH=16,C_AXI_AWUSER_WIDTH=16,C_AXI_ARUSER_WIDTH=16)::run_phase.Block10873_286.) 25001 : run()
INFO: [Master VIP_wr_driver] (.axi_vip_pkg.axi_mst_wr_driver(C_AXI_WDATA_WIDTH=128,C_AXI_RDATA_WIDTH=128,C_AXI_WID_WIDTH=16,C_AXI_RID_WIDTH=16,C_AXI_AWUSER_WIDTH=16,C_AXI_ARUSER_WIDTH=16)::run_phase.Block9793_240.) 25001 : run()
INFO: [Master VIP_monitor] (.axi_vip_pkg.axi_monitor(C_AXI_WDATA_WIDTH=128,C_AXI_RDATA_WIDTH=128,C_AXI_WID_WIDTH=16,C_AXI_RID_WIDTH=16,C_AXI_AWUSER_WIDTH=16,C_AXI_ARUSER_WIDTH=16)::run_phase.Block8620_207.) 25001 : run()
INFO: [Slave VIP_rd_driver] (.axi_vip_pkg.axi_slv_rd_driver(C_AXI_ADDR_WIDTH=40,C_AXI_WDATA_WIDTH=128,C_AXI_RDATA_WIDTH=128,C_AXI_WID_WIDTH=16,C_AXI_RID_WIDTH=16,C_AXI_AWUSER_WIDTH=16,C_AXI_ARUSER_WIDTH=16,C_AXI_HAS_REGION=0)::run_phase.Block14104_384.) 25001 : run()
INFO: [Slave VIP_wr_driver] (.axi_vip_pkg.axi_slv_wr_driver(C_AXI_ADDR_WIDTH=40,C_AXI_WDATA_WIDTH=128,C_AXI_RDATA_WIDTH=128,C_AXI_WID_WIDTH=16,C_AXI_RID_WIDTH=16,C_AXI_AWUSER_WIDTH=16,C_AXI_ARUSER_WIDTH=16,C_AXI_HAS_REGION=0)::run_phase.Block12612_333.) 25001 : run()
INFO: [Slave VIP_monitor] (.axi_vip_pkg.axi_monitor(C_AXI_ADDR_WIDTH=40,C_AXI_WDATA_WIDTH=128,C_AXI_RDATA_WIDTH=128,C_AXI_WID_WIDTH=16,C_AXI_RID_WIDTH=16,C_AXI_AWUSER_WIDTH=16,C_AXI_ARUSER_WIDTH=16,C_AXI_HAS_REGION=0)::run_phase.Block8620_224.) 25001 : run()
INFO: [Master VIP_wr_driver] (axi_vip_pkg.axi_mst_wr_driver(C_AXI_WDATA_WIDTH=128,C_AXI_RDATA_WIDTH=128,C_AXI_WID_WIDTH=16,C_AXI_RID_WIDTH=16,C_AXI_AWUSER_WIDTH=16,C_AXI_ARUSER_WIDTH=16)::get_and_drive.GET_AND_DRIVE) 40000 : Sending transaction: 
INFO: [Master VIP_wr_driver] (axi_vip_pkg.axi_mst_wr_driver(C_AXI_WDATA_WIDTH=128,C_AXI_RDATA_WIDTH=128,C_AXI_WID_WIDTH=16,C_AXI_RID_WIDTH=16,C_AXI_AWUSER_WIDTH=16,C_AXI_ARUSER_WIDTH=16)::get_and_drive.GET_AND_DRIVE) 40000 : ---------------------------------------------------------------------------------------------
  Name                         Value
---------------------------------------------------------------------------------------------
  CMD                          XIL_AXI_WRITE
  ADDR                         0x0000000000000000 
  WID                          0x00000000
  LEN                          0x00
  SIZE                         0x100
  BURST                        0x01
  CACHE                        0x0000
  LOCK                         0x00
  PROT                         0x000
  REGION                       0x0000
  QOS                          0x0000
  AWUSER                       0x0000
  BRESP                        XIL_AXI_RESP_OKAY
  DRIVER_RETURN_ITEM           XIL_AXI_PAYLOAD_RETURN 
  CREATION_TIME                40000
  SUBMIT_TIME                  0
  PAYLOAD                      16
    BEAT[          0]          0x00000000000000000000000000000020 (strb : 0b1111111111111111) :beat_delay:         0
--------------------------------------------------------------------------------------------
INFO: [Master VIP_wr_driver] (axi_vip_pkg.axi_mst_wr_driver(C_AXI_WDATA_WIDTH=128,C_AXI_RDATA_WIDTH=128,C_AXI_WID_WIDTH=16,C_AXI_RID_WIDTH=16,C_AXI_AWUSER_WIDTH=16,C_AXI_ARUSER_WIDTH=16)::w_channel.W_CHANNEL.Block10274_272.Block10274_273) 115000 : WREADY+WLAST (         0) id=0x00000000
INFO: [Master VIP_wr_driver] (axi_vip_pkg.axi_mst_wr_driver(C_AXI_WDATA_WIDTH=128,C_AXI_RDATA_WIDTH=128,C_AXI_WID_WIDTH=16,C_AXI_RID_WIDTH=16,C_AXI_AWUSER_WIDTH=16,C_AXI_ARUSER_WIDTH=16)::service_done_q.SERVICE_DONE_Q) 125000 : SERVICE_DONE_Q: XIL_AXI_WRITE (0) A:0x0000000000000000 ID:0x00000000 len:0x00 XIL_AXI_SIZE_16BYTE XIL_AXI_BURST_TYPE_INCR C:0b0000 L:XIL_AXI_ALOCK_NOLOCK P:0b000
INFO: [Master VIP_wr_driver] (axi_vip_pkg.axi_mst_wr_driver(C_AXI_WDATA_WIDTH=128,C_AXI_RDATA_WIDTH=128,C_AXI_WID_WIDTH=16,C_AXI_RID_WIDTH=16,C_AXI_AWUSER_WIDTH=16,C_AXI_ARUSER_WIDTH=16)::get_and_drive.GET_AND_DRIVE) 145000 : Sending transaction: 
INFO: [Master VIP_wr_driver] (axi_vip_pkg.axi_mst_wr_driver(C_AXI_WDATA_WIDTH=128,C_AXI_RDATA_WIDTH=128,C_AXI_WID_WIDTH=16,C_AXI_RID_WIDTH=16,C_AXI_AWUSER_WIDTH=16,C_AXI_ARUSER_WIDTH=16)::get_and_drive.GET_AND_DRIVE) 145000 : ---------------------------------------------------------------------------------------------
  Name                         Value
---------------------------------------------------------------------------------------------
  CMD                          XIL_AXI_WRITE
  ADDR                         0x0000000000000010 
  WID                          0x00000000
  LEN                          0x00
  SIZE                         0x100
  BURST                        0x01
  CACHE                        0x0000
  LOCK                         0x00
  PROT                         0x000
  REGION                       0x0000
  QOS                          0x0000
  AWUSER                       0x0000
  BRESP                        XIL_AXI_RESP_OKAY
  DRIVER_RETURN_ITEM           XIL_AXI_PAYLOAD_RETURN 
  CREATION_TIME                145000
  SUBMIT_TIME                  0
  PAYLOAD                      16
    BEAT[          0]          0x00000000000000000000000000000030 (strb : 0b1111111111111111) :beat_delay:         0
--------------------------------------------------------------------------------------------
INFO: [Master VIP_wr_driver] (axi_vip_pkg.axi_mst_wr_driver(C_AXI_WDATA_WIDTH=128,C_AXI_RDATA_WIDTH=128,C_AXI_WID_WIDTH=16,C_AXI_RID_WIDTH=16,C_AXI_AWUSER_WIDTH=16,C_AXI_ARUSER_WIDTH=16)::w_channel.W_CHANNEL.Block10274_272.Block10274_273) 225000 : WREADY+WLAST (         0) id=0x00000000
INFO: [Master VIP_wr_driver] (axi_vip_pkg.axi_mst_wr_driver(C_AXI_WDATA_WIDTH=128,C_AXI_RDATA_WIDTH=128,C_AXI_WID_WIDTH=16,C_AXI_RID_WIDTH=16,C_AXI_AWUSER_WIDTH=16,C_AXI_ARUSER_WIDTH=16)::service_done_q.SERVICE_DONE_Q) 235000 : SERVICE_DONE_Q: XIL_AXI_WRITE (4) A:0x0000000000000010 ID:0x00000000 len:0x00 XIL_AXI_SIZE_16BYTE XIL_AXI_BURST_TYPE_INCR C:0b0000 L:XIL_AXI_ALOCK_NOLOCK P:0b000
INFO: [Master VIP_wr_driver] (axi_vip_pkg.axi_mst_wr_driver(C_AXI_WDATA_WIDTH=128,C_AXI_RDATA_WIDTH=128,C_AXI_WID_WIDTH=16,C_AXI_RID_WIDTH=16,C_AXI_AWUSER_WIDTH=16,C_AXI_ARUSER_WIDTH=16)::get_and_drive.GET_AND_DRIVE) 255000 : Sending transaction: 
INFO: [Master VIP_wr_driver] (axi_vip_pkg.axi_mst_wr_driver(C_AXI_WDATA_WIDTH=128,C_AXI_RDATA_WIDTH=128,C_AXI_WID_WIDTH=16,C_AXI_RID_WIDTH=16,C_AXI_AWUSER_WIDTH=16,C_AXI_ARUSER_WIDTH=16)::get_and_drive.GET_AND_DRIVE) 255000 : ---------------------------------------------------------------------------------------------
  Name                         Value
---------------------------------------------------------------------------------------------
  CMD                          XIL_AXI_WRITE
  ADDR                         0x0000000000000020 
  WID                          0x00000000
  LEN                          0x00
  SIZE                         0x100
  BURST                        0x01
  CACHE                        0x0000
  LOCK                         0x00
  PROT                         0x000
  REGION                       0x0000
  QOS                          0x0000
  AWUSER                       0x0000
  BRESP                        XIL_AXI_RESP_OKAY
  DRIVER_RETURN_ITEM           XIL_AXI_PAYLOAD_RETURN 
  CREATION_TIME                255000
  SUBMIT_TIME                  0
  PAYLOAD                      16
    BEAT[          0]          0x00000000000000000000000000000000 (strb : 0b1111111111111111) :beat_delay:         0
--------------------------------------------------------------------------------------------
INFO: [Master VIP_wr_driver] (axi_vip_pkg.axi_mst_wr_driver(C_AXI_WDATA_WIDTH=128,C_AXI_RDATA_WIDTH=128,C_AXI_WID_WIDTH=16,C_AXI_RID_WIDTH=16,C_AXI_AWUSER_WIDTH=16,C_AXI_ARUSER_WIDTH=16)::w_channel.W_CHANNEL.Block10274_272.Block10274_273) 335000 : WREADY+WLAST (         0) id=0x00000000
INFO: [Master VIP_wr_driver] (axi_vip_pkg.axi_mst_wr_driver(C_AXI_WDATA_WIDTH=128,C_AXI_RDATA_WIDTH=128,C_AXI_WID_WIDTH=16,C_AXI_RID_WIDTH=16,C_AXI_AWUSER_WIDTH=16,C_AXI_ARUSER_WIDTH=16)::service_done_q.SERVICE_DONE_Q) 345000 : SERVICE_DONE_Q: XIL_AXI_WRITE (8) A:0x0000000000000020 ID:0x00000000 len:0x00 XIL_AXI_SIZE_16BYTE XIL_AXI_BURST_TYPE_INCR C:0b0000 L:XIL_AXI_ALOCK_NOLOCK P:0b000
INFO: [Master VIP_wr_driver] (axi_vip_pkg.axi_mst_wr_driver(C_AXI_WDATA_WIDTH=128,C_AXI_RDATA_WIDTH=128,C_AXI_WID_WIDTH=16,C_AXI_RID_WIDTH=16,C_AXI_AWUSER_WIDTH=16,C_AXI_ARUSER_WIDTH=16)::get_and_drive.GET_AND_DRIVE) 365000 : Sending transaction: 
INFO: [Master VIP_wr_driver] (axi_vip_pkg.axi_mst_wr_driver(C_AXI_WDATA_WIDTH=128,C_AXI_RDATA_WIDTH=128,C_AXI_WID_WIDTH=16,C_AXI_RID_WIDTH=16,C_AXI_AWUSER_WIDTH=16,C_AXI_ARUSER_WIDTH=16)::get_and_drive.GET_AND_DRIVE) 365000 : ---------------------------------------------------------------------------------------------
  Name                         Value
---------------------------------------------------------------------------------------------
  CMD                          XIL_AXI_WRITE
  ADDR                         0x0000000000000030 
  WID                          0x00000000
  LEN                          0x00
  SIZE                         0x100
  BURST                        0x01
  CACHE                        0x0000
  LOCK                         0x00
  PROT                         0x000
  REGION                       0x0000
  QOS                          0x0000
  AWUSER                       0x0000
  BRESP                        XIL_AXI_RESP_OKAY
  DRIVER_RETURN_ITEM           XIL_AXI_PAYLOAD_RETURN 
  CREATION_TIME                365000
  SUBMIT_TIME                  0
  PAYLOAD                      16
    BEAT[          0]          0x00000000000000000000000000000000 (strb : 0b1111111111111111) :beat_delay:         0
--------------------------------------------------------------------------------------------
INFO: [Master VIP_wr_driver] (axi_vip_pkg.axi_mst_wr_driver(C_AXI_WDATA_WIDTH=128,C_AXI_RDATA_WIDTH=128,C_AXI_WID_WIDTH=16,C_AXI_RID_WIDTH=16,C_AXI_AWUSER_WIDTH=16,C_AXI_ARUSER_WIDTH=16)::w_channel.W_CHANNEL.Block10274_272.Block10274_273) 445000 : WREADY+WLAST (         0) id=0x00000000
INFO: [Master VIP_wr_driver] (axi_vip_pkg.axi_mst_wr_driver(C_AXI_WDATA_WIDTH=128,C_AXI_RDATA_WIDTH=128,C_AXI_WID_WIDTH=16,C_AXI_RID_WIDTH=16,C_AXI_AWUSER_WIDTH=16,C_AXI_ARUSER_WIDTH=16)::service_done_q.SERVICE_DONE_Q) 455000 : SERVICE_DONE_Q: XIL_AXI_WRITE (12) A:0x0000000000000030 ID:0x00000000 len:0x00 XIL_AXI_SIZE_16BYTE XIL_AXI_BURST_TYPE_INCR C:0b0000 L:XIL_AXI_ALOCK_NOLOCK P:0b000
INFO: [Master VIP_rd_driver] (axi_vip_pkg.axi_mst_rd_driver(C_AXI_WDATA_WIDTH=128,C_AXI_RDATA_WIDTH=128,C_AXI_WID_WIDTH=16,C_AXI_RID_WIDTH=16,C_AXI_AWUSER_WIDTH=16,C_AXI_ARUSER_WIDTH=16)::ar_channel.AR_CHANNEL) 535001 : ARVALID id=0x00000000
INFO: [Master VIP_rd_driver] (axi_vip_pkg.axi_mst_rd_driver(C_AXI_WDATA_WIDTH=128,C_AXI_RDATA_WIDTH=128,C_AXI_WID_WIDTH=16,C_AXI_RID_WIDTH=16,C_AXI_AWUSER_WIDTH=16,C_AXI_ARUSER_WIDTH=16)::ar_channel.AR_CHANNEL) 595001 : ARVALID id=0x00000000
INFO: [Master VIP_rd_driver] (axi_vip_pkg.axi_mst_rd_driver(C_AXI_WDATA_WIDTH=128,C_AXI_RDATA_WIDTH=128,C_AXI_WID_WIDTH=16,C_AXI_RID_WIDTH=16,C_AXI_AWUSER_WIDTH=16,C_AXI_ARUSER_WIDTH=16)::ar_channel.AR_CHANNEL) 655001 : ARVALID id=0x00000000
INFO: [Master VIP_rd_driver] (axi_vip_pkg.axi_mst_rd_driver(C_AXI_WDATA_WIDTH=128,C_AXI_RDATA_WIDTH=128,C_AXI_WID_WIDTH=16,C_AXI_RID_WIDTH=16,C_AXI_AWUSER_WIDTH=16,C_AXI_ARUSER_WIDTH=16)::ar_channel.AR_CHANNEL) 715001 : ARVALID id=0x00000000
Data match, test succeeded
INFO: [Slave VIP_wr_driver] (axi_vip_pkg.axi_slv_wr_driver(C_AXI_ADDR_WIDTH=40,C_AXI_WDATA_WIDTH=128,C_AXI_RDATA_WIDTH=128,C_AXI_WID_WIDTH=16,C_AXI_RID_WIDTH=16,C_AXI_AWUSER_WIDTH=16,C_AXI_ARUSER_WIDTH=16,C_AXI_HAS_REGION=0)::w_channel.W_CHANNEL) 1195000 : W BEAT -- write_beat     Last:0 D:0x00000000000000000000000000000001 BE:0b1111111111111111 
INFO: [Slave VIP_wr_driver] (axi_vip_pkg.axi_slv_wr_driver(C_AXI_ADDR_WIDTH=40,C_AXI_WDATA_WIDTH=128,C_AXI_RDATA_WIDTH=128,C_AXI_WID_WIDTH=16,C_AXI_RID_WIDTH=16,C_AXI_AWUSER_WIDTH=16,C_AXI_ARUSER_WIDTH=16,C_AXI_HAS_REGION=0)::aw_channel.AW_CHANNEL) 1195000 : AWVALID >>>
XIL_AXI_WRITE (33) A:0x0000008000000000 ID:0x0000018d len:0x03 XIL_AXI_SIZE_16BYTE XIL_AXI_BURST_TYPE_INCR C:0b0010 L:XIL_AXI_ALOCK_NOLOCK P:0b000<<<
INFO: [Slave VIP_wr_driver] (axi_vip_pkg.axi_slv_wr_driver(C_AXI_ADDR_WIDTH=40,C_AXI_WDATA_WIDTH=128,C_AXI_RDATA_WIDTH=128,C_AXI_WID_WIDTH=16,C_AXI_RID_WIDTH=16,C_AXI_AWUSER_WIDTH=16,C_AXI_ARUSER_WIDTH=16,C_AXI_HAS_REGION=0)::w_channel.W_CHANNEL) 1225000 : W BEAT -- write_beat     Last:0 D:0x00000000000000000000000000000002 BE:0b1111111111111111 
INFO: [Slave VIP_wr_driver] (axi_vip_pkg.axi_slv_wr_driver(C_AXI_ADDR_WIDTH=40,C_AXI_WDATA_WIDTH=128,C_AXI_RDATA_WIDTH=128,C_AXI_WID_WIDTH=16,C_AXI_RID_WIDTH=16,C_AXI_AWUSER_WIDTH=16,C_AXI_ARUSER_WIDTH=16,C_AXI_HAS_REGION=0)::w_channel.W_CHANNEL) 1255000 : W BEAT -- write_beat     Last:0 D:0x00000000000000000000000000000003 BE:0b1111111111111111 
INFO: [Slave VIP_wr_driver] (axi_vip_pkg.axi_slv_wr_driver(C_AXI_ADDR_WIDTH=40,C_AXI_WDATA_WIDTH=128,C_AXI_RDATA_WIDTH=128,C_AXI_WID_WIDTH=16,C_AXI_RID_WIDTH=16,C_AXI_AWUSER_WIDTH=16,C_AXI_ARUSER_WIDTH=16,C_AXI_HAS_REGION=0)::w_channel.W_CHANNEL) 1285000 : W LAST -- write_beat     Last:1 D:0x00000000000000000000000000000004 BE:0b1111111111111111 
INFO: [Slave VIP_wr_driver] (axi_vip_pkg.axi_slv_wr_driver(C_AXI_ADDR_WIDTH=40,C_AXI_WDATA_WIDTH=128,C_AXI_RDATA_WIDTH=128,C_AXI_WID_WIDTH=16,C_AXI_RID_WIDTH=16,C_AXI_AWUSER_WIDTH=16,C_AXI_ARUSER_WIDTH=16,C_AXI_HAS_REGION=0)::push_reactive_q) 1285000 : PUSH_REACTIVE_Q: PUSH (         0) >>> XIL_AXI_WRITE (33) A:0x0000008000000000 ID:0x0000018d len:0x03 XIL_AXI_SIZE_16BYTE XIL_AXI_BURST_TYPE_INCR C:0b0010 L:XIL_AXI_ALOCK_NOLOCK P:0b000 <<<
INFO: [Slave VIP_wr_driver] (axi_vip_pkg.axi_slv_wr_driver(C_AXI_ADDR_WIDTH=40,C_AXI_WDATA_WIDTH=128,C_AXI_RDATA_WIDTH=128,C_AXI_WID_WIDTH=16,C_AXI_RID_WIDTH=16,C_AXI_AWUSER_WIDTH=16,C_AXI_ARUSER_WIDTH=16,C_AXI_HAS_REGION=0)::pop_reactive_q) 1285000 : POP_REACTIVE_Q: (         1) >>> XIL_AXI_WRITE (33) A:0x0000008000000000 ID:0x0000018d len:0x03 XIL_AXI_SIZE_16BYTE XIL_AXI_BURST_TYPE_INCR C:0b0010 L:XIL_AXI_ALOCK_NOLOCK P:0b000 <<<
INFO: [Slave VIP_wr_driver] (axi_vip_pkg.axi_slv_wr_driver(C_AXI_ADDR_WIDTH=40,C_AXI_WDATA_WIDTH=128,C_AXI_RDATA_WIDTH=128,C_AXI_WID_WIDTH=16,C_AXI_RID_WIDTH=16,C_AXI_AWUSER_WIDTH=16,C_AXI_ARUSER_WIDTH=16,C_AXI_HAS_REGION=0)::get_and_drive.GET_AND_DRIVE) 1285000 : GNI : XIL_AXI_WRITE (33) A:0x0000008000000000 ID:0x0000018d len:0x03 XIL_AXI_SIZE_16BYTE XIL_AXI_BURST_TYPE_INCR C:0b0010 L:XIL_AXI_ALOCK_NOLOCK P:0b000
INFO: [Slave VIP_wr_driver] (axi_vip_pkg.axi_slv_wr_driver(C_AXI_ADDR_WIDTH=40,C_AXI_WDATA_WIDTH=128,C_AXI_RDATA_WIDTH=128,C_AXI_WID_WIDTH=16,C_AXI_RID_WIDTH=16,C_AXI_AWUSER_WIDTH=16,C_AXI_ARUSER_WIDTH=16,C_AXI_HAS_REGION=0)::push_b_q) 1285000 : B PUSH (         0)
INFO: [Slave VIP_wr_driver] (axi_vip_pkg.axi_slv_wr_driver(C_AXI_ADDR_WIDTH=40,C_AXI_WDATA_WIDTH=128,C_AXI_RDATA_WIDTH=128,C_AXI_WID_WIDTH=16,C_AXI_RID_WIDTH=16,C_AXI_AWUSER_WIDTH=16,C_AXI_ARUSER_WIDTH=16,C_AXI_HAS_REGION=0)::push_b_q) 1285000 : ID=0x0000018d - State 0b0111
Entries in BQ : NumEntries:         0 >>> 
 <<<
Command       : XIL_AXI_WRITE (33) A:0x0000008000000000 ID:0x0000018d len:0x03 XIL_AXI_SIZE_16BYTE XIL_AXI_BURST_TYPE_INCR C:0b0010 L:XIL_AXI_ALOCK_NOLOCK P:0b000
INFO: [Slave VIP_wr_driver] (axi_vip_pkg.axi_slv_wr_driver(C_AXI_ADDR_WIDTH=40,C_AXI_WDATA_WIDTH=128,C_AXI_RDATA_WIDTH=128,C_AXI_WID_WIDTH=16,C_AXI_RID_WIDTH=16,C_AXI_AWUSER_WIDTH=16,C_AXI_ARUSER_WIDTH=16,C_AXI_HAS_REGION=0)::service_done_q.SERVICE_DONE_Q) 1305000 : SERVICE_DONE_Q: XIL_AXI_WRITE (33) A:0x0000008000000000 ID:0x0000018d len:0x03 XIL_AXI_SIZE_16BYTE XIL_AXI_BURST_TYPE_INCR C:0b0010 L:XIL_AXI_ALOCK_NOLOCK P:0b000
INFO: [Slave VIP_wr_driver] (axi_vip_pkg.axi_slv_wr_driver(C_AXI_ADDR_WIDTH=40,C_AXI_WDATA_WIDTH=128,C_AXI_RDATA_WIDTH=128,C_AXI_WID_WIDTH=16,C_AXI_RID_WIDTH=16,C_AXI_AWUSER_WIDTH=16,C_AXI_ARUSER_WIDTH=16,C_AXI_HAS_REGION=0)::aw_channel.AW_CHANNEL) 1325000 : AWVALID >>>
XIL_AXI_WRITE (36) A:0x0000008000000040 ID:0x0000018d len:0x03 XIL_AXI_SIZE_16BYTE XIL_AXI_BURST_TYPE_INCR C:0b0010 L:XIL_AXI_ALOCK_NOLOCK P:0b000<<<
INFO: [Slave VIP_wr_driver] (axi_vip_pkg.axi_slv_wr_driver(C_AXI_ADDR_WIDTH=40,C_AXI_WDATA_WIDTH=128,C_AXI_RDATA_WIDTH=128,C_AXI_WID_WIDTH=16,C_AXI_RID_WIDTH=16,C_AXI_AWUSER_WIDTH=16,C_AXI_ARUSER_WIDTH=16,C_AXI_HAS_REGION=0)::w_channel.W_CHANNEL) 1325000 : W BEAT -- write_beat     Last:0 D:0x00000000000000000000000000000005 BE:0b1111111111111111 
INFO: [Slave VIP_wr_driver] (axi_vip_pkg.axi_slv_wr_driver(C_AXI_ADDR_WIDTH=40,C_AXI_WDATA_WIDTH=128,C_AXI_RDATA_WIDTH=128,C_AXI_WID_WIDTH=16,C_AXI_RID_WIDTH=16,C_AXI_AWUSER_WIDTH=16,C_AXI_ARUSER_WIDTH=16,C_AXI_HAS_REGION=0)::w_channel.W_CHANNEL) 1355000 : W BEAT -- write_beat     Last:0 D:0x00000000000000000000000000000006 BE:0b1111111111111111 
INFO: [Slave VIP_wr_driver] (axi_vip_pkg.axi_slv_wr_driver(C_AXI_ADDR_WIDTH=40,C_AXI_WDATA_WIDTH=128,C_AXI_RDATA_WIDTH=128,C_AXI_WID_WIDTH=16,C_AXI_RID_WIDTH=16,C_AXI_AWUSER_WIDTH=16,C_AXI_ARUSER_WIDTH=16,C_AXI_HAS_REGION=0)::w_channel.W_CHANNEL) 1385000 : W BEAT -- write_beat     Last:0 D:0x00000000000000000000000000000007 BE:0b1111111111111111 
INFO: [Slave VIP_wr_driver] (axi_vip_pkg.axi_slv_wr_driver(C_AXI_ADDR_WIDTH=40,C_AXI_WDATA_WIDTH=128,C_AXI_RDATA_WIDTH=128,C_AXI_WID_WIDTH=16,C_AXI_RID_WIDTH=16,C_AXI_AWUSER_WIDTH=16,C_AXI_ARUSER_WIDTH=16,C_AXI_HAS_REGION=0)::w_channel.W_CHANNEL) 1415000 : W LAST -- write_beat     Last:1 D:0x00000000000000000000000000000008 BE:0b1111111111111111 
INFO: [Slave VIP_wr_driver] (axi_vip_pkg.axi_slv_wr_driver(C_AXI_ADDR_WIDTH=40,C_AXI_WDATA_WIDTH=128,C_AXI_RDATA_WIDTH=128,C_AXI_WID_WIDTH=16,C_AXI_RID_WIDTH=16,C_AXI_AWUSER_WIDTH=16,C_AXI_ARUSER_WIDTH=16,C_AXI_HAS_REGION=0)::push_reactive_q) 1415000 : PUSH_REACTIVE_Q: PUSH (         0) >>> XIL_AXI_WRITE (36) A:0x0000008000000040 ID:0x0000018d len:0x03 XIL_AXI_SIZE_16BYTE XIL_AXI_BURST_TYPE_INCR C:0b0010 L:XIL_AXI_ALOCK_NOLOCK P:0b000 <<<
INFO: [Slave VIP_wr_driver] (axi_vip_pkg.axi_slv_wr_driver(C_AXI_ADDR_WIDTH=40,C_AXI_WDATA_WIDTH=128,C_AXI_RDATA_WIDTH=128,C_AXI_WID_WIDTH=16,C_AXI_RID_WIDTH=16,C_AXI_AWUSER_WIDTH=16,C_AXI_ARUSER_WIDTH=16,C_AXI_HAS_REGION=0)::pop_reactive_q) 1415000 : POP_REACTIVE_Q: (         1) >>> XIL_AXI_WRITE (36) A:0x0000008000000040 ID:0x0000018d len:0x03 XIL_AXI_SIZE_16BYTE XIL_AXI_BURST_TYPE_INCR C:0b0010 L:XIL_AXI_ALOCK_NOLOCK P:0b000 <<<
INFO: [Slave VIP_wr_driver] (axi_vip_pkg.axi_slv_wr_driver(C_AXI_ADDR_WIDTH=40,C_AXI_WDATA_WIDTH=128,C_AXI_RDATA_WIDTH=128,C_AXI_WID_WIDTH=16,C_AXI_RID_WIDTH=16,C_AXI_AWUSER_WIDTH=16,C_AXI_ARUSER_WIDTH=16,C_AXI_HAS_REGION=0)::get_and_drive.GET_AND_DRIVE) 1415000 : GNI : XIL_AXI_WRITE (36) A:0x0000008000000040 ID:0x0000018d len:0x03 XIL_AXI_SIZE_16BYTE XIL_AXI_BURST_TYPE_INCR C:0b0010 L:XIL_AXI_ALOCK_NOLOCK P:0b000
INFO: [Slave VIP_wr_driver] (axi_vip_pkg.axi_slv_wr_driver(C_AXI_ADDR_WIDTH=40,C_AXI_WDATA_WIDTH=128,C_AXI_RDATA_WIDTH=128,C_AXI_WID_WIDTH=16,C_AXI_RID_WIDTH=16,C_AXI_AWUSER_WIDTH=16,C_AXI_ARUSER_WIDTH=16,C_AXI_HAS_REGION=0)::push_b_q) 1415000 : B PUSH (         0)
INFO: [Slave VIP_wr_driver] (axi_vip_pkg.axi_slv_wr_driver(C_AXI_ADDR_WIDTH=40,C_AXI_WDATA_WIDTH=128,C_AXI_RDATA_WIDTH=128,C_AXI_WID_WIDTH=16,C_AXI_RID_WIDTH=16,C_AXI_AWUSER_WIDTH=16,C_AXI_ARUSER_WIDTH=16,C_AXI_HAS_REGION=0)::push_b_q) 1415000 : ID=0x0000018d - State 0b0111
Entries in BQ : NumEntries:         0 >>> 
 <<<
Command       : XIL_AXI_WRITE (36) A:0x0000008000000040 ID:0x0000018d len:0x03 XIL_AXI_SIZE_16BYTE XIL_AXI_BURST_TYPE_INCR C:0b0010 L:XIL_AXI_ALOCK_NOLOCK P:0b000
INFO: [Slave VIP_wr_driver] (axi_vip_pkg.axi_slv_wr_driver(C_AXI_ADDR_WIDTH=40,C_AXI_WDATA_WIDTH=128,C_AXI_RDATA_WIDTH=128,C_AXI_WID_WIDTH=16,C_AXI_RID_WIDTH=16,C_AXI_AWUSER_WIDTH=16,C_AXI_ARUSER_WIDTH=16,C_AXI_HAS_REGION=0)::service_done_q.SERVICE_DONE_Q) 1435000 : SERVICE_DONE_Q: XIL_AXI_WRITE (36) A:0x0000008000000040 ID:0x0000018d len:0x03 XIL_AXI_SIZE_16BYTE XIL_AXI_BURST_TYPE_INCR C:0b0010 L:XIL_AXI_ALOCK_NOLOCK P:0b000
INFO: [Slave VIP_wr_driver] (axi_vip_pkg.axi_slv_wr_driver(C_AXI_ADDR_WIDTH=40,C_AXI_WDATA_WIDTH=128,C_AXI_RDATA_WIDTH=128,C_AXI_WID_WIDTH=16,C_AXI_RID_WIDTH=16,C_AXI_AWUSER_WIDTH=16,C_AXI_ARUSER_WIDTH=16,C_AXI_HAS_REGION=0)::w_channel.W_CHANNEL) 1455000 : W BEAT -- write_beat     Last:0 D:0x00000000000000000000000000000009 BE:0b1111111111111111 
INFO: [Slave VIP_wr_driver] (axi_vip_pkg.axi_slv_wr_driver(C_AXI_ADDR_WIDTH=40,C_AXI_WDATA_WIDTH=128,C_AXI_RDATA_WIDTH=128,C_AXI_WID_WIDTH=16,C_AXI_RID_WIDTH=16,C_AXI_AWUSER_WIDTH=16,C_AXI_ARUSER_WIDTH=16,C_AXI_HAS_REGION=0)::aw_channel.AW_CHANNEL) 1455000 : AWVALID >>>
XIL_AXI_WRITE (41) A:0x0000008000000080 ID:0x0000018d len:0x03 XIL_AXI_SIZE_16BYTE XIL_AXI_BURST_TYPE_INCR C:0b0010 L:XIL_AXI_ALOCK_NOLOCK P:0b000<<<
INFO: [Slave VIP_wr_driver] (axi_vip_pkg.axi_slv_wr_driver(C_AXI_ADDR_WIDTH=40,C_AXI_WDATA_WIDTH=128,C_AXI_RDATA_WIDTH=128,C_AXI_WID_WIDTH=16,C_AXI_RID_WIDTH=16,C_AXI_AWUSER_WIDTH=16,C_AXI_ARUSER_WIDTH=16,C_AXI_HAS_REGION=0)::w_channel.W_CHANNEL) 1485000 : W BEAT -- write_beat     Last:0 D:0x0000000000000000000000000000000a BE:0b1111111111111111 
INFO: [Slave VIP_wr_driver] (axi_vip_pkg.axi_slv_wr_driver(C_AXI_ADDR_WIDTH=40,C_AXI_WDATA_WIDTH=128,C_AXI_RDATA_WIDTH=128,C_AXI_WID_WIDTH=16,C_AXI_RID_WIDTH=16,C_AXI_AWUSER_WIDTH=16,C_AXI_ARUSER_WIDTH=16,C_AXI_HAS_REGION=0)::w_channel.W_CHANNEL) 1515000 : W BEAT -- write_beat     Last:0 D:0x0000000000000000000000000000000b BE:0b1111111111111111 
INFO: [Slave VIP_wr_driver] (axi_vip_pkg.axi_slv_wr_driver(C_AXI_ADDR_WIDTH=40,C_AXI_WDATA_WIDTH=128,C_AXI_RDATA_WIDTH=128,C_AXI_WID_WIDTH=16,C_AXI_RID_WIDTH=16,C_AXI_AWUSER_WIDTH=16,C_AXI_ARUSER_WIDTH=16,C_AXI_HAS_REGION=0)::w_channel.W_CHANNEL) 1545000 : W LAST -- write_beat     Last:1 D:0x0000000000000000000000000000000c BE:0b1111111111111111 
INFO: [Slave VIP_wr_driver] (axi_vip_pkg.axi_slv_wr_driver(C_AXI_ADDR_WIDTH=40,C_AXI_WDATA_WIDTH=128,C_AXI_RDATA_WIDTH=128,C_AXI_WID_WIDTH=16,C_AXI_RID_WIDTH=16,C_AXI_AWUSER_WIDTH=16,C_AXI_ARUSER_WIDTH=16,C_AXI_HAS_REGION=0)::push_reactive_q) 1545000 : PUSH_REACTIVE_Q: PUSH (         0) >>> XIL_AXI_WRITE (41) A:0x0000008000000080 ID:0x0000018d len:0x03 XIL_AXI_SIZE_16BYTE XIL_AXI_BURST_TYPE_INCR C:0b0010 L:XIL_AXI_ALOCK_NOLOCK P:0b000 <<<
INFO: [Slave VIP_wr_driver] (axi_vip_pkg.axi_slv_wr_driver(C_AXI_ADDR_WIDTH=40,C_AXI_WDATA_WIDTH=128,C_AXI_RDATA_WIDTH=128,C_AXI_WID_WIDTH=16,C_AXI_RID_WIDTH=16,C_AXI_AWUSER_WIDTH=16,C_AXI_ARUSER_WIDTH=16,C_AXI_HAS_REGION=0)::pop_reactive_q) 1545000 : POP_REACTIVE_Q: (         1) >>> XIL_AXI_WRITE (41) A:0x0000008000000080 ID:0x0000018d len:0x03 XIL_AXI_SIZE_16BYTE XIL_AXI_BURST_TYPE_INCR C:0b0010 L:XIL_AXI_ALOCK_NOLOCK P:0b000 <<<
INFO: [Slave VIP_wr_driver] (axi_vip_pkg.axi_slv_wr_driver(C_AXI_ADDR_WIDTH=40,C_AXI_WDATA_WIDTH=128,C_AXI_RDATA_WIDTH=128,C_AXI_WID_WIDTH=16,C_AXI_RID_WIDTH=16,C_AXI_AWUSER_WIDTH=16,C_AXI_ARUSER_WIDTH=16,C_AXI_HAS_REGION=0)::get_and_drive.GET_AND_DRIVE) 1545000 : GNI : XIL_AXI_WRITE (41) A:0x0000008000000080 ID:0x0000018d len:0x03 XIL_AXI_SIZE_16BYTE XIL_AXI_BURST_TYPE_INCR C:0b0010 L:XIL_AXI_ALOCK_NOLOCK P:0b000
INFO: [Slave VIP_wr_driver] (axi_vip_pkg.axi_slv_wr_driver(C_AXI_ADDR_WIDTH=40,C_AXI_WDATA_WIDTH=128,C_AXI_RDATA_WIDTH=128,C_AXI_WID_WIDTH=16,C_AXI_RID_WIDTH=16,C_AXI_AWUSER_WIDTH=16,C_AXI_ARUSER_WIDTH=16,C_AXI_HAS_REGION=0)::push_b_q) 1545000 : B PUSH (         0)
INFO: [Slave VIP_wr_driver] (axi_vip_pkg.axi_slv_wr_driver(C_AXI_ADDR_WIDTH=40,C_AXI_WDATA_WIDTH=128,C_AXI_RDATA_WIDTH=128,C_AXI_WID_WIDTH=16,C_AXI_RID_WIDTH=16,C_AXI_AWUSER_WIDTH=16,C_AXI_ARUSER_WIDTH=16,C_AXI_HAS_REGION=0)::push_b_q) 1545000 : ID=0x0000018d - State 0b0111
Entries in BQ : NumEntries:         0 >>> 
 <<<
Command       : XIL_AXI_WRITE (41) A:0x0000008000000080 ID:0x0000018d len:0x03 XIL_AXI_SIZE_16BYTE XIL_AXI_BURST_TYPE_INCR C:0b0010 L:XIL_AXI_ALOCK_NOLOCK P:0b000
INFO: [Slave VIP_wr_driver] (axi_vip_pkg.axi_slv_wr_driver(C_AXI_ADDR_WIDTH=40,C_AXI_WDATA_WIDTH=128,C_AXI_RDATA_WIDTH=128,C_AXI_WID_WIDTH=16,C_AXI_RID_WIDTH=16,C_AXI_AWUSER_WIDTH=16,C_AXI_ARUSER_WIDTH=16,C_AXI_HAS_REGION=0)::service_done_q.SERVICE_DONE_Q) 1565000 : SERVICE_DONE_Q: XIL_AXI_WRITE (41) A:0x0000008000000080 ID:0x0000018d len:0x03 XIL_AXI_SIZE_16BYTE XIL_AXI_BURST_TYPE_INCR C:0b0010 L:XIL_AXI_ALOCK_NOLOCK P:0b000
INFO: [Slave VIP_wr_driver] (axi_vip_pkg.axi_slv_wr_driver(C_AXI_ADDR_WIDTH=40,C_AXI_WDATA_WIDTH=128,C_AXI_RDATA_WIDTH=128,C_AXI_WID_WIDTH=16,C_AXI_RID_WIDTH=16,C_AXI_AWUSER_WIDTH=16,C_AXI_ARUSER_WIDTH=16,C_AXI_HAS_REGION=0)::aw_channel.AW_CHANNEL) 1585000 : AWVALID >>>
XIL_AXI_WRITE (44) A:0x00000080000000c0 ID:0x0000018d len:0x03 XIL_AXI_SIZE_16BYTE XIL_AXI_BURST_TYPE_INCR C:0b0010 L:XIL_AXI_ALOCK_NOLOCK P:0b000<<<
INFO: [Slave VIP_wr_driver] (axi_vip_pkg.axi_slv_wr_driver(C_AXI_ADDR_WIDTH=40,C_AXI_WDATA_WIDTH=128,C_AXI_RDATA_WIDTH=128,C_AXI_WID_WIDTH=16,C_AXI_RID_WIDTH=16,C_AXI_AWUSER_WIDTH=16,C_AXI_ARUSER_WIDTH=16,C_AXI_HAS_REGION=0)::w_channel.W_CHANNEL) 1585000 : W BEAT -- write_beat     Last:0 D:0x0000000000000000000000000000000d BE:0b1111111111111111 
INFO: [Slave VIP_wr_driver] (axi_vip_pkg.axi_slv_wr_driver(C_AXI_ADDR_WIDTH=40,C_AXI_WDATA_WIDTH=128,C_AXI_RDATA_WIDTH=128,C_AXI_WID_WIDTH=16,C_AXI_RID_WIDTH=16,C_AXI_AWUSER_WIDTH=16,C_AXI_ARUSER_WIDTH=16,C_AXI_HAS_REGION=0)::w_channel.W_CHANNEL) 1615000 : W BEAT -- write_beat     Last:0 D:0x0000000000000000000000000000000e BE:0b1111111111111111 
INFO: [Slave VIP_wr_driver] (axi_vip_pkg.axi_slv_wr_driver(C_AXI_ADDR_WIDTH=40,C_AXI_WDATA_WIDTH=128,C_AXI_RDATA_WIDTH=128,C_AXI_WID_WIDTH=16,C_AXI_RID_WIDTH=16,C_AXI_AWUSER_WIDTH=16,C_AXI_ARUSER_WIDTH=16,C_AXI_HAS_REGION=0)::w_channel.W_CHANNEL) 1645000 : W BEAT -- write_beat     Last:0 D:0x0000000000000000000000000000000f BE:0b1111111111111111 
INFO: [Slave VIP_wr_driver] (axi_vip_pkg.axi_slv_wr_driver(C_AXI_ADDR_WIDTH=40,C_AXI_WDATA_WIDTH=128,C_AXI_RDATA_WIDTH=128,C_AXI_WID_WIDTH=16,C_AXI_RID_WIDTH=16,C_AXI_AWUSER_WIDTH=16,C_AXI_ARUSER_WIDTH=16,C_AXI_HAS_REGION=0)::w_channel.W_CHANNEL) 1675000 : W LAST -- write_beat     Last:1 D:0x00000000000000000000000000000010 BE:0b1111111111111111 
INFO: [Slave VIP_wr_driver] (axi_vip_pkg.axi_slv_wr_driver(C_AXI_ADDR_WIDTH=40,C_AXI_WDATA_WIDTH=128,C_AXI_RDATA_WIDTH=128,C_AXI_WID_WIDTH=16,C_AXI_RID_WIDTH=16,C_AXI_AWUSER_WIDTH=16,C_AXI_ARUSER_WIDTH=16,C_AXI_HAS_REGION=0)::push_reactive_q) 1675000 : PUSH_REACTIVE_Q: PUSH (         0) >>> XIL_AXI_WRITE (44) A:0x00000080000000c0 ID:0x0000018d len:0x03 XIL_AXI_SIZE_16BYTE XIL_AXI_BURST_TYPE_INCR C:0b0010 L:XIL_AXI_ALOCK_NOLOCK P:0b000 <<<
INFO: [Slave VIP_wr_driver] (axi_vip_pkg.axi_slv_wr_driver(C_AXI_ADDR_WIDTH=40,C_AXI_WDATA_WIDTH=128,C_AXI_RDATA_WIDTH=128,C_AXI_WID_WIDTH=16,C_AXI_RID_WIDTH=16,C_AXI_AWUSER_WIDTH=16,C_AXI_ARUSER_WIDTH=16,C_AXI_HAS_REGION=0)::pop_reactive_q) 1675000 : POP_REACTIVE_Q: (         1) >>> XIL_AXI_WRITE (44) A:0x00000080000000c0 ID:0x0000018d len:0x03 XIL_AXI_SIZE_16BYTE XIL_AXI_BURST_TYPE_INCR C:0b0010 L:XIL_AXI_ALOCK_NOLOCK P:0b000 <<<
INFO: [Slave VIP_wr_driver] (axi_vip_pkg.axi_slv_wr_driver(C_AXI_ADDR_WIDTH=40,C_AXI_WDATA_WIDTH=128,C_AXI_RDATA_WIDTH=128,C_AXI_WID_WIDTH=16,C_AXI_RID_WIDTH=16,C_AXI_AWUSER_WIDTH=16,C_AXI_ARUSER_WIDTH=16,C_AXI_HAS_REGION=0)::get_and_drive.GET_AND_DRIVE) 1675000 : GNI : XIL_AXI_WRITE (44) A:0x00000080000000c0 ID:0x0000018d len:0x03 XIL_AXI_SIZE_16BYTE XIL_AXI_BURST_TYPE_INCR C:0b0010 L:XIL_AXI_ALOCK_NOLOCK P:0b000
INFO: [Slave VIP_wr_driver] (axi_vip_pkg.axi_slv_wr_driver(C_AXI_ADDR_WIDTH=40,C_AXI_WDATA_WIDTH=128,C_AXI_RDATA_WIDTH=128,C_AXI_WID_WIDTH=16,C_AXI_RID_WIDTH=16,C_AXI_AWUSER_WIDTH=16,C_AXI_ARUSER_WIDTH=16,C_AXI_HAS_REGION=0)::push_b_q) 1675000 : B PUSH (         0)
INFO: [Slave VIP_wr_driver] (axi_vip_pkg.axi_slv_wr_driver(C_AXI_ADDR_WIDTH=40,C_AXI_WDATA_WIDTH=128,C_AXI_RDATA_WIDTH=128,C_AXI_WID_WIDTH=16,C_AXI_RID_WIDTH=16,C_AXI_AWUSER_WIDTH=16,C_AXI_ARUSER_WIDTH=16,C_AXI_HAS_REGION=0)::push_b_q) 1675000 : ID=0x0000018d - State 0b0111
Entries in BQ : NumEntries:         0 >>> 
 <<<
Command       : XIL_AXI_WRITE (44) A:0x00000080000000c0 ID:0x0000018d len:0x03 XIL_AXI_SIZE_16BYTE XIL_AXI_BURST_TYPE_INCR C:0b0010 L:XIL_AXI_ALOCK_NOLOCK P:0b000
INFO: [Slave VIP_wr_driver] (axi_vip_pkg.axi_slv_wr_driver(C_AXI_ADDR_WIDTH=40,C_AXI_WDATA_WIDTH=128,C_AXI_RDATA_WIDTH=128,C_AXI_WID_WIDTH=16,C_AXI_RID_WIDTH=16,C_AXI_AWUSER_WIDTH=16,C_AXI_ARUSER_WIDTH=16,C_AXI_HAS_REGION=0)::service_done_q.SERVICE_DONE_Q) 1695000 : SERVICE_DONE_Q: XIL_AXI_WRITE (44) A:0x00000080000000c0 ID:0x0000018d len:0x03 XIL_AXI_SIZE_16BYTE XIL_AXI_BURST_TYPE_INCR C:0b0010 L:XIL_AXI_ALOCK_NOLOCK P:0b000
INFO: [Slave VIP_wr_driver] (axi_vip_pkg.axi_slv_wr_driver(C_AXI_ADDR_WIDTH=40,C_AXI_WDATA_WIDTH=128,C_AXI_RDATA_WIDTH=128,C_AXI_WID_WIDTH=16,C_AXI_RID_WIDTH=16,C_AXI_AWUSER_WIDTH=16,C_AXI_ARUSER_WIDTH=16,C_AXI_HAS_REGION=0)::w_channel.W_CHANNEL) 1715000 : W BEAT -- write_beat     Last:0 D:0x00000000000000000000000000000011 BE:0b1111111111111111 
INFO: [Slave VIP_wr_driver] (axi_vip_pkg.axi_slv_wr_driver(C_AXI_ADDR_WIDTH=40,C_AXI_WDATA_WIDTH=128,C_AXI_RDATA_WIDTH=128,C_AXI_WID_WIDTH=16,C_AXI_RID_WIDTH=16,C_AXI_AWUSER_WIDTH=16,C_AXI_ARUSER_WIDTH=16,C_AXI_HAS_REGION=0)::aw_channel.AW_CHANNEL) 1715000 : AWVALID >>>
XIL_AXI_WRITE (49) A:0x0000008000000100 ID:0x0000018d len:0x03 XIL_AXI_SIZE_16BYTE XIL_AXI_BURST_TYPE_INCR C:0b0010 L:XIL_AXI_ALOCK_NOLOCK P:0b000<<<
INFO: [Slave VIP_wr_driver] (axi_vip_pkg.axi_slv_wr_driver(C_AXI_ADDR_WIDTH=40,C_AXI_WDATA_WIDTH=128,C_AXI_RDATA_WIDTH=128,C_AXI_WID_WIDTH=16,C_AXI_RID_WIDTH=16,C_AXI_AWUSER_WIDTH=16,C_AXI_ARUSER_WIDTH=16,C_AXI_HAS_REGION=0)::w_channel.W_CHANNEL) 1745000 : W BEAT -- write_beat     Last:0 D:0x00000000000000000000000000000012 BE:0b1111111111111111 
INFO: [Slave VIP_wr_driver] (axi_vip_pkg.axi_slv_wr_driver(C_AXI_ADDR_WIDTH=40,C_AXI_WDATA_WIDTH=128,C_AXI_RDATA_WIDTH=128,C_AXI_WID_WIDTH=16,C_AXI_RID_WIDTH=16,C_AXI_AWUSER_WIDTH=16,C_AXI_ARUSER_WIDTH=16,C_AXI_HAS_REGION=0)::w_channel.W_CHANNEL) 1775000 : W BEAT -- write_beat     Last:0 D:0x00000000000000000000000000000013 BE:0b1111111111111111 
INFO: [Slave VIP_wr_driver] (axi_vip_pkg.axi_slv_wr_driver(C_AXI_ADDR_WIDTH=40,C_AXI_WDATA_WIDTH=128,C_AXI_RDATA_WIDTH=128,C_AXI_WID_WIDTH=16,C_AXI_RID_WIDTH=16,C_AXI_AWUSER_WIDTH=16,C_AXI_ARUSER_WIDTH=16,C_AXI_HAS_REGION=0)::w_channel.W_CHANNEL) 1805000 : W LAST -- write_beat     Last:1 D:0x00000000000000000000000000000014 BE:0b1111111111111111 
INFO: [Slave VIP_wr_driver] (axi_vip_pkg.axi_slv_wr_driver(C_AXI_ADDR_WIDTH=40,C_AXI_WDATA_WIDTH=128,C_AXI_RDATA_WIDTH=128,C_AXI_WID_WIDTH=16,C_AXI_RID_WIDTH=16,C_AXI_AWUSER_WIDTH=16,C_AXI_ARUSER_WIDTH=16,C_AXI_HAS_REGION=0)::push_reactive_q) 1805000 : PUSH_REACTIVE_Q: PUSH (         0) >>> XIL_AXI_WRITE (49) A:0x0000008000000100 ID:0x0000018d len:0x03 XIL_AXI_SIZE_16BYTE XIL_AXI_BURST_TYPE_INCR C:0b0010 L:XIL_AXI_ALOCK_NOLOCK P:0b000 <<<
INFO: [Slave VIP_wr_driver] (axi_vip_pkg.axi_slv_wr_driver(C_AXI_ADDR_WIDTH=40,C_AXI_WDATA_WIDTH=128,C_AXI_RDATA_WIDTH=128,C_AXI_WID_WIDTH=16,C_AXI_RID_WIDTH=16,C_AXI_AWUSER_WIDTH=16,C_AXI_ARUSER_WIDTH=16,C_AXI_HAS_REGION=0)::pop_reactive_q) 1805000 : POP_REACTIVE_Q: (         1) >>> XIL_AXI_WRITE (49) A:0x0000008000000100 ID:0x0000018d len:0x03 XIL_AXI_SIZE_16BYTE XIL_AXI_BURST_TYPE_INCR C:0b0010 L:XIL_AXI_ALOCK_NOLOCK P:0b000 <<<
INFO: [Slave VIP_wr_driver] (axi_vip_pkg.axi_slv_wr_driver(C_AXI_ADDR_WIDTH=40,C_AXI_WDATA_WIDTH=128,C_AXI_RDATA_WIDTH=128,C_AXI_WID_WIDTH=16,C_AXI_RID_WIDTH=16,C_AXI_AWUSER_WIDTH=16,C_AXI_ARUSER_WIDTH=16,C_AXI_HAS_REGION=0)::get_and_drive.GET_AND_DRIVE) 1805000 : GNI : XIL_AXI_WRITE (49) A:0x0000008000000100 ID:0x0000018d len:0x03 XIL_AXI_SIZE_16BYTE XIL_AXI_BURST_TYPE_INCR C:0b0010 L:XIL_AXI_ALOCK_NOLOCK P:0b000
INFO: [Slave VIP_wr_driver] (axi_vip_pkg.axi_slv_wr_driver(C_AXI_ADDR_WIDTH=40,C_AXI_WDATA_WIDTH=128,C_AXI_RDATA_WIDTH=128,C_AXI_WID_WIDTH=16,C_AXI_RID_WIDTH=16,C_AXI_AWUSER_WIDTH=16,C_AXI_ARUSER_WIDTH=16,C_AXI_HAS_REGION=0)::push_b_q) 1805000 : B PUSH (         0)
INFO: [Slave VIP_wr_driver] (axi_vip_pkg.axi_slv_wr_driver(C_AXI_ADDR_WIDTH=40,C_AXI_WDATA_WIDTH=128,C_AXI_RDATA_WIDTH=128,C_AXI_WID_WIDTH=16,C_AXI_RID_WIDTH=16,C_AXI_AWUSER_WIDTH=16,C_AXI_ARUSER_WIDTH=16,C_AXI_HAS_REGION=0)::push_b_q) 1805000 : ID=0x0000018d - State 0b0111
Entries in BQ : NumEntries:         0 >>> 
 <<<
Command       : XIL_AXI_WRITE (49) A:0x0000008000000100 ID:0x0000018d len:0x03 XIL_AXI_SIZE_16BYTE XIL_AXI_BURST_TYPE_INCR C:0b0010 L:XIL_AXI_ALOCK_NOLOCK P:0b000
INFO: [Slave VIP_wr_driver] (axi_vip_pkg.axi_slv_wr_driver(C_AXI_ADDR_WIDTH=40,C_AXI_WDATA_WIDTH=128,C_AXI_RDATA_WIDTH=128,C_AXI_WID_WIDTH=16,C_AXI_RID_WIDTH=16,C_AXI_AWUSER_WIDTH=16,C_AXI_ARUSER_WIDTH=16,C_AXI_HAS_REGION=0)::service_done_q.SERVICE_DONE_Q) 1825000 : SERVICE_DONE_Q: XIL_AXI_WRITE (49) A:0x0000008000000100 ID:0x0000018d len:0x03 XIL_AXI_SIZE_16BYTE XIL_AXI_BURST_TYPE_INCR C:0b0010 L:XIL_AXI_ALOCK_NOLOCK P:0b000
INFO: [Slave VIP_wr_driver] (axi_vip_pkg.axi_slv_wr_driver(C_AXI_ADDR_WIDTH=40,C_AXI_WDATA_WIDTH=128,C_AXI_RDATA_WIDTH=128,C_AXI_WID_WIDTH=16,C_AXI_RID_WIDTH=16,C_AXI_AWUSER_WIDTH=16,C_AXI_ARUSER_WIDTH=16,C_AXI_HAS_REGION=0)::aw_channel.AW_CHANNEL) 1845000 : AWVALID >>>
XIL_AXI_WRITE (52) A:0x0000008000000140 ID:0x0000018d len:0x03 XIL_AXI_SIZE_16BYTE XIL_AXI_BURST_TYPE_INCR C:0b0010 L:XIL_AXI_ALOCK_NOLOCK P:0b000<<<
INFO: [Slave VIP_wr_driver] (axi_vip_pkg.axi_slv_wr_driver(C_AXI_ADDR_WIDTH=40,C_AXI_WDATA_WIDTH=128,C_AXI_RDATA_WIDTH=128,C_AXI_WID_WIDTH=16,C_AXI_RID_WIDTH=16,C_AXI_AWUSER_WIDTH=16,C_AXI_ARUSER_WIDTH=16,C_AXI_HAS_REGION=0)::w_channel.W_CHANNEL) 1845000 : W BEAT -- write_beat     Last:0 D:0x00000000000000000000000000000015 BE:0b1111111111111111 
INFO: [Slave VIP_wr_driver] (axi_vip_pkg.axi_slv_wr_driver(C_AXI_ADDR_WIDTH=40,C_AXI_WDATA_WIDTH=128,C_AXI_RDATA_WIDTH=128,C_AXI_WID_WIDTH=16,C_AXI_RID_WIDTH=16,C_AXI_AWUSER_WIDTH=16,C_AXI_ARUSER_WIDTH=16,C_AXI_HAS_REGION=0)::w_channel.W_CHANNEL) 1875000 : W BEAT -- write_beat     Last:0 D:0x00000000000000000000000000000016 BE:0b1111111111111111 
INFO: [Slave VIP_wr_driver] (axi_vip_pkg.axi_slv_wr_driver(C_AXI_ADDR_WIDTH=40,C_AXI_WDATA_WIDTH=128,C_AXI_RDATA_WIDTH=128,C_AXI_WID_WIDTH=16,C_AXI_RID_WIDTH=16,C_AXI_AWUSER_WIDTH=16,C_AXI_ARUSER_WIDTH=16,C_AXI_HAS_REGION=0)::w_channel.W_CHANNEL) 1905000 : W BEAT -- write_beat     Last:0 D:0x00000000000000000000000000000017 BE:0b1111111111111111 
INFO: [Slave VIP_wr_driver] (axi_vip_pkg.axi_slv_wr_driver(C_AXI_ADDR_WIDTH=40,C_AXI_WDATA_WIDTH=128,C_AXI_RDATA_WIDTH=128,C_AXI_WID_WIDTH=16,C_AXI_RID_WIDTH=16,C_AXI_AWUSER_WIDTH=16,C_AXI_ARUSER_WIDTH=16,C_AXI_HAS_REGION=0)::w_channel.W_CHANNEL) 1935000 : W LAST -- write_beat     Last:1 D:0x00000000000000000000000000000018 BE:0b1111111111111111 
INFO: [Slave VIP_wr_driver] (axi_vip_pkg.axi_slv_wr_driver(C_AXI_ADDR_WIDTH=40,C_AXI_WDATA_WIDTH=128,C_AXI_RDATA_WIDTH=128,C_AXI_WID_WIDTH=16,C_AXI_RID_WIDTH=16,C_AXI_AWUSER_WIDTH=16,C_AXI_ARUSER_WIDTH=16,C_AXI_HAS_REGION=0)::push_reactive_q) 1935000 : PUSH_REACTIVE_Q: PUSH (         0) >>> XIL_AXI_WRITE (52) A:0x0000008000000140 ID:0x0000018d len:0x03 XIL_AXI_SIZE_16BYTE XIL_AXI_BURST_TYPE_INCR C:0b0010 L:XIL_AXI_ALOCK_NOLOCK P:0b000 <<<
INFO: [Slave VIP_wr_driver] (axi_vip_pkg.axi_slv_wr_driver(C_AXI_ADDR_WIDTH=40,C_AXI_WDATA_WIDTH=128,C_AXI_RDATA_WIDTH=128,C_AXI_WID_WIDTH=16,C_AXI_RID_WIDTH=16,C_AXI_AWUSER_WIDTH=16,C_AXI_ARUSER_WIDTH=16,C_AXI_HAS_REGION=0)::pop_reactive_q) 1935000 : POP_REACTIVE_Q: (         1) >>> XIL_AXI_WRITE (52) A:0x0000008000000140 ID:0x0000018d len:0x03 XIL_AXI_SIZE_16BYTE XIL_AXI_BURST_TYPE_INCR C:0b0010 L:XIL_AXI_ALOCK_NOLOCK P:0b000 <<<
INFO: [Slave VIP_wr_driver] (axi_vip_pkg.axi_slv_wr_driver(C_AXI_ADDR_WIDTH=40,C_AXI_WDATA_WIDTH=128,C_AXI_RDATA_WIDTH=128,C_AXI_WID_WIDTH=16,C_AXI_RID_WIDTH=16,C_AXI_AWUSER_WIDTH=16,C_AXI_ARUSER_WIDTH=16,C_AXI_HAS_REGION=0)::get_and_drive.GET_AND_DRIVE) 1935000 : GNI : XIL_AXI_WRITE (52) A:0x0000008000000140 ID:0x0000018d len:0x03 XIL_AXI_SIZE_16BYTE XIL_AXI_BURST_TYPE_INCR C:0b0010 L:XIL_AXI_ALOCK_NOLOCK P:0b000
INFO: [Slave VIP_wr_driver] (axi_vip_pkg.axi_slv_wr_driver(C_AXI_ADDR_WIDTH=40,C_AXI_WDATA_WIDTH=128,C_AXI_RDATA_WIDTH=128,C_AXI_WID_WIDTH=16,C_AXI_RID_WIDTH=16,C_AXI_AWUSER_WIDTH=16,C_AXI_ARUSER_WIDTH=16,C_AXI_HAS_REGION=0)::push_b_q) 1935000 : B PUSH (         0)
INFO: [Slave VIP_wr_driver] (axi_vip_pkg.axi_slv_wr_driver(C_AXI_ADDR_WIDTH=40,C_AXI_WDATA_WIDTH=128,C_AXI_RDATA_WIDTH=128,C_AXI_WID_WIDTH=16,C_AXI_RID_WIDTH=16,C_AXI_AWUSER_WIDTH=16,C_AXI_ARUSER_WIDTH=16,C_AXI_HAS_REGION=0)::push_b_q) 1935000 : ID=0x0000018d - State 0b0111
Entries in BQ : NumEntries:         0 >>> 
 <<<
Command       : XIL_AXI_WRITE (52) A:0x0000008000000140 ID:0x0000018d len:0x03 XIL_AXI_SIZE_16BYTE XIL_AXI_BURST_TYPE_INCR C:0b0010 L:XIL_AXI_ALOCK_NOLOCK P:0b000
INFO: [Slave VIP_wr_driver] (axi_vip_pkg.axi_slv_wr_driver(C_AXI_ADDR_WIDTH=40,C_AXI_WDATA_WIDTH=128,C_AXI_RDATA_WIDTH=128,C_AXI_WID_WIDTH=16,C_AXI_RID_WIDTH=16,C_AXI_AWUSER_WIDTH=16,C_AXI_ARUSER_WIDTH=16,C_AXI_HAS_REGION=0)::service_done_q.SERVICE_DONE_Q) 1955000 : SERVICE_DONE_Q: XIL_AXI_WRITE (52) A:0x0000008000000140 ID:0x0000018d len:0x03 XIL_AXI_SIZE_16BYTE XIL_AXI_BURST_TYPE_INCR C:0b0010 L:XIL_AXI_ALOCK_NOLOCK P:0b000
INFO: [Slave VIP_wr_driver] (axi_vip_pkg.axi_slv_wr_driver(C_AXI_ADDR_WIDTH=40,C_AXI_WDATA_WIDTH=128,C_AXI_RDATA_WIDTH=128,C_AXI_WID_WIDTH=16,C_AXI_RID_WIDTH=16,C_AXI_AWUSER_WIDTH=16,C_AXI_ARUSER_WIDTH=16,C_AXI_HAS_REGION=0)::w_channel.W_CHANNEL) 1975000 : W BEAT -- write_beat     Last:0 D:0x00000000000000000000000000000019 BE:0b1111111111111111 
INFO: [Slave VIP_wr_driver] (axi_vip_pkg.axi_slv_wr_driver(C_AXI_ADDR_WIDTH=40,C_AXI_WDATA_WIDTH=128,C_AXI_RDATA_WIDTH=128,C_AXI_WID_WIDTH=16,C_AXI_RID_WIDTH=16,C_AXI_AWUSER_WIDTH=16,C_AXI_ARUSER_WIDTH=16,C_AXI_HAS_REGION=0)::aw_channel.AW_CHANNEL) 1975000 : AWVALID >>>
XIL_AXI_WRITE (57) A:0x0000008000000180 ID:0x0000018d len:0x03 XIL_AXI_SIZE_16BYTE XIL_AXI_BURST_TYPE_INCR C:0b0010 L:XIL_AXI_ALOCK_NOLOCK P:0b000<<<
INFO: [Slave VIP_wr_driver] (axi_vip_pkg.axi_slv_wr_driver(C_AXI_ADDR_WIDTH=40,C_AXI_WDATA_WIDTH=128,C_AXI_RDATA_WIDTH=128,C_AXI_WID_WIDTH=16,C_AXI_RID_WIDTH=16,C_AXI_AWUSER_WIDTH=16,C_AXI_ARUSER_WIDTH=16,C_AXI_HAS_REGION=0)::w_channel.W_CHANNEL) 2005000 : W BEAT -- write_beat     Last:0 D:0x0000000000000000000000000000001a BE:0b1111111111111111 
INFO: [Slave VIP_wr_driver] (axi_vip_pkg.axi_slv_wr_driver(C_AXI_ADDR_WIDTH=40,C_AXI_WDATA_WIDTH=128,C_AXI_RDATA_WIDTH=128,C_AXI_WID_WIDTH=16,C_AXI_RID_WIDTH=16,C_AXI_AWUSER_WIDTH=16,C_AXI_ARUSER_WIDTH=16,C_AXI_HAS_REGION=0)::w_channel.W_CHANNEL) 2035000 : W BEAT -- write_beat     Last:0 D:0x0000000000000000000000000000001b BE:0b1111111111111111 
INFO: [Slave VIP_wr_driver] (axi_vip_pkg.axi_slv_wr_driver(C_AXI_ADDR_WIDTH=40,C_AXI_WDATA_WIDTH=128,C_AXI_RDATA_WIDTH=128,C_AXI_WID_WIDTH=16,C_AXI_RID_WIDTH=16,C_AXI_AWUSER_WIDTH=16,C_AXI_ARUSER_WIDTH=16,C_AXI_HAS_REGION=0)::w_channel.W_CHANNEL) 2065000 : W LAST -- write_beat     Last:1 D:0x0000000000000000000000000000001c BE:0b1111111111111111 
INFO: [Slave VIP_wr_driver] (axi_vip_pkg.axi_slv_wr_driver(C_AXI_ADDR_WIDTH=40,C_AXI_WDATA_WIDTH=128,C_AXI_RDATA_WIDTH=128,C_AXI_WID_WIDTH=16,C_AXI_RID_WIDTH=16,C_AXI_AWUSER_WIDTH=16,C_AXI_ARUSER_WIDTH=16,C_AXI_HAS_REGION=0)::push_reactive_q) 2065000 : PUSH_REACTIVE_Q: PUSH (         0) >>> XIL_AXI_WRITE (57) A:0x0000008000000180 ID:0x0000018d len:0x03 XIL_AXI_SIZE_16BYTE XIL_AXI_BURST_TYPE_INCR C:0b0010 L:XIL_AXI_ALOCK_NOLOCK P:0b000 <<<
INFO: [Slave VIP_wr_driver] (axi_vip_pkg.axi_slv_wr_driver(C_AXI_ADDR_WIDTH=40,C_AXI_WDATA_WIDTH=128,C_AXI_RDATA_WIDTH=128,C_AXI_WID_WIDTH=16,C_AXI_RID_WIDTH=16,C_AXI_AWUSER_WIDTH=16,C_AXI_ARUSER_WIDTH=16,C_AXI_HAS_REGION=0)::pop_reactive_q) 2065000 : POP_REACTIVE_Q: (         1) >>> XIL_AXI_WRITE (57) A:0x0000008000000180 ID:0x0000018d len:0x03 XIL_AXI_SIZE_16BYTE XIL_AXI_BURST_TYPE_INCR C:0b0010 L:XIL_AXI_ALOCK_NOLOCK P:0b000 <<<
INFO: [Slave VIP_wr_driver] (axi_vip_pkg.axi_slv_wr_driver(C_AXI_ADDR_WIDTH=40,C_AXI_WDATA_WIDTH=128,C_AXI_RDATA_WIDTH=128,C_AXI_WID_WIDTH=16,C_AXI_RID_WIDTH=16,C_AXI_AWUSER_WIDTH=16,C_AXI_ARUSER_WIDTH=16,C_AXI_HAS_REGION=0)::get_and_drive.GET_AND_DRIVE) 2065000 : GNI : XIL_AXI_WRITE (57) A:0x0000008000000180 ID:0x0000018d len:0x03 XIL_AXI_SIZE_16BYTE XIL_AXI_BURST_TYPE_INCR C:0b0010 L:XIL_AXI_ALOCK_NOLOCK P:0b000
INFO: [Slave VIP_wr_driver] (axi_vip_pkg.axi_slv_wr_driver(C_AXI_ADDR_WIDTH=40,C_AXI_WDATA_WIDTH=128,C_AXI_RDATA_WIDTH=128,C_AXI_WID_WIDTH=16,C_AXI_RID_WIDTH=16,C_AXI_AWUSER_WIDTH=16,C_AXI_ARUSER_WIDTH=16,C_AXI_HAS_REGION=0)::push_b_q) 2065000 : B PUSH (         0)
INFO: [Slave VIP_wr_driver] (axi_vip_pkg.axi_slv_wr_driver(C_AXI_ADDR_WIDTH=40,C_AXI_WDATA_WIDTH=128,C_AXI_RDATA_WIDTH=128,C_AXI_WID_WIDTH=16,C_AXI_RID_WIDTH=16,C_AXI_AWUSER_WIDTH=16,C_AXI_ARUSER_WIDTH=16,C_AXI_HAS_REGION=0)::push_b_q) 2065000 : ID=0x0000018d - State 0b0111
Entries in BQ : NumEntries:         0 >>> 
 <<<
Command       : XIL_AXI_WRITE (57) A:0x0000008000000180 ID:0x0000018d len:0x03 XIL_AXI_SIZE_16BYTE XIL_AXI_BURST_TYPE_INCR C:0b0010 L:XIL_AXI_ALOCK_NOLOCK P:0b000
INFO: [Slave VIP_wr_driver] (axi_vip_pkg.axi_slv_wr_driver(C_AXI_ADDR_WIDTH=40,C_AXI_WDATA_WIDTH=128,C_AXI_RDATA_WIDTH=128,C_AXI_WID_WIDTH=16,C_AXI_RID_WIDTH=16,C_AXI_AWUSER_WIDTH=16,C_AXI_ARUSER_WIDTH=16,C_AXI_HAS_REGION=0)::service_done_q.SERVICE_DONE_Q) 2085000 : SERVICE_DONE_Q: XIL_AXI_WRITE (57) A:0x0000008000000180 ID:0x0000018d len:0x03 XIL_AXI_SIZE_16BYTE XIL_AXI_BURST_TYPE_INCR C:0b0010 L:XIL_AXI_ALOCK_NOLOCK P:0b000
INFO: [Slave VIP_wr_driver] (axi_vip_pkg.axi_slv_wr_driver(C_AXI_ADDR_WIDTH=40,C_AXI_WDATA_WIDTH=128,C_AXI_RDATA_WIDTH=128,C_AXI_WID_WIDTH=16,C_AXI_RID_WIDTH=16,C_AXI_AWUSER_WIDTH=16,C_AXI_ARUSER_WIDTH=16,C_AXI_HAS_REGION=0)::aw_channel.AW_CHANNEL) 2105000 : AWVALID >>>
XIL_AXI_WRITE (60) A:0x00000080000001c0 ID:0x0000018d len:0x03 XIL_AXI_SIZE_16BYTE XIL_AXI_BURST_TYPE_INCR C:0b0010 L:XIL_AXI_ALOCK_NOLOCK P:0b000<<<
INFO: [Slave VIP_wr_driver] (axi_vip_pkg.axi_slv_wr_driver(C_AXI_ADDR_WIDTH=40,C_AXI_WDATA_WIDTH=128,C_AXI_RDATA_WIDTH=128,C_AXI_WID_WIDTH=16,C_AXI_RID_WIDTH=16,C_AXI_AWUSER_WIDTH=16,C_AXI_ARUSER_WIDTH=16,C_AXI_HAS_REGION=0)::w_channel.W_CHANNEL) 2105000 : W BEAT -- write_beat     Last:0 D:0x0000000000000000000000000000001d BE:0b1111111111111111 
INFO: [Slave VIP_wr_driver] (axi_vip_pkg.axi_slv_wr_driver(C_AXI_ADDR_WIDTH=40,C_AXI_WDATA_WIDTH=128,C_AXI_RDATA_WIDTH=128,C_AXI_WID_WIDTH=16,C_AXI_RID_WIDTH=16,C_AXI_AWUSER_WIDTH=16,C_AXI_ARUSER_WIDTH=16,C_AXI_HAS_REGION=0)::w_channel.W_CHANNEL) 2135000 : W BEAT -- write_beat     Last:0 D:0x0000000000000000000000000000001e BE:0b1111111111111111 
INFO: [Slave VIP_wr_driver] (axi_vip_pkg.axi_slv_wr_driver(C_AXI_ADDR_WIDTH=40,C_AXI_WDATA_WIDTH=128,C_AXI_RDATA_WIDTH=128,C_AXI_WID_WIDTH=16,C_AXI_RID_WIDTH=16,C_AXI_AWUSER_WIDTH=16,C_AXI_ARUSER_WIDTH=16,C_AXI_HAS_REGION=0)::w_channel.W_CHANNEL) 2165000 : W BEAT -- write_beat     Last:0 D:0x0000000000000000000000000000001f BE:0b1111111111111111 
INFO: [Slave VIP_wr_driver] (axi_vip_pkg.axi_slv_wr_driver(C_AXI_ADDR_WIDTH=40,C_AXI_WDATA_WIDTH=128,C_AXI_RDATA_WIDTH=128,C_AXI_WID_WIDTH=16,C_AXI_RID_WIDTH=16,C_AXI_AWUSER_WIDTH=16,C_AXI_ARUSER_WIDTH=16,C_AXI_HAS_REGION=0)::w_channel.W_CHANNEL) 2195000 : W LAST -- write_beat     Last:1 D:0x00000000000000000000000000000020 BE:0b1111111111111111 
INFO: [Slave VIP_wr_driver] (axi_vip_pkg.axi_slv_wr_driver(C_AXI_ADDR_WIDTH=40,C_AXI_WDATA_WIDTH=128,C_AXI_RDATA_WIDTH=128,C_AXI_WID_WIDTH=16,C_AXI_RID_WIDTH=16,C_AXI_AWUSER_WIDTH=16,C_AXI_ARUSER_WIDTH=16,C_AXI_HAS_REGION=0)::push_reactive_q) 2195000 : PUSH_REACTIVE_Q: PUSH (         0) >>> XIL_AXI_WRITE (60) A:0x00000080000001c0 ID:0x0000018d len:0x03 XIL_AXI_SIZE_16BYTE XIL_AXI_BURST_TYPE_INCR C:0b0010 L:XIL_AXI_ALOCK_NOLOCK P:0b000 <<<
INFO: [Slave VIP_wr_driver] (axi_vip_pkg.axi_slv_wr_driver(C_AXI_ADDR_WIDTH=40,C_AXI_WDATA_WIDTH=128,C_AXI_RDATA_WIDTH=128,C_AXI_WID_WIDTH=16,C_AXI_RID_WIDTH=16,C_AXI_AWUSER_WIDTH=16,C_AXI_ARUSER_WIDTH=16,C_AXI_HAS_REGION=0)::pop_reactive_q) 2195000 : POP_REACTIVE_Q: (         1) >>> XIL_AXI_WRITE (60) A:0x00000080000001c0 ID:0x0000018d len:0x03 XIL_AXI_SIZE_16BYTE XIL_AXI_BURST_TYPE_INCR C:0b0010 L:XIL_AXI_ALOCK_NOLOCK P:0b000 <<<
INFO: [Slave VIP_wr_driver] (axi_vip_pkg.axi_slv_wr_driver(C_AXI_ADDR_WIDTH=40,C_AXI_WDATA_WIDTH=128,C_AXI_RDATA_WIDTH=128,C_AXI_WID_WIDTH=16,C_AXI_RID_WIDTH=16,C_AXI_AWUSER_WIDTH=16,C_AXI_ARUSER_WIDTH=16,C_AXI_HAS_REGION=0)::get_and_drive.GET_AND_DRIVE) 2195000 : GNI : XIL_AXI_WRITE (60) A:0x00000080000001c0 ID:0x0000018d len:0x03 XIL_AXI_SIZE_16BYTE XIL_AXI_BURST_TYPE_INCR C:0b0010 L:XIL_AXI_ALOCK_NOLOCK P:0b000
INFO: [Slave VIP_wr_driver] (axi_vip_pkg.axi_slv_wr_driver(C_AXI_ADDR_WIDTH=40,C_AXI_WDATA_WIDTH=128,C_AXI_RDATA_WIDTH=128,C_AXI_WID_WIDTH=16,C_AXI_RID_WIDTH=16,C_AXI_AWUSER_WIDTH=16,C_AXI_ARUSER_WIDTH=16,C_AXI_HAS_REGION=0)::push_b_q) 2195000 : B PUSH (         0)
INFO: [Slave VIP_wr_driver] (axi_vip_pkg.axi_slv_wr_driver(C_AXI_ADDR_WIDTH=40,C_AXI_WDATA_WIDTH=128,C_AXI_RDATA_WIDTH=128,C_AXI_WID_WIDTH=16,C_AXI_RID_WIDTH=16,C_AXI_AWUSER_WIDTH=16,C_AXI_ARUSER_WIDTH=16,C_AXI_HAS_REGION=0)::push_b_q) 2195000 : ID=0x0000018d - State 0b0111
Entries in BQ : NumEntries:         0 >>> 
 <<<
Command       : XIL_AXI_WRITE (60) A:0x00000080000001c0 ID:0x0000018d len:0x03 XIL_AXI_SIZE_16BYTE XIL_AXI_BURST_TYPE_INCR C:0b0010 L:XIL_AXI_ALOCK_NOLOCK P:0b000
INFO: [Slave VIP_wr_driver] (axi_vip_pkg.axi_slv_wr_driver(C_AXI_ADDR_WIDTH=40,C_AXI_WDATA_WIDTH=128,C_AXI_RDATA_WIDTH=128,C_AXI_WID_WIDTH=16,C_AXI_RID_WIDTH=16,C_AXI_AWUSER_WIDTH=16,C_AXI_ARUSER_WIDTH=16,C_AXI_HAS_REGION=0)::service_done_q.SERVICE_DONE_Q) 2215000 : SERVICE_DONE_Q: XIL_AXI_WRITE (60) A:0x00000080000001c0 ID:0x0000018d len:0x03 XIL_AXI_SIZE_16BYTE XIL_AXI_BURST_TYPE_INCR C:0b0010 L:XIL_AXI_ALOCK_NOLOCK P:0b000
INFO: [Slave VIP_wr_driver] (axi_vip_pkg.axi_slv_wr_driver(C_AXI_ADDR_WIDTH=40,C_AXI_WDATA_WIDTH=128,C_AXI_RDATA_WIDTH=128,C_AXI_WID_WIDTH=16,C_AXI_RID_WIDTH=16,C_AXI_AWUSER_WIDTH=16,C_AXI_ARUSER_WIDTH=16,C_AXI_HAS_REGION=0)::w_channel.W_CHANNEL) 2235000 : W BEAT -- write_beat     Last:0 D:0x00000000000000000000000000000021 BE:0b1111111111111111 
INFO: [Slave VIP_wr_driver] (axi_vip_pkg.axi_slv_wr_driver(C_AXI_ADDR_WIDTH=40,C_AXI_WDATA_WIDTH=128,C_AXI_RDATA_WIDTH=128,C_AXI_WID_WIDTH=16,C_AXI_RID_WIDTH=16,C_AXI_AWUSER_WIDTH=16,C_AXI_ARUSER_WIDTH=16,C_AXI_HAS_REGION=0)::aw_channel.AW_CHANNEL) 2235000 : AWVALID >>>
XIL_AXI_WRITE (65) A:0x0000008000000200 ID:0x0000018d len:0x03 XIL_AXI_SIZE_16BYTE XIL_AXI_BURST_TYPE_INCR C:0b0010 L:XIL_AXI_ALOCK_NOLOCK P:0b000<<<
INFO: [Slave VIP_wr_driver] (axi_vip_pkg.axi_slv_wr_driver(C_AXI_ADDR_WIDTH=40,C_AXI_WDATA_WIDTH=128,C_AXI_RDATA_WIDTH=128,C_AXI_WID_WIDTH=16,C_AXI_RID_WIDTH=16,C_AXI_AWUSER_WIDTH=16,C_AXI_ARUSER_WIDTH=16,C_AXI_HAS_REGION=0)::w_channel.W_CHANNEL) 2265000 : W BEAT -- write_beat     Last:0 D:0x00000000000000000000000000000022 BE:0b1111111111111111 
INFO: [Slave VIP_wr_driver] (axi_vip_pkg.axi_slv_wr_driver(C_AXI_ADDR_WIDTH=40,C_AXI_WDATA_WIDTH=128,C_AXI_RDATA_WIDTH=128,C_AXI_WID_WIDTH=16,C_AXI_RID_WIDTH=16,C_AXI_AWUSER_WIDTH=16,C_AXI_ARUSER_WIDTH=16,C_AXI_HAS_REGION=0)::w_channel.W_CHANNEL) 2295000 : W BEAT -- write_beat     Last:0 D:0x00000000000000000000000000000023 BE:0b1111111111111111 
INFO: [Slave VIP_wr_driver] (axi_vip_pkg.axi_slv_wr_driver(C_AXI_ADDR_WIDTH=40,C_AXI_WDATA_WIDTH=128,C_AXI_RDATA_WIDTH=128,C_AXI_WID_WIDTH=16,C_AXI_RID_WIDTH=16,C_AXI_AWUSER_WIDTH=16,C_AXI_ARUSER_WIDTH=16,C_AXI_HAS_REGION=0)::w_channel.W_CHANNEL) 2325000 : W LAST -- write_beat     Last:1 D:0x00000000000000000000000000000024 BE:0b1111111111111111 
INFO: [Slave VIP_wr_driver] (axi_vip_pkg.axi_slv_wr_driver(C_AXI_ADDR_WIDTH=40,C_AXI_WDATA_WIDTH=128,C_AXI_RDATA_WIDTH=128,C_AXI_WID_WIDTH=16,C_AXI_RID_WIDTH=16,C_AXI_AWUSER_WIDTH=16,C_AXI_ARUSER_WIDTH=16,C_AXI_HAS_REGION=0)::push_reactive_q) 2325000 : PUSH_REACTIVE_Q: PUSH (         0) >>> XIL_AXI_WRITE (65) A:0x0000008000000200 ID:0x0000018d len:0x03 XIL_AXI_SIZE_16BYTE XIL_AXI_BURST_TYPE_INCR C:0b0010 L:XIL_AXI_ALOCK_NOLOCK P:0b000 <<<
INFO: [Slave VIP_wr_driver] (axi_vip_pkg.axi_slv_wr_driver(C_AXI_ADDR_WIDTH=40,C_AXI_WDATA_WIDTH=128,C_AXI_RDATA_WIDTH=128,C_AXI_WID_WIDTH=16,C_AXI_RID_WIDTH=16,C_AXI_AWUSER_WIDTH=16,C_AXI_ARUSER_WIDTH=16,C_AXI_HAS_REGION=0)::pop_reactive_q) 2325000 : POP_REACTIVE_Q: (         1) >>> XIL_AXI_WRITE (65) A:0x0000008000000200 ID:0x0000018d len:0x03 XIL_AXI_SIZE_16BYTE XIL_AXI_BURST_TYPE_INCR C:0b0010 L:XIL_AXI_ALOCK_NOLOCK P:0b000 <<<
INFO: [Slave VIP_wr_driver] (axi_vip_pkg.axi_slv_wr_driver(C_AXI_ADDR_WIDTH=40,C_AXI_WDATA_WIDTH=128,C_AXI_RDATA_WIDTH=128,C_AXI_WID_WIDTH=16,C_AXI_RID_WIDTH=16,C_AXI_AWUSER_WIDTH=16,C_AXI_ARUSER_WIDTH=16,C_AXI_HAS_REGION=0)::get_and_drive.GET_AND_DRIVE) 2325000 : GNI : XIL_AXI_WRITE (65) A:0x0000008000000200 ID:0x0000018d len:0x03 XIL_AXI_SIZE_16BYTE XIL_AXI_BURST_TYPE_INCR C:0b0010 L:XIL_AXI_ALOCK_NOLOCK P:0b000
INFO: [Slave VIP_wr_driver] (axi_vip_pkg.axi_slv_wr_driver(C_AXI_ADDR_WIDTH=40,C_AXI_WDATA_WIDTH=128,C_AXI_RDATA_WIDTH=128,C_AXI_WID_WIDTH=16,C_AXI_RID_WIDTH=16,C_AXI_AWUSER_WIDTH=16,C_AXI_ARUSER_WIDTH=16,C_AXI_HAS_REGION=0)::push_b_q) 2325000 : B PUSH (         0)
INFO: [Slave VIP_wr_driver] (axi_vip_pkg.axi_slv_wr_driver(C_AXI_ADDR_WIDTH=40,C_AXI_WDATA_WIDTH=128,C_AXI_RDATA_WIDTH=128,C_AXI_WID_WIDTH=16,C_AXI_RID_WIDTH=16,C_AXI_AWUSER_WIDTH=16,C_AXI_ARUSER_WIDTH=16,C_AXI_HAS_REGION=0)::push_b_q) 2325000 : ID=0x0000018d - State 0b0111
Entries in BQ : NumEntries:         0 >>> 
 <<<
Command       : XIL_AXI_WRITE (65) A:0x0000008000000200 ID:0x0000018d len:0x03 XIL_AXI_SIZE_16BYTE XIL_AXI_BURST_TYPE_INCR C:0b0010 L:XIL_AXI_ALOCK_NOLOCK P:0b000
INFO: [Slave VIP_wr_driver] (axi_vip_pkg.axi_slv_wr_driver(C_AXI_ADDR_WIDTH=40,C_AXI_WDATA_WIDTH=128,C_AXI_RDATA_WIDTH=128,C_AXI_WID_WIDTH=16,C_AXI_RID_WIDTH=16,C_AXI_AWUSER_WIDTH=16,C_AXI_ARUSER_WIDTH=16,C_AXI_HAS_REGION=0)::service_done_q.SERVICE_DONE_Q) 2345000 : SERVICE_DONE_Q: XIL_AXI_WRITE (65) A:0x0000008000000200 ID:0x0000018d len:0x03 XIL_AXI_SIZE_16BYTE XIL_AXI_BURST_TYPE_INCR C:0b0010 L:XIL_AXI_ALOCK_NOLOCK P:0b000
INFO: [Slave VIP_wr_driver] (axi_vip_pkg.axi_slv_wr_driver(C_AXI_ADDR_WIDTH=40,C_AXI_WDATA_WIDTH=128,C_AXI_RDATA_WIDTH=128,C_AXI_WID_WIDTH=16,C_AXI_RID_WIDTH=16,C_AXI_AWUSER_WIDTH=16,C_AXI_ARUSER_WIDTH=16,C_AXI_HAS_REGION=0)::aw_channel.AW_CHANNEL) 2365000 : AWVALID >>>
XIL_AXI_WRITE (68) A:0x0000008000000240 ID:0x0000018d len:0x03 XIL_AXI_SIZE_16BYTE XIL_AXI_BURST_TYPE_INCR C:0b0010 L:XIL_AXI_ALOCK_NOLOCK P:0b000<<<
INFO: [Slave VIP_wr_driver] (axi_vip_pkg.axi_slv_wr_driver(C_AXI_ADDR_WIDTH=40,C_AXI_WDATA_WIDTH=128,C_AXI_RDATA_WIDTH=128,C_AXI_WID_WIDTH=16,C_AXI_RID_WIDTH=16,C_AXI_AWUSER_WIDTH=16,C_AXI_ARUSER_WIDTH=16,C_AXI_HAS_REGION=0)::w_channel.W_CHANNEL) 2365000 : W BEAT -- write_beat     Last:0 D:0x00000000000000000000000000000025 BE:0b1111111111111111 
INFO: [Slave VIP_wr_driver] (axi_vip_pkg.axi_slv_wr_driver(C_AXI_ADDR_WIDTH=40,C_AXI_WDATA_WIDTH=128,C_AXI_RDATA_WIDTH=128,C_AXI_WID_WIDTH=16,C_AXI_RID_WIDTH=16,C_AXI_AWUSER_WIDTH=16,C_AXI_ARUSER_WIDTH=16,C_AXI_HAS_REGION=0)::w_channel.W_CHANNEL) 2395000 : W BEAT -- write_beat     Last:0 D:0x00000000000000000000000000000026 BE:0b1111111111111111 
INFO: [Slave VIP_wr_driver] (axi_vip_pkg.axi_slv_wr_driver(C_AXI_ADDR_WIDTH=40,C_AXI_WDATA_WIDTH=128,C_AXI_RDATA_WIDTH=128,C_AXI_WID_WIDTH=16,C_AXI_RID_WIDTH=16,C_AXI_AWUSER_WIDTH=16,C_AXI_ARUSER_WIDTH=16,C_AXI_HAS_REGION=0)::w_channel.W_CHANNEL) 2425000 : W BEAT -- write_beat     Last:0 D:0x00000000000000000000000000000027 BE:0b1111111111111111 
INFO: [Slave VIP_wr_driver] (axi_vip_pkg.axi_slv_wr_driver(C_AXI_ADDR_WIDTH=40,C_AXI_WDATA_WIDTH=128,C_AXI_RDATA_WIDTH=128,C_AXI_WID_WIDTH=16,C_AXI_RID_WIDTH=16,C_AXI_AWUSER_WIDTH=16,C_AXI_ARUSER_WIDTH=16,C_AXI_HAS_REGION=0)::w_channel.W_CHANNEL) 2455000 : W LAST -- write_beat     Last:1 D:0x00000000000000000000000000000028 BE:0b1111111111111111 
INFO: [Slave VIP_wr_driver] (axi_vip_pkg.axi_slv_wr_driver(C_AXI_ADDR_WIDTH=40,C_AXI_WDATA_WIDTH=128,C_AXI_RDATA_WIDTH=128,C_AXI_WID_WIDTH=16,C_AXI_RID_WIDTH=16,C_AXI_AWUSER_WIDTH=16,C_AXI_ARUSER_WIDTH=16,C_AXI_HAS_REGION=0)::push_reactive_q) 2455000 : PUSH_REACTIVE_Q: PUSH (         0) >>> XIL_AXI_WRITE (68) A:0x0000008000000240 ID:0x0000018d len:0x03 XIL_AXI_SIZE_16BYTE XIL_AXI_BURST_TYPE_INCR C:0b0010 L:XIL_AXI_ALOCK_NOLOCK P:0b000 <<<
INFO: [Slave VIP_wr_driver] (axi_vip_pkg.axi_slv_wr_driver(C_AXI_ADDR_WIDTH=40,C_AXI_WDATA_WIDTH=128,C_AXI_RDATA_WIDTH=128,C_AXI_WID_WIDTH=16,C_AXI_RID_WIDTH=16,C_AXI_AWUSER_WIDTH=16,C_AXI_ARUSER_WIDTH=16,C_AXI_HAS_REGION=0)::pop_reactive_q) 2455000 : POP_REACTIVE_Q: (         1) >>> XIL_AXI_WRITE (68) A:0x0000008000000240 ID:0x0000018d len:0x03 XIL_AXI_SIZE_16BYTE XIL_AXI_BURST_TYPE_INCR C:0b0010 L:XIL_AXI_ALOCK_NOLOCK P:0b000 <<<
INFO: [Slave VIP_wr_driver] (axi_vip_pkg.axi_slv_wr_driver(C_AXI_ADDR_WIDTH=40,C_AXI_WDATA_WIDTH=128,C_AXI_RDATA_WIDTH=128,C_AXI_WID_WIDTH=16,C_AXI_RID_WIDTH=16,C_AXI_AWUSER_WIDTH=16,C_AXI_ARUSER_WIDTH=16,C_AXI_HAS_REGION=0)::get_and_drive.GET_AND_DRIVE) 2455000 : GNI : XIL_AXI_WRITE (68) A:0x0000008000000240 ID:0x0000018d len:0x03 XIL_AXI_SIZE_16BYTE XIL_AXI_BURST_TYPE_INCR C:0b0010 L:XIL_AXI_ALOCK_NOLOCK P:0b000
INFO: [Slave VIP_wr_driver] (axi_vip_pkg.axi_slv_wr_driver(C_AXI_ADDR_WIDTH=40,C_AXI_WDATA_WIDTH=128,C_AXI_RDATA_WIDTH=128,C_AXI_WID_WIDTH=16,C_AXI_RID_WIDTH=16,C_AXI_AWUSER_WIDTH=16,C_AXI_ARUSER_WIDTH=16,C_AXI_HAS_REGION=0)::push_b_q) 2455000 : B PUSH (         0)
INFO: [Slave VIP_wr_driver] (axi_vip_pkg.axi_slv_wr_driver(C_AXI_ADDR_WIDTH=40,C_AXI_WDATA_WIDTH=128,C_AXI_RDATA_WIDTH=128,C_AXI_WID_WIDTH=16,C_AXI_RID_WIDTH=16,C_AXI_AWUSER_WIDTH=16,C_AXI_ARUSER_WIDTH=16,C_AXI_HAS_REGION=0)::push_b_q) 2455000 : ID=0x0000018d - State 0b0111
Entries in BQ : NumEntries:         0 >>> 
 <<<
Command       : XIL_AXI_WRITE (68) A:0x0000008000000240 ID:0x0000018d len:0x03 XIL_AXI_SIZE_16BYTE XIL_AXI_BURST_TYPE_INCR C:0b0010 L:XIL_AXI_ALOCK_NOLOCK P:0b000
INFO: [Slave VIP_wr_driver] (axi_vip_pkg.axi_slv_wr_driver(C_AXI_ADDR_WIDTH=40,C_AXI_WDATA_WIDTH=128,C_AXI_RDATA_WIDTH=128,C_AXI_WID_WIDTH=16,C_AXI_RID_WIDTH=16,C_AXI_AWUSER_WIDTH=16,C_AXI_ARUSER_WIDTH=16,C_AXI_HAS_REGION=0)::service_done_q.SERVICE_DONE_Q) 2475000 : SERVICE_DONE_Q: XIL_AXI_WRITE (68) A:0x0000008000000240 ID:0x0000018d len:0x03 XIL_AXI_SIZE_16BYTE XIL_AXI_BURST_TYPE_INCR C:0b0010 L:XIL_AXI_ALOCK_NOLOCK P:0b000
INFO: [Slave VIP_wr_driver] (axi_vip_pkg.axi_slv_wr_driver(C_AXI_ADDR_WIDTH=40,C_AXI_WDATA_WIDTH=128,C_AXI_RDATA_WIDTH=128,C_AXI_WID_WIDTH=16,C_AXI_RID_WIDTH=16,C_AXI_AWUSER_WIDTH=16,C_AXI_ARUSER_WIDTH=16,C_AXI_HAS_REGION=0)::w_channel.W_CHANNEL) 2495000 : W BEAT -- write_beat     Last:0 D:0x00000000000000000000000000000029 BE:0b1111111111111111 
INFO: [Slave VIP_wr_driver] (axi_vip_pkg.axi_slv_wr_driver(C_AXI_ADDR_WIDTH=40,C_AXI_WDATA_WIDTH=128,C_AXI_RDATA_WIDTH=128,C_AXI_WID_WIDTH=16,C_AXI_RID_WIDTH=16,C_AXI_AWUSER_WIDTH=16,C_AXI_ARUSER_WIDTH=16,C_AXI_HAS_REGION=0)::aw_channel.AW_CHANNEL) 2495000 : AWVALID >>>
XIL_AXI_WRITE (73) A:0x0000008000000280 ID:0x0000018d len:0x03 XIL_AXI_SIZE_16BYTE XIL_AXI_BURST_TYPE_INCR C:0b0010 L:XIL_AXI_ALOCK_NOLOCK P:0b000<<<
INFO: [Slave VIP_wr_driver] (axi_vip_pkg.axi_slv_wr_driver(C_AXI_ADDR_WIDTH=40,C_AXI_WDATA_WIDTH=128,C_AXI_RDATA_WIDTH=128,C_AXI_WID_WIDTH=16,C_AXI_RID_WIDTH=16,C_AXI_AWUSER_WIDTH=16,C_AXI_ARUSER_WIDTH=16,C_AXI_HAS_REGION=0)::w_channel.W_CHANNEL) 2525000 : W BEAT -- write_beat     Last:0 D:0x0000000000000000000000000000002a BE:0b1111111111111111 
INFO: [Slave VIP_wr_driver] (axi_vip_pkg.axi_slv_wr_driver(C_AXI_ADDR_WIDTH=40,C_AXI_WDATA_WIDTH=128,C_AXI_RDATA_WIDTH=128,C_AXI_WID_WIDTH=16,C_AXI_RID_WIDTH=16,C_AXI_AWUSER_WIDTH=16,C_AXI_ARUSER_WIDTH=16,C_AXI_HAS_REGION=0)::w_channel.W_CHANNEL) 2555000 : W BEAT -- write_beat     Last:0 D:0x0000000000000000000000000000002b BE:0b1111111111111111 
INFO: [Slave VIP_wr_driver] (axi_vip_pkg.axi_slv_wr_driver(C_AXI_ADDR_WIDTH=40,C_AXI_WDATA_WIDTH=128,C_AXI_RDATA_WIDTH=128,C_AXI_WID_WIDTH=16,C_AXI_RID_WIDTH=16,C_AXI_AWUSER_WIDTH=16,C_AXI_ARUSER_WIDTH=16,C_AXI_HAS_REGION=0)::w_channel.W_CHANNEL) 2585000 : W LAST -- write_beat     Last:1 D:0x0000000000000000000000000000002c BE:0b1111111111111111 
INFO: [Slave VIP_wr_driver] (axi_vip_pkg.axi_slv_wr_driver(C_AXI_ADDR_WIDTH=40,C_AXI_WDATA_WIDTH=128,C_AXI_RDATA_WIDTH=128,C_AXI_WID_WIDTH=16,C_AXI_RID_WIDTH=16,C_AXI_AWUSER_WIDTH=16,C_AXI_ARUSER_WIDTH=16,C_AXI_HAS_REGION=0)::push_reactive_q) 2585000 : PUSH_REACTIVE_Q: PUSH (         0) >>> XIL_AXI_WRITE (73) A:0x0000008000000280 ID:0x0000018d len:0x03 XIL_AXI_SIZE_16BYTE XIL_AXI_BURST_TYPE_INCR C:0b0010 L:XIL_AXI_ALOCK_NOLOCK P:0b000 <<<
INFO: [Slave VIP_wr_driver] (axi_vip_pkg.axi_slv_wr_driver(C_AXI_ADDR_WIDTH=40,C_AXI_WDATA_WIDTH=128,C_AXI_RDATA_WIDTH=128,C_AXI_WID_WIDTH=16,C_AXI_RID_WIDTH=16,C_AXI_AWUSER_WIDTH=16,C_AXI_ARUSER_WIDTH=16,C_AXI_HAS_REGION=0)::pop_reactive_q) 2585000 : POP_REACTIVE_Q: (         1) >>> XIL_AXI_WRITE (73) A:0x0000008000000280 ID:0x0000018d len:0x03 XIL_AXI_SIZE_16BYTE XIL_AXI_BURST_TYPE_INCR C:0b0010 L:XIL_AXI_ALOCK_NOLOCK P:0b000 <<<
INFO: [Slave VIP_wr_driver] (axi_vip_pkg.axi_slv_wr_driver(C_AXI_ADDR_WIDTH=40,C_AXI_WDATA_WIDTH=128,C_AXI_RDATA_WIDTH=128,C_AXI_WID_WIDTH=16,C_AXI_RID_WIDTH=16,C_AXI_AWUSER_WIDTH=16,C_AXI_ARUSER_WIDTH=16,C_AXI_HAS_REGION=0)::get_and_drive.GET_AND_DRIVE) 2585000 : GNI : XIL_AXI_WRITE (73) A:0x0000008000000280 ID:0x0000018d len:0x03 XIL_AXI_SIZE_16BYTE XIL_AXI_BURST_TYPE_INCR C:0b0010 L:XIL_AXI_ALOCK_NOLOCK P:0b000
INFO: [Slave VIP_wr_driver] (axi_vip_pkg.axi_slv_wr_driver(C_AXI_ADDR_WIDTH=40,C_AXI_WDATA_WIDTH=128,C_AXI_RDATA_WIDTH=128,C_AXI_WID_WIDTH=16,C_AXI_RID_WIDTH=16,C_AXI_AWUSER_WIDTH=16,C_AXI_ARUSER_WIDTH=16,C_AXI_HAS_REGION=0)::push_b_q) 2585000 : B PUSH (         0)
INFO: [Slave VIP_wr_driver] (axi_vip_pkg.axi_slv_wr_driver(C_AXI_ADDR_WIDTH=40,C_AXI_WDATA_WIDTH=128,C_AXI_RDATA_WIDTH=128,C_AXI_WID_WIDTH=16,C_AXI_RID_WIDTH=16,C_AXI_AWUSER_WIDTH=16,C_AXI_ARUSER_WIDTH=16,C_AXI_HAS_REGION=0)::push_b_q) 2585000 : ID=0x0000018d - State 0b0111
Entries in BQ : NumEntries:         0 >>> 
 <<<
Command       : XIL_AXI_WRITE (73) A:0x0000008000000280 ID:0x0000018d len:0x03 XIL_AXI_SIZE_16BYTE XIL_AXI_BURST_TYPE_INCR C:0b0010 L:XIL_AXI_ALOCK_NOLOCK P:0b000
INFO: [Slave VIP_wr_driver] (axi_vip_pkg.axi_slv_wr_driver(C_AXI_ADDR_WIDTH=40,C_AXI_WDATA_WIDTH=128,C_AXI_RDATA_WIDTH=128,C_AXI_WID_WIDTH=16,C_AXI_RID_WIDTH=16,C_AXI_AWUSER_WIDTH=16,C_AXI_ARUSER_WIDTH=16,C_AXI_HAS_REGION=0)::service_done_q.SERVICE_DONE_Q) 2605000 : SERVICE_DONE_Q: XIL_AXI_WRITE (73) A:0x0000008000000280 ID:0x0000018d len:0x03 XIL_AXI_SIZE_16BYTE XIL_AXI_BURST_TYPE_INCR C:0b0010 L:XIL_AXI_ALOCK_NOLOCK P:0b000
INFO: [Slave VIP_wr_driver] (axi_vip_pkg.axi_slv_wr_driver(C_AXI_ADDR_WIDTH=40,C_AXI_WDATA_WIDTH=128,C_AXI_RDATA_WIDTH=128,C_AXI_WID_WIDTH=16,C_AXI_RID_WIDTH=16,C_AXI_AWUSER_WIDTH=16,C_AXI_ARUSER_WIDTH=16,C_AXI_HAS_REGION=0)::aw_channel.AW_CHANNEL) 2625000 : AWVALID >>>
XIL_AXI_WRITE (76) A:0x00000080000002c0 ID:0x0000018d len:0x03 XIL_AXI_SIZE_16BYTE XIL_AXI_BURST_TYPE_INCR C:0b0010 L:XIL_AXI_ALOCK_NOLOCK P:0b000<<<
INFO: [Slave VIP_wr_driver] (axi_vip_pkg.axi_slv_wr_driver(C_AXI_ADDR_WIDTH=40,C_AXI_WDATA_WIDTH=128,C_AXI_RDATA_WIDTH=128,C_AXI_WID_WIDTH=16,C_AXI_RID_WIDTH=16,C_AXI_AWUSER_WIDTH=16,C_AXI_ARUSER_WIDTH=16,C_AXI_HAS_REGION=0)::w_channel.W_CHANNEL) 2625000 : W BEAT -- write_beat     Last:0 D:0x0000000000000000000000000000002d BE:0b1111111111111111 
INFO: [Slave VIP_wr_driver] (axi_vip_pkg.axi_slv_wr_driver(C_AXI_ADDR_WIDTH=40,C_AXI_WDATA_WIDTH=128,C_AXI_RDATA_WIDTH=128,C_AXI_WID_WIDTH=16,C_AXI_RID_WIDTH=16,C_AXI_AWUSER_WIDTH=16,C_AXI_ARUSER_WIDTH=16,C_AXI_HAS_REGION=0)::w_channel.W_CHANNEL) 2655000 : W BEAT -- write_beat     Last:0 D:0x0000000000000000000000000000002e BE:0b1111111111111111 
INFO: [Slave VIP_wr_driver] (axi_vip_pkg.axi_slv_wr_driver(C_AXI_ADDR_WIDTH=40,C_AXI_WDATA_WIDTH=128,C_AXI_RDATA_WIDTH=128,C_AXI_WID_WIDTH=16,C_AXI_RID_WIDTH=16,C_AXI_AWUSER_WIDTH=16,C_AXI_ARUSER_WIDTH=16,C_AXI_HAS_REGION=0)::w_channel.W_CHANNEL) 2685000 : W BEAT -- write_beat     Last:0 D:0x0000000000000000000000000000002f BE:0b1111111111111111 
INFO: [Slave VIP_wr_driver] (axi_vip_pkg.axi_slv_wr_driver(C_AXI_ADDR_WIDTH=40,C_AXI_WDATA_WIDTH=128,C_AXI_RDATA_WIDTH=128,C_AXI_WID_WIDTH=16,C_AXI_RID_WIDTH=16,C_AXI_AWUSER_WIDTH=16,C_AXI_ARUSER_WIDTH=16,C_AXI_HAS_REGION=0)::w_channel.W_CHANNEL) 2715000 : W LAST -- write_beat     Last:1 D:0x00000000000000000000000000000030 BE:0b1111111111111111 
INFO: [Slave VIP_wr_driver] (axi_vip_pkg.axi_slv_wr_driver(C_AXI_ADDR_WIDTH=40,C_AXI_WDATA_WIDTH=128,C_AXI_RDATA_WIDTH=128,C_AXI_WID_WIDTH=16,C_AXI_RID_WIDTH=16,C_AXI_AWUSER_WIDTH=16,C_AXI_ARUSER_WIDTH=16,C_AXI_HAS_REGION=0)::push_reactive_q) 2715000 : PUSH_REACTIVE_Q: PUSH (         0) >>> XIL_AXI_WRITE (76) A:0x00000080000002c0 ID:0x0000018d len:0x03 XIL_AXI_SIZE_16BYTE XIL_AXI_BURST_TYPE_INCR C:0b0010 L:XIL_AXI_ALOCK_NOLOCK P:0b000 <<<
INFO: [Slave VIP_wr_driver] (axi_vip_pkg.axi_slv_wr_driver(C_AXI_ADDR_WIDTH=40,C_AXI_WDATA_WIDTH=128,C_AXI_RDATA_WIDTH=128,C_AXI_WID_WIDTH=16,C_AXI_RID_WIDTH=16,C_AXI_AWUSER_WIDTH=16,C_AXI_ARUSER_WIDTH=16,C_AXI_HAS_REGION=0)::pop_reactive_q) 2715000 : POP_REACTIVE_Q: (         1) >>> XIL_AXI_WRITE (76) A:0x00000080000002c0 ID:0x0000018d len:0x03 XIL_AXI_SIZE_16BYTE XIL_AXI_BURST_TYPE_INCR C:0b0010 L:XIL_AXI_ALOCK_NOLOCK P:0b000 <<<
INFO: [Slave VIP_wr_driver] (axi_vip_pkg.axi_slv_wr_driver(C_AXI_ADDR_WIDTH=40,C_AXI_WDATA_WIDTH=128,C_AXI_RDATA_WIDTH=128,C_AXI_WID_WIDTH=16,C_AXI_RID_WIDTH=16,C_AXI_AWUSER_WIDTH=16,C_AXI_ARUSER_WIDTH=16,C_AXI_HAS_REGION=0)::get_and_drive.GET_AND_DRIVE) 2715000 : GNI : XIL_AXI_WRITE (76) A:0x00000080000002c0 ID:0x0000018d len:0x03 XIL_AXI_SIZE_16BYTE XIL_AXI_BURST_TYPE_INCR C:0b0010 L:XIL_AXI_ALOCK_NOLOCK P:0b000
INFO: [Slave VIP_wr_driver] (axi_vip_pkg.axi_slv_wr_driver(C_AXI_ADDR_WIDTH=40,C_AXI_WDATA_WIDTH=128,C_AXI_RDATA_WIDTH=128,C_AXI_WID_WIDTH=16,C_AXI_RID_WIDTH=16,C_AXI_AWUSER_WIDTH=16,C_AXI_ARUSER_WIDTH=16,C_AXI_HAS_REGION=0)::push_b_q) 2715000 : B PUSH (         0)
INFO: [Slave VIP_wr_driver] (axi_vip_pkg.axi_slv_wr_driver(C_AXI_ADDR_WIDTH=40,C_AXI_WDATA_WIDTH=128,C_AXI_RDATA_WIDTH=128,C_AXI_WID_WIDTH=16,C_AXI_RID_WIDTH=16,C_AXI_AWUSER_WIDTH=16,C_AXI_ARUSER_WIDTH=16,C_AXI_HAS_REGION=0)::push_b_q) 2715000 : ID=0x0000018d - State 0b0111
Entries in BQ : NumEntries:         0 >>> 
 <<<
Command       : XIL_AXI_WRITE (76) A:0x00000080000002c0 ID:0x0000018d len:0x03 XIL_AXI_SIZE_16BYTE XIL_AXI_BURST_TYPE_INCR C:0b0010 L:XIL_AXI_ALOCK_NOLOCK P:0b000
INFO: [Slave VIP_wr_driver] (axi_vip_pkg.axi_slv_wr_driver(C_AXI_ADDR_WIDTH=40,C_AXI_WDATA_WIDTH=128,C_AXI_RDATA_WIDTH=128,C_AXI_WID_WIDTH=16,C_AXI_RID_WIDTH=16,C_AXI_AWUSER_WIDTH=16,C_AXI_ARUSER_WIDTH=16,C_AXI_HAS_REGION=0)::service_done_q.SERVICE_DONE_Q) 2735000 : SERVICE_DONE_Q: XIL_AXI_WRITE (76) A:0x00000080000002c0 ID:0x0000018d len:0x03 XIL_AXI_SIZE_16BYTE XIL_AXI_BURST_TYPE_INCR C:0b0010 L:XIL_AXI_ALOCK_NOLOCK P:0b000
INFO: [Slave VIP_wr_driver] (axi_vip_pkg.axi_slv_wr_driver(C_AXI_ADDR_WIDTH=40,C_AXI_WDATA_WIDTH=128,C_AXI_RDATA_WIDTH=128,C_AXI_WID_WIDTH=16,C_AXI_RID_WIDTH=16,C_AXI_AWUSER_WIDTH=16,C_AXI_ARUSER_WIDTH=16,C_AXI_HAS_REGION=0)::w_channel.W_CHANNEL) 2755000 : W BEAT -- write_beat     Last:0 D:0x00000000000000000000000000000031 BE:0b1111111111111111 
INFO: [Slave VIP_wr_driver] (axi_vip_pkg.axi_slv_wr_driver(C_AXI_ADDR_WIDTH=40,C_AXI_WDATA_WIDTH=128,C_AXI_RDATA_WIDTH=128,C_AXI_WID_WIDTH=16,C_AXI_RID_WIDTH=16,C_AXI_AWUSER_WIDTH=16,C_AXI_ARUSER_WIDTH=16,C_AXI_HAS_REGION=0)::aw_channel.AW_CHANNEL) 2755000 : AWVALID >>>
XIL_AXI_WRITE (81) A:0x0000008000000300 ID:0x0000018d len:0x03 XIL_AXI_SIZE_16BYTE XIL_AXI_BURST_TYPE_INCR C:0b0010 L:XIL_AXI_ALOCK_NOLOCK P:0b000<<<
INFO: [Slave VIP_wr_driver] (axi_vip_pkg.axi_slv_wr_driver(C_AXI_ADDR_WIDTH=40,C_AXI_WDATA_WIDTH=128,C_AXI_RDATA_WIDTH=128,C_AXI_WID_WIDTH=16,C_AXI_RID_WIDTH=16,C_AXI_AWUSER_WIDTH=16,C_AXI_ARUSER_WIDTH=16,C_AXI_HAS_REGION=0)::w_channel.W_CHANNEL) 2785000 : W BEAT -- write_beat     Last:0 D:0x00000000000000000000000000000032 BE:0b1111111111111111 
INFO: [Slave VIP_wr_driver] (axi_vip_pkg.axi_slv_wr_driver(C_AXI_ADDR_WIDTH=40,C_AXI_WDATA_WIDTH=128,C_AXI_RDATA_WIDTH=128,C_AXI_WID_WIDTH=16,C_AXI_RID_WIDTH=16,C_AXI_AWUSER_WIDTH=16,C_AXI_ARUSER_WIDTH=16,C_AXI_HAS_REGION=0)::w_channel.W_CHANNEL) 2815000 : W BEAT -- write_beat     Last:0 D:0x00000000000000000000000000000033 BE:0b1111111111111111 
INFO: [Slave VIP_wr_driver] (axi_vip_pkg.axi_slv_wr_driver(C_AXI_ADDR_WIDTH=40,C_AXI_WDATA_WIDTH=128,C_AXI_RDATA_WIDTH=128,C_AXI_WID_WIDTH=16,C_AXI_RID_WIDTH=16,C_AXI_AWUSER_WIDTH=16,C_AXI_ARUSER_WIDTH=16,C_AXI_HAS_REGION=0)::w_channel.W_CHANNEL) 2845000 : W LAST -- write_beat     Last:1 D:0x00000000000000000000000000000034 BE:0b1111111111111111 
INFO: [Slave VIP_wr_driver] (axi_vip_pkg.axi_slv_wr_driver(C_AXI_ADDR_WIDTH=40,C_AXI_WDATA_WIDTH=128,C_AXI_RDATA_WIDTH=128,C_AXI_WID_WIDTH=16,C_AXI_RID_WIDTH=16,C_AXI_AWUSER_WIDTH=16,C_AXI_ARUSER_WIDTH=16,C_AXI_HAS_REGION=0)::push_reactive_q) 2845000 : PUSH_REACTIVE_Q: PUSH (         0) >>> XIL_AXI_WRITE (81) A:0x0000008000000300 ID:0x0000018d len:0x03 XIL_AXI_SIZE_16BYTE XIL_AXI_BURST_TYPE_INCR C:0b0010 L:XIL_AXI_ALOCK_NOLOCK P:0b000 <<<
INFO: [Slave VIP_wr_driver] (axi_vip_pkg.axi_slv_wr_driver(C_AXI_ADDR_WIDTH=40,C_AXI_WDATA_WIDTH=128,C_AXI_RDATA_WIDTH=128,C_AXI_WID_WIDTH=16,C_AXI_RID_WIDTH=16,C_AXI_AWUSER_WIDTH=16,C_AXI_ARUSER_WIDTH=16,C_AXI_HAS_REGION=0)::pop_reactive_q) 2845000 : POP_REACTIVE_Q: (         1) >>> XIL_AXI_WRITE (81) A:0x0000008000000300 ID:0x0000018d len:0x03 XIL_AXI_SIZE_16BYTE XIL_AXI_BURST_TYPE_INCR C:0b0010 L:XIL_AXI_ALOCK_NOLOCK P:0b000 <<<
INFO: [Slave VIP_wr_driver] (axi_vip_pkg.axi_slv_wr_driver(C_AXI_ADDR_WIDTH=40,C_AXI_WDATA_WIDTH=128,C_AXI_RDATA_WIDTH=128,C_AXI_WID_WIDTH=16,C_AXI_RID_WIDTH=16,C_AXI_AWUSER_WIDTH=16,C_AXI_ARUSER_WIDTH=16,C_AXI_HAS_REGION=0)::get_and_drive.GET_AND_DRIVE) 2845000 : GNI : XIL_AXI_WRITE (81) A:0x0000008000000300 ID:0x0000018d len:0x03 XIL_AXI_SIZE_16BYTE XIL_AXI_BURST_TYPE_INCR C:0b0010 L:XIL_AXI_ALOCK_NOLOCK P:0b000
INFO: [Slave VIP_wr_driver] (axi_vip_pkg.axi_slv_wr_driver(C_AXI_ADDR_WIDTH=40,C_AXI_WDATA_WIDTH=128,C_AXI_RDATA_WIDTH=128,C_AXI_WID_WIDTH=16,C_AXI_RID_WIDTH=16,C_AXI_AWUSER_WIDTH=16,C_AXI_ARUSER_WIDTH=16,C_AXI_HAS_REGION=0)::push_b_q) 2845000 : B PUSH (         0)
INFO: [Slave VIP_wr_driver] (axi_vip_pkg.axi_slv_wr_driver(C_AXI_ADDR_WIDTH=40,C_AXI_WDATA_WIDTH=128,C_AXI_RDATA_WIDTH=128,C_AXI_WID_WIDTH=16,C_AXI_RID_WIDTH=16,C_AXI_AWUSER_WIDTH=16,C_AXI_ARUSER_WIDTH=16,C_AXI_HAS_REGION=0)::push_b_q) 2845000 : ID=0x0000018d - State 0b0111
Entries in BQ : NumEntries:         0 >>> 
 <<<
Command       : XIL_AXI_WRITE (81) A:0x0000008000000300 ID:0x0000018d len:0x03 XIL_AXI_SIZE_16BYTE XIL_AXI_BURST_TYPE_INCR C:0b0010 L:XIL_AXI_ALOCK_NOLOCK P:0b000
INFO: [Slave VIP_wr_driver] (axi_vip_pkg.axi_slv_wr_driver(C_AXI_ADDR_WIDTH=40,C_AXI_WDATA_WIDTH=128,C_AXI_RDATA_WIDTH=128,C_AXI_WID_WIDTH=16,C_AXI_RID_WIDTH=16,C_AXI_AWUSER_WIDTH=16,C_AXI_ARUSER_WIDTH=16,C_AXI_HAS_REGION=0)::service_done_q.SERVICE_DONE_Q) 2865000 : SERVICE_DONE_Q: XIL_AXI_WRITE (81) A:0x0000008000000300 ID:0x0000018d len:0x03 XIL_AXI_SIZE_16BYTE XIL_AXI_BURST_TYPE_INCR C:0b0010 L:XIL_AXI_ALOCK_NOLOCK P:0b000
INFO: [Slave VIP_wr_driver] (axi_vip_pkg.axi_slv_wr_driver(C_AXI_ADDR_WIDTH=40,C_AXI_WDATA_WIDTH=128,C_AXI_RDATA_WIDTH=128,C_AXI_WID_WIDTH=16,C_AXI_RID_WIDTH=16,C_AXI_AWUSER_WIDTH=16,C_AXI_ARUSER_WIDTH=16,C_AXI_HAS_REGION=0)::aw_channel.AW_CHANNEL) 2885000 : AWVALID >>>
XIL_AXI_WRITE (84) A:0x0000008000000340 ID:0x0000018d len:0x03 XIL_AXI_SIZE_16BYTE XIL_AXI_BURST_TYPE_INCR C:0b0010 L:XIL_AXI_ALOCK_NOLOCK P:0b000<<<
INFO: [Slave VIP_wr_driver] (axi_vip_pkg.axi_slv_wr_driver(C_AXI_ADDR_WIDTH=40,C_AXI_WDATA_WIDTH=128,C_AXI_RDATA_WIDTH=128,C_AXI_WID_WIDTH=16,C_AXI_RID_WIDTH=16,C_AXI_AWUSER_WIDTH=16,C_AXI_ARUSER_WIDTH=16,C_AXI_HAS_REGION=0)::w_channel.W_CHANNEL) 2885000 : W BEAT -- write_beat     Last:0 D:0x00000000000000000000000000000035 BE:0b1111111111111111 
INFO: [Slave VIP_wr_driver] (axi_vip_pkg.axi_slv_wr_driver(C_AXI_ADDR_WIDTH=40,C_AXI_WDATA_WIDTH=128,C_AXI_RDATA_WIDTH=128,C_AXI_WID_WIDTH=16,C_AXI_RID_WIDTH=16,C_AXI_AWUSER_WIDTH=16,C_AXI_ARUSER_WIDTH=16,C_AXI_HAS_REGION=0)::w_channel.W_CHANNEL) 2915000 : W BEAT -- write_beat     Last:0 D:0x00000000000000000000000000000036 BE:0b1111111111111111 
INFO: [Slave VIP_wr_driver] (axi_vip_pkg.axi_slv_wr_driver(C_AXI_ADDR_WIDTH=40,C_AXI_WDATA_WIDTH=128,C_AXI_RDATA_WIDTH=128,C_AXI_WID_WIDTH=16,C_AXI_RID_WIDTH=16,C_AXI_AWUSER_WIDTH=16,C_AXI_ARUSER_WIDTH=16,C_AXI_HAS_REGION=0)::w_channel.W_CHANNEL) 2945000 : W BEAT -- write_beat     Last:0 D:0x00000000000000000000000000000037 BE:0b1111111111111111 
INFO: [Slave VIP_wr_driver] (axi_vip_pkg.axi_slv_wr_driver(C_AXI_ADDR_WIDTH=40,C_AXI_WDATA_WIDTH=128,C_AXI_RDATA_WIDTH=128,C_AXI_WID_WIDTH=16,C_AXI_RID_WIDTH=16,C_AXI_AWUSER_WIDTH=16,C_AXI_ARUSER_WIDTH=16,C_AXI_HAS_REGION=0)::w_channel.W_CHANNEL) 2975000 : W LAST -- write_beat     Last:1 D:0x00000000000000000000000000000038 BE:0b1111111111111111 
INFO: [Slave VIP_wr_driver] (axi_vip_pkg.axi_slv_wr_driver(C_AXI_ADDR_WIDTH=40,C_AXI_WDATA_WIDTH=128,C_AXI_RDATA_WIDTH=128,C_AXI_WID_WIDTH=16,C_AXI_RID_WIDTH=16,C_AXI_AWUSER_WIDTH=16,C_AXI_ARUSER_WIDTH=16,C_AXI_HAS_REGION=0)::push_reactive_q) 2975000 : PUSH_REACTIVE_Q: PUSH (         0) >>> XIL_AXI_WRITE (84) A:0x0000008000000340 ID:0x0000018d len:0x03 XIL_AXI_SIZE_16BYTE XIL_AXI_BURST_TYPE_INCR C:0b0010 L:XIL_AXI_ALOCK_NOLOCK P:0b000 <<<
INFO: [Slave VIP_wr_driver] (axi_vip_pkg.axi_slv_wr_driver(C_AXI_ADDR_WIDTH=40,C_AXI_WDATA_WIDTH=128,C_AXI_RDATA_WIDTH=128,C_AXI_WID_WIDTH=16,C_AXI_RID_WIDTH=16,C_AXI_AWUSER_WIDTH=16,C_AXI_ARUSER_WIDTH=16,C_AXI_HAS_REGION=0)::pop_reactive_q) 2975000 : POP_REACTIVE_Q: (         1) >>> XIL_AXI_WRITE (84) A:0x0000008000000340 ID:0x0000018d len:0x03 XIL_AXI_SIZE_16BYTE XIL_AXI_BURST_TYPE_INCR C:0b0010 L:XIL_AXI_ALOCK_NOLOCK P:0b000 <<<
INFO: [Slave VIP_wr_driver] (axi_vip_pkg.axi_slv_wr_driver(C_AXI_ADDR_WIDTH=40,C_AXI_WDATA_WIDTH=128,C_AXI_RDATA_WIDTH=128,C_AXI_WID_WIDTH=16,C_AXI_RID_WIDTH=16,C_AXI_AWUSER_WIDTH=16,C_AXI_ARUSER_WIDTH=16,C_AXI_HAS_REGION=0)::get_and_drive.GET_AND_DRIVE) 2975000 : GNI : XIL_AXI_WRITE (84) A:0x0000008000000340 ID:0x0000018d len:0x03 XIL_AXI_SIZE_16BYTE XIL_AXI_BURST_TYPE_INCR C:0b0010 L:XIL_AXI_ALOCK_NOLOCK P:0b000
INFO: [Slave VIP_wr_driver] (axi_vip_pkg.axi_slv_wr_driver(C_AXI_ADDR_WIDTH=40,C_AXI_WDATA_WIDTH=128,C_AXI_RDATA_WIDTH=128,C_AXI_WID_WIDTH=16,C_AXI_RID_WIDTH=16,C_AXI_AWUSER_WIDTH=16,C_AXI_ARUSER_WIDTH=16,C_AXI_HAS_REGION=0)::push_b_q) 2975000 : B PUSH (         0)
INFO: [Slave VIP_wr_driver] (axi_vip_pkg.axi_slv_wr_driver(C_AXI_ADDR_WIDTH=40,C_AXI_WDATA_WIDTH=128,C_AXI_RDATA_WIDTH=128,C_AXI_WID_WIDTH=16,C_AXI_RID_WIDTH=16,C_AXI_AWUSER_WIDTH=16,C_AXI_ARUSER_WIDTH=16,C_AXI_HAS_REGION=0)::push_b_q) 2975000 : ID=0x0000018d - State 0b0111
Entries in BQ : NumEntries:         0 >>> 
 <<<
Command       : XIL_AXI_WRITE (84) A:0x0000008000000340 ID:0x0000018d len:0x03 XIL_AXI_SIZE_16BYTE XIL_AXI_BURST_TYPE_INCR C:0b0010 L:XIL_AXI_ALOCK_NOLOCK P:0b000
INFO: [Slave VIP_wr_driver] (axi_vip_pkg.axi_slv_wr_driver(C_AXI_ADDR_WIDTH=40,C_AXI_WDATA_WIDTH=128,C_AXI_RDATA_WIDTH=128,C_AXI_WID_WIDTH=16,C_AXI_RID_WIDTH=16,C_AXI_AWUSER_WIDTH=16,C_AXI_ARUSER_WIDTH=16,C_AXI_HAS_REGION=0)::service_done_q.SERVICE_DONE_Q) 2995000 : SERVICE_DONE_Q: XIL_AXI_WRITE (84) A:0x0000008000000340 ID:0x0000018d len:0x03 XIL_AXI_SIZE_16BYTE XIL_AXI_BURST_TYPE_INCR C:0b0010 L:XIL_AXI_ALOCK_NOLOCK P:0b000
INFO: [Slave VIP_wr_driver] (axi_vip_pkg.axi_slv_wr_driver(C_AXI_ADDR_WIDTH=40,C_AXI_WDATA_WIDTH=128,C_AXI_RDATA_WIDTH=128,C_AXI_WID_WIDTH=16,C_AXI_RID_WIDTH=16,C_AXI_AWUSER_WIDTH=16,C_AXI_ARUSER_WIDTH=16,C_AXI_HAS_REGION=0)::w_channel.W_CHANNEL) 3015000 : W BEAT -- write_beat     Last:0 D:0x00000000000000000000000000000039 BE:0b1111111111111111 
INFO: [Slave VIP_wr_driver] (axi_vip_pkg.axi_slv_wr_driver(C_AXI_ADDR_WIDTH=40,C_AXI_WDATA_WIDTH=128,C_AXI_RDATA_WIDTH=128,C_AXI_WID_WIDTH=16,C_AXI_RID_WIDTH=16,C_AXI_AWUSER_WIDTH=16,C_AXI_ARUSER_WIDTH=16,C_AXI_HAS_REGION=0)::aw_channel.AW_CHANNEL) 3015000 : AWVALID >>>
XIL_AXI_WRITE (89) A:0x0000008000000380 ID:0x0000018d len:0x03 XIL_AXI_SIZE_16BYTE XIL_AXI_BURST_TYPE_INCR C:0b0010 L:XIL_AXI_ALOCK_NOLOCK P:0b000<<<
INFO: [Slave VIP_wr_driver] (axi_vip_pkg.axi_slv_wr_driver(C_AXI_ADDR_WIDTH=40,C_AXI_WDATA_WIDTH=128,C_AXI_RDATA_WIDTH=128,C_AXI_WID_WIDTH=16,C_AXI_RID_WIDTH=16,C_AXI_AWUSER_WIDTH=16,C_AXI_ARUSER_WIDTH=16,C_AXI_HAS_REGION=0)::w_channel.W_CHANNEL) 3045000 : W BEAT -- write_beat     Last:0 D:0x0000000000000000000000000000003a BE:0b1111111111111111 
INFO: [Slave VIP_wr_driver] (axi_vip_pkg.axi_slv_wr_driver(C_AXI_ADDR_WIDTH=40,C_AXI_WDATA_WIDTH=128,C_AXI_RDATA_WIDTH=128,C_AXI_WID_WIDTH=16,C_AXI_RID_WIDTH=16,C_AXI_AWUSER_WIDTH=16,C_AXI_ARUSER_WIDTH=16,C_AXI_HAS_REGION=0)::w_channel.W_CHANNEL) 3075000 : W BEAT -- write_beat     Last:0 D:0x0000000000000000000000000000003b BE:0b1111111111111111 
INFO: [Slave VIP_wr_driver] (axi_vip_pkg.axi_slv_wr_driver(C_AXI_ADDR_WIDTH=40,C_AXI_WDATA_WIDTH=128,C_AXI_RDATA_WIDTH=128,C_AXI_WID_WIDTH=16,C_AXI_RID_WIDTH=16,C_AXI_AWUSER_WIDTH=16,C_AXI_ARUSER_WIDTH=16,C_AXI_HAS_REGION=0)::w_channel.W_CHANNEL) 3105000 : W LAST -- write_beat     Last:1 D:0x0000000000000000000000000000003c BE:0b1111111111111111 
INFO: [Slave VIP_wr_driver] (axi_vip_pkg.axi_slv_wr_driver(C_AXI_ADDR_WIDTH=40,C_AXI_WDATA_WIDTH=128,C_AXI_RDATA_WIDTH=128,C_AXI_WID_WIDTH=16,C_AXI_RID_WIDTH=16,C_AXI_AWUSER_WIDTH=16,C_AXI_ARUSER_WIDTH=16,C_AXI_HAS_REGION=0)::push_reactive_q) 3105000 : PUSH_REACTIVE_Q: PUSH (         0) >>> XIL_AXI_WRITE (89) A:0x0000008000000380 ID:0x0000018d len:0x03 XIL_AXI_SIZE_16BYTE XIL_AXI_BURST_TYPE_INCR C:0b0010 L:XIL_AXI_ALOCK_NOLOCK P:0b000 <<<
INFO: [Slave VIP_wr_driver] (axi_vip_pkg.axi_slv_wr_driver(C_AXI_ADDR_WIDTH=40,C_AXI_WDATA_WIDTH=128,C_AXI_RDATA_WIDTH=128,C_AXI_WID_WIDTH=16,C_AXI_RID_WIDTH=16,C_AXI_AWUSER_WIDTH=16,C_AXI_ARUSER_WIDTH=16,C_AXI_HAS_REGION=0)::pop_reactive_q) 3105000 : POP_REACTIVE_Q: (         1) >>> XIL_AXI_WRITE (89) A:0x0000008000000380 ID:0x0000018d len:0x03 XIL_AXI_SIZE_16BYTE XIL_AXI_BURST_TYPE_INCR C:0b0010 L:XIL_AXI_ALOCK_NOLOCK P:0b000 <<<
INFO: [Slave VIP_wr_driver] (axi_vip_pkg.axi_slv_wr_driver(C_AXI_ADDR_WIDTH=40,C_AXI_WDATA_WIDTH=128,C_AXI_RDATA_WIDTH=128,C_AXI_WID_WIDTH=16,C_AXI_RID_WIDTH=16,C_AXI_AWUSER_WIDTH=16,C_AXI_ARUSER_WIDTH=16,C_AXI_HAS_REGION=0)::get_and_drive.GET_AND_DRIVE) 3105000 : GNI : XIL_AXI_WRITE (89) A:0x0000008000000380 ID:0x0000018d len:0x03 XIL_AXI_SIZE_16BYTE XIL_AXI_BURST_TYPE_INCR C:0b0010 L:XIL_AXI_ALOCK_NOLOCK P:0b000
INFO: [Slave VIP_wr_driver] (axi_vip_pkg.axi_slv_wr_driver(C_AXI_ADDR_WIDTH=40,C_AXI_WDATA_WIDTH=128,C_AXI_RDATA_WIDTH=128,C_AXI_WID_WIDTH=16,C_AXI_RID_WIDTH=16,C_AXI_AWUSER_WIDTH=16,C_AXI_ARUSER_WIDTH=16,C_AXI_HAS_REGION=0)::push_b_q) 3105000 : B PUSH (         0)
INFO: [Slave VIP_wr_driver] (axi_vip_pkg.axi_slv_wr_driver(C_AXI_ADDR_WIDTH=40,C_AXI_WDATA_WIDTH=128,C_AXI_RDATA_WIDTH=128,C_AXI_WID_WIDTH=16,C_AXI_RID_WIDTH=16,C_AXI_AWUSER_WIDTH=16,C_AXI_ARUSER_WIDTH=16,C_AXI_HAS_REGION=0)::push_b_q) 3105000 : ID=0x0000018d - State 0b0111
Entries in BQ : NumEntries:         0 >>> 
 <<<
Command       : XIL_AXI_WRITE (89) A:0x0000008000000380 ID:0x0000018d len:0x03 XIL_AXI_SIZE_16BYTE XIL_AXI_BURST_TYPE_INCR C:0b0010 L:XIL_AXI_ALOCK_NOLOCK P:0b000
INFO: [Slave VIP_wr_driver] (axi_vip_pkg.axi_slv_wr_driver(C_AXI_ADDR_WIDTH=40,C_AXI_WDATA_WIDTH=128,C_AXI_RDATA_WIDTH=128,C_AXI_WID_WIDTH=16,C_AXI_RID_WIDTH=16,C_AXI_AWUSER_WIDTH=16,C_AXI_ARUSER_WIDTH=16,C_AXI_HAS_REGION=0)::service_done_q.SERVICE_DONE_Q) 3125000 : SERVICE_DONE_Q: XIL_AXI_WRITE (89) A:0x0000008000000380 ID:0x0000018d len:0x03 XIL_AXI_SIZE_16BYTE XIL_AXI_BURST_TYPE_INCR C:0b0010 L:XIL_AXI_ALOCK_NOLOCK P:0b000
INFO: [Slave VIP_wr_driver] (axi_vip_pkg.axi_slv_wr_driver(C_AXI_ADDR_WIDTH=40,C_AXI_WDATA_WIDTH=128,C_AXI_RDATA_WIDTH=128,C_AXI_WID_WIDTH=16,C_AXI_RID_WIDTH=16,C_AXI_AWUSER_WIDTH=16,C_AXI_ARUSER_WIDTH=16,C_AXI_HAS_REGION=0)::aw_channel.AW_CHANNEL) 3145000 : AWVALID >>>
XIL_AXI_WRITE (92) A:0x00000080000003c0 ID:0x0000018d len:0x03 XIL_AXI_SIZE_16BYTE XIL_AXI_BURST_TYPE_INCR C:0b0010 L:XIL_AXI_ALOCK_NOLOCK P:0b000<<<
INFO: [Slave VIP_wr_driver] (axi_vip_pkg.axi_slv_wr_driver(C_AXI_ADDR_WIDTH=40,C_AXI_WDATA_WIDTH=128,C_AXI_RDATA_WIDTH=128,C_AXI_WID_WIDTH=16,C_AXI_RID_WIDTH=16,C_AXI_AWUSER_WIDTH=16,C_AXI_ARUSER_WIDTH=16,C_AXI_HAS_REGION=0)::w_channel.W_CHANNEL) 3145000 : W BEAT -- write_beat     Last:0 D:0x0000000000000000000000000000003d BE:0b1111111111111111 
INFO: [Slave VIP_wr_driver] (axi_vip_pkg.axi_slv_wr_driver(C_AXI_ADDR_WIDTH=40,C_AXI_WDATA_WIDTH=128,C_AXI_RDATA_WIDTH=128,C_AXI_WID_WIDTH=16,C_AXI_RID_WIDTH=16,C_AXI_AWUSER_WIDTH=16,C_AXI_ARUSER_WIDTH=16,C_AXI_HAS_REGION=0)::w_channel.W_CHANNEL) 3175000 : W BEAT -- write_beat     Last:0 D:0x0000000000000000000000000000003e BE:0b1111111111111111 
INFO: [Slave VIP_wr_driver] (axi_vip_pkg.axi_slv_wr_driver(C_AXI_ADDR_WIDTH=40,C_AXI_WDATA_WIDTH=128,C_AXI_RDATA_WIDTH=128,C_AXI_WID_WIDTH=16,C_AXI_RID_WIDTH=16,C_AXI_AWUSER_WIDTH=16,C_AXI_ARUSER_WIDTH=16,C_AXI_HAS_REGION=0)::w_channel.W_CHANNEL) 3205000 : W BEAT -- write_beat     Last:0 D:0x0000000000000000000000000000003f BE:0b1111111111111111 
INFO: [Slave VIP_wr_driver] (axi_vip_pkg.axi_slv_wr_driver(C_AXI_ADDR_WIDTH=40,C_AXI_WDATA_WIDTH=128,C_AXI_RDATA_WIDTH=128,C_AXI_WID_WIDTH=16,C_AXI_RID_WIDTH=16,C_AXI_AWUSER_WIDTH=16,C_AXI_ARUSER_WIDTH=16,C_AXI_HAS_REGION=0)::w_channel.W_CHANNEL) 3235000 : W LAST -- write_beat     Last:1 D:0x00000000000000000000000000000040 BE:0b1111111111111111 
INFO: [Slave VIP_wr_driver] (axi_vip_pkg.axi_slv_wr_driver(C_AXI_ADDR_WIDTH=40,C_AXI_WDATA_WIDTH=128,C_AXI_RDATA_WIDTH=128,C_AXI_WID_WIDTH=16,C_AXI_RID_WIDTH=16,C_AXI_AWUSER_WIDTH=16,C_AXI_ARUSER_WIDTH=16,C_AXI_HAS_REGION=0)::push_reactive_q) 3235000 : PUSH_REACTIVE_Q: PUSH (         0) >>> XIL_AXI_WRITE (92) A:0x00000080000003c0 ID:0x0000018d len:0x03 XIL_AXI_SIZE_16BYTE XIL_AXI_BURST_TYPE_INCR C:0b0010 L:XIL_AXI_ALOCK_NOLOCK P:0b000 <<<
INFO: [Slave VIP_wr_driver] (axi_vip_pkg.axi_slv_wr_driver(C_AXI_ADDR_WIDTH=40,C_AXI_WDATA_WIDTH=128,C_AXI_RDATA_WIDTH=128,C_AXI_WID_WIDTH=16,C_AXI_RID_WIDTH=16,C_AXI_AWUSER_WIDTH=16,C_AXI_ARUSER_WIDTH=16,C_AXI_HAS_REGION=0)::pop_reactive_q) 3235000 : POP_REACTIVE_Q: (         1) >>> XIL_AXI_WRITE (92) A:0x00000080000003c0 ID:0x0000018d len:0x03 XIL_AXI_SIZE_16BYTE XIL_AXI_BURST_TYPE_INCR C:0b0010 L:XIL_AXI_ALOCK_NOLOCK P:0b000 <<<
INFO: [Slave VIP_wr_driver] (axi_vip_pkg.axi_slv_wr_driver(C_AXI_ADDR_WIDTH=40,C_AXI_WDATA_WIDTH=128,C_AXI_RDATA_WIDTH=128,C_AXI_WID_WIDTH=16,C_AXI_RID_WIDTH=16,C_AXI_AWUSER_WIDTH=16,C_AXI_ARUSER_WIDTH=16,C_AXI_HAS_REGION=0)::get_and_drive.GET_AND_DRIVE) 3235000 : GNI : XIL_AXI_WRITE (92) A:0x00000080000003c0 ID:0x0000018d len:0x03 XIL_AXI_SIZE_16BYTE XIL_AXI_BURST_TYPE_INCR C:0b0010 L:XIL_AXI_ALOCK_NOLOCK P:0b000
INFO: [Slave VIP_wr_driver] (axi_vip_pkg.axi_slv_wr_driver(C_AXI_ADDR_WIDTH=40,C_AXI_WDATA_WIDTH=128,C_AXI_RDATA_WIDTH=128,C_AXI_WID_WIDTH=16,C_AXI_RID_WIDTH=16,C_AXI_AWUSER_WIDTH=16,C_AXI_ARUSER_WIDTH=16,C_AXI_HAS_REGION=0)::push_b_q) 3235000 : B PUSH (         0)
INFO: [Slave VIP_wr_driver] (axi_vip_pkg.axi_slv_wr_driver(C_AXI_ADDR_WIDTH=40,C_AXI_WDATA_WIDTH=128,C_AXI_RDATA_WIDTH=128,C_AXI_WID_WIDTH=16,C_AXI_RID_WIDTH=16,C_AXI_AWUSER_WIDTH=16,C_AXI_ARUSER_WIDTH=16,C_AXI_HAS_REGION=0)::push_b_q) 3235000 : ID=0x0000018d - State 0b0111
Entries in BQ : NumEntries:         0 >>> 
 <<<
Command       : XIL_AXI_WRITE (92) A:0x00000080000003c0 ID:0x0000018d len:0x03 XIL_AXI_SIZE_16BYTE XIL_AXI_BURST_TYPE_INCR C:0b0010 L:XIL_AXI_ALOCK_NOLOCK P:0b000
INFO: [Slave VIP_wr_driver] (axi_vip_pkg.axi_slv_wr_driver(C_AXI_ADDR_WIDTH=40,C_AXI_WDATA_WIDTH=128,C_AXI_RDATA_WIDTH=128,C_AXI_WID_WIDTH=16,C_AXI_RID_WIDTH=16,C_AXI_AWUSER_WIDTH=16,C_AXI_ARUSER_WIDTH=16,C_AXI_HAS_REGION=0)::service_done_q.SERVICE_DONE_Q) 3255000 : SERVICE_DONE_Q: XIL_AXI_WRITE (92) A:0x00000080000003c0 ID:0x0000018d len:0x03 XIL_AXI_SIZE_16BYTE XIL_AXI_BURST_TYPE_INCR C:0b0010 L:XIL_AXI_ALOCK_NOLOCK P:0b000
INFO: [Slave VIP_wr_driver] (axi_vip_pkg.axi_slv_wr_driver(C_AXI_ADDR_WIDTH=40,C_AXI_WDATA_WIDTH=128,C_AXI_RDATA_WIDTH=128,C_AXI_WID_WIDTH=16,C_AXI_RID_WIDTH=16,C_AXI_AWUSER_WIDTH=16,C_AXI_ARUSER_WIDTH=16,C_AXI_HAS_REGION=0)::w_channel.W_CHANNEL) 3275000 : W BEAT -- write_beat     Last:0 D:0x00000000000000000000000000000041 BE:0b1111111111111111 
INFO: [Slave VIP_wr_driver] (axi_vip_pkg.axi_slv_wr_driver(C_AXI_ADDR_WIDTH=40,C_AXI_WDATA_WIDTH=128,C_AXI_RDATA_WIDTH=128,C_AXI_WID_WIDTH=16,C_AXI_RID_WIDTH=16,C_AXI_AWUSER_WIDTH=16,C_AXI_ARUSER_WIDTH=16,C_AXI_HAS_REGION=0)::aw_channel.AW_CHANNEL) 3275000 : AWVALID >>>
XIL_AXI_WRITE (97) A:0x0000008000000400 ID:0x0000018d len:0x03 XIL_AXI_SIZE_16BYTE XIL_AXI_BURST_TYPE_INCR C:0b0010 L:XIL_AXI_ALOCK_NOLOCK P:0b000<<<
INFO: [Slave VIP_wr_driver] (axi_vip_pkg.axi_slv_wr_driver(C_AXI_ADDR_WIDTH=40,C_AXI_WDATA_WIDTH=128,C_AXI_RDATA_WIDTH=128,C_AXI_WID_WIDTH=16,C_AXI_RID_WIDTH=16,C_AXI_AWUSER_WIDTH=16,C_AXI_ARUSER_WIDTH=16,C_AXI_HAS_REGION=0)::w_channel.W_CHANNEL) 3305000 : W BEAT -- write_beat     Last:0 D:0x00000000000000000000000000000042 BE:0b1111111111111111 
INFO: [Slave VIP_wr_driver] (axi_vip_pkg.axi_slv_wr_driver(C_AXI_ADDR_WIDTH=40,C_AXI_WDATA_WIDTH=128,C_AXI_RDATA_WIDTH=128,C_AXI_WID_WIDTH=16,C_AXI_RID_WIDTH=16,C_AXI_AWUSER_WIDTH=16,C_AXI_ARUSER_WIDTH=16,C_AXI_HAS_REGION=0)::w_channel.W_CHANNEL) 3335000 : W BEAT -- write_beat     Last:0 D:0x00000000000000000000000000000043 BE:0b1111111111111111 
INFO: [Slave VIP_wr_driver] (axi_vip_pkg.axi_slv_wr_driver(C_AXI_ADDR_WIDTH=40,C_AXI_WDATA_WIDTH=128,C_AXI_RDATA_WIDTH=128,C_AXI_WID_WIDTH=16,C_AXI_RID_WIDTH=16,C_AXI_AWUSER_WIDTH=16,C_AXI_ARUSER_WIDTH=16,C_AXI_HAS_REGION=0)::w_channel.W_CHANNEL) 3365000 : W LAST -- write_beat     Last:1 D:0x00000000000000000000000000000044 BE:0b1111111111111111 
INFO: [Slave VIP_wr_driver] (axi_vip_pkg.axi_slv_wr_driver(C_AXI_ADDR_WIDTH=40,C_AXI_WDATA_WIDTH=128,C_AXI_RDATA_WIDTH=128,C_AXI_WID_WIDTH=16,C_AXI_RID_WIDTH=16,C_AXI_AWUSER_WIDTH=16,C_AXI_ARUSER_WIDTH=16,C_AXI_HAS_REGION=0)::push_reactive_q) 3365000 : PUSH_REACTIVE_Q: PUSH (         0) >>> XIL_AXI_WRITE (97) A:0x0000008000000400 ID:0x0000018d len:0x03 XIL_AXI_SIZE_16BYTE XIL_AXI_BURST_TYPE_INCR C:0b0010 L:XIL_AXI_ALOCK_NOLOCK P:0b000 <<<
INFO: [Slave VIP_wr_driver] (axi_vip_pkg.axi_slv_wr_driver(C_AXI_ADDR_WIDTH=40,C_AXI_WDATA_WIDTH=128,C_AXI_RDATA_WIDTH=128,C_AXI_WID_WIDTH=16,C_AXI_RID_WIDTH=16,C_AXI_AWUSER_WIDTH=16,C_AXI_ARUSER_WIDTH=16,C_AXI_HAS_REGION=0)::pop_reactive_q) 3365000 : POP_REACTIVE_Q: (         1) >>> XIL_AXI_WRITE (97) A:0x0000008000000400 ID:0x0000018d len:0x03 XIL_AXI_SIZE_16BYTE XIL_AXI_BURST_TYPE_INCR C:0b0010 L:XIL_AXI_ALOCK_NOLOCK P:0b000 <<<
INFO: [Slave VIP_wr_driver] (axi_vip_pkg.axi_slv_wr_driver(C_AXI_ADDR_WIDTH=40,C_AXI_WDATA_WIDTH=128,C_AXI_RDATA_WIDTH=128,C_AXI_WID_WIDTH=16,C_AXI_RID_WIDTH=16,C_AXI_AWUSER_WIDTH=16,C_AXI_ARUSER_WIDTH=16,C_AXI_HAS_REGION=0)::get_and_drive.GET_AND_DRIVE) 3365000 : GNI : XIL_AXI_WRITE (97) A:0x0000008000000400 ID:0x0000018d len:0x03 XIL_AXI_SIZE_16BYTE XIL_AXI_BURST_TYPE_INCR C:0b0010 L:XIL_AXI_ALOCK_NOLOCK P:0b000
INFO: [Slave VIP_wr_driver] (axi_vip_pkg.axi_slv_wr_driver(C_AXI_ADDR_WIDTH=40,C_AXI_WDATA_WIDTH=128,C_AXI_RDATA_WIDTH=128,C_AXI_WID_WIDTH=16,C_AXI_RID_WIDTH=16,C_AXI_AWUSER_WIDTH=16,C_AXI_ARUSER_WIDTH=16,C_AXI_HAS_REGION=0)::push_b_q) 3365000 : B PUSH (         0)
INFO: [Slave VIP_wr_driver] (axi_vip_pkg.axi_slv_wr_driver(C_AXI_ADDR_WIDTH=40,C_AXI_WDATA_WIDTH=128,C_AXI_RDATA_WIDTH=128,C_AXI_WID_WIDTH=16,C_AXI_RID_WIDTH=16,C_AXI_AWUSER_WIDTH=16,C_AXI_ARUSER_WIDTH=16,C_AXI_HAS_REGION=0)::push_b_q) 3365000 : ID=0x0000018d - State 0b0111
Entries in BQ : NumEntries:         0 >>> 
 <<<
Command       : XIL_AXI_WRITE (97) A:0x0000008000000400 ID:0x0000018d len:0x03 XIL_AXI_SIZE_16BYTE XIL_AXI_BURST_TYPE_INCR C:0b0010 L:XIL_AXI_ALOCK_NOLOCK P:0b000
INFO: [Slave VIP_wr_driver] (axi_vip_pkg.axi_slv_wr_driver(C_AXI_ADDR_WIDTH=40,C_AXI_WDATA_WIDTH=128,C_AXI_RDATA_WIDTH=128,C_AXI_WID_WIDTH=16,C_AXI_RID_WIDTH=16,C_AXI_AWUSER_WIDTH=16,C_AXI_ARUSER_WIDTH=16,C_AXI_HAS_REGION=0)::service_done_q.SERVICE_DONE_Q) 3385000 : SERVICE_DONE_Q: XIL_AXI_WRITE (97) A:0x0000008000000400 ID:0x0000018d len:0x03 XIL_AXI_SIZE_16BYTE XIL_AXI_BURST_TYPE_INCR C:0b0010 L:XIL_AXI_ALOCK_NOLOCK P:0b000
INFO: [Slave VIP_wr_driver] (axi_vip_pkg.axi_slv_wr_driver(C_AXI_ADDR_WIDTH=40,C_AXI_WDATA_WIDTH=128,C_AXI_RDATA_WIDTH=128,C_AXI_WID_WIDTH=16,C_AXI_RID_WIDTH=16,C_AXI_AWUSER_WIDTH=16,C_AXI_ARUSER_WIDTH=16,C_AXI_HAS_REGION=0)::aw_channel.AW_CHANNEL) 3405000 : AWVALID >>>
XIL_AXI_WRITE (100) A:0x0000008000000440 ID:0x0000018d len:0x03 XIL_AXI_SIZE_16BYTE XIL_AXI_BURST_TYPE_INCR C:0b0010 L:XIL_AXI_ALOCK_NOLOCK P:0b000<<<
INFO: [Slave VIP_wr_driver] (axi_vip_pkg.axi_slv_wr_driver(C_AXI_ADDR_WIDTH=40,C_AXI_WDATA_WIDTH=128,C_AXI_RDATA_WIDTH=128,C_AXI_WID_WIDTH=16,C_AXI_RID_WIDTH=16,C_AXI_AWUSER_WIDTH=16,C_AXI_ARUSER_WIDTH=16,C_AXI_HAS_REGION=0)::w_channel.W_CHANNEL) 3405000 : W BEAT -- write_beat     Last:0 D:0x00000000000000000000000000000045 BE:0b1111111111111111 
INFO: [Slave VIP_wr_driver] (axi_vip_pkg.axi_slv_wr_driver(C_AXI_ADDR_WIDTH=40,C_AXI_WDATA_WIDTH=128,C_AXI_RDATA_WIDTH=128,C_AXI_WID_WIDTH=16,C_AXI_RID_WIDTH=16,C_AXI_AWUSER_WIDTH=16,C_AXI_ARUSER_WIDTH=16,C_AXI_HAS_REGION=0)::w_channel.W_CHANNEL) 3435000 : W BEAT -- write_beat     Last:0 D:0x00000000000000000000000000000046 BE:0b1111111111111111 
INFO: [Slave VIP_wr_driver] (axi_vip_pkg.axi_slv_wr_driver(C_AXI_ADDR_WIDTH=40,C_AXI_WDATA_WIDTH=128,C_AXI_RDATA_WIDTH=128,C_AXI_WID_WIDTH=16,C_AXI_RID_WIDTH=16,C_AXI_AWUSER_WIDTH=16,C_AXI_ARUSER_WIDTH=16,C_AXI_HAS_REGION=0)::w_channel.W_CHANNEL) 3465000 : W BEAT -- write_beat     Last:0 D:0x00000000000000000000000000000047 BE:0b1111111111111111 
INFO: [Slave VIP_wr_driver] (axi_vip_pkg.axi_slv_wr_driver(C_AXI_ADDR_WIDTH=40,C_AXI_WDATA_WIDTH=128,C_AXI_RDATA_WIDTH=128,C_AXI_WID_WIDTH=16,C_AXI_RID_WIDTH=16,C_AXI_AWUSER_WIDTH=16,C_AXI_ARUSER_WIDTH=16,C_AXI_HAS_REGION=0)::w_channel.W_CHANNEL) 3495000 : W LAST -- write_beat     Last:1 D:0x00000000000000000000000000000048 BE:0b1111111111111111 
INFO: [Slave VIP_wr_driver] (axi_vip_pkg.axi_slv_wr_driver(C_AXI_ADDR_WIDTH=40,C_AXI_WDATA_WIDTH=128,C_AXI_RDATA_WIDTH=128,C_AXI_WID_WIDTH=16,C_AXI_RID_WIDTH=16,C_AXI_AWUSER_WIDTH=16,C_AXI_ARUSER_WIDTH=16,C_AXI_HAS_REGION=0)::push_reactive_q) 3495000 : PUSH_REACTIVE_Q: PUSH (         0) >>> XIL_AXI_WRITE (100) A:0x0000008000000440 ID:0x0000018d len:0x03 XIL_AXI_SIZE_16BYTE XIL_AXI_BURST_TYPE_INCR C:0b0010 L:XIL_AXI_ALOCK_NOLOCK P:0b000 <<<
INFO: [Slave VIP_wr_driver] (axi_vip_pkg.axi_slv_wr_driver(C_AXI_ADDR_WIDTH=40,C_AXI_WDATA_WIDTH=128,C_AXI_RDATA_WIDTH=128,C_AXI_WID_WIDTH=16,C_AXI_RID_WIDTH=16,C_AXI_AWUSER_WIDTH=16,C_AXI_ARUSER_WIDTH=16,C_AXI_HAS_REGION=0)::pop_reactive_q) 3495000 : POP_REACTIVE_Q: (         1) >>> XIL_AXI_WRITE (100) A:0x0000008000000440 ID:0x0000018d len:0x03 XIL_AXI_SIZE_16BYTE XIL_AXI_BURST_TYPE_INCR C:0b0010 L:XIL_AXI_ALOCK_NOLOCK P:0b000 <<<
INFO: [Slave VIP_wr_driver] (axi_vip_pkg.axi_slv_wr_driver(C_AXI_ADDR_WIDTH=40,C_AXI_WDATA_WIDTH=128,C_AXI_RDATA_WIDTH=128,C_AXI_WID_WIDTH=16,C_AXI_RID_WIDTH=16,C_AXI_AWUSER_WIDTH=16,C_AXI_ARUSER_WIDTH=16,C_AXI_HAS_REGION=0)::get_and_drive.GET_AND_DRIVE) 3495000 : GNI : XIL_AXI_WRITE (100) A:0x0000008000000440 ID:0x0000018d len:0x03 XIL_AXI_SIZE_16BYTE XIL_AXI_BURST_TYPE_INCR C:0b0010 L:XIL_AXI_ALOCK_NOLOCK P:0b000
INFO: [Slave VIP_wr_driver] (axi_vip_pkg.axi_slv_wr_driver(C_AXI_ADDR_WIDTH=40,C_AXI_WDATA_WIDTH=128,C_AXI_RDATA_WIDTH=128,C_AXI_WID_WIDTH=16,C_AXI_RID_WIDTH=16,C_AXI_AWUSER_WIDTH=16,C_AXI_ARUSER_WIDTH=16,C_AXI_HAS_REGION=0)::push_b_q) 3495000 : B PUSH (         0)
INFO: [Slave VIP_wr_driver] (axi_vip_pkg.axi_slv_wr_driver(C_AXI_ADDR_WIDTH=40,C_AXI_WDATA_WIDTH=128,C_AXI_RDATA_WIDTH=128,C_AXI_WID_WIDTH=16,C_AXI_RID_WIDTH=16,C_AXI_AWUSER_WIDTH=16,C_AXI_ARUSER_WIDTH=16,C_AXI_HAS_REGION=0)::push_b_q) 3495000 : ID=0x0000018d - State 0b0111
Entries in BQ : NumEntries:         0 >>> 
 <<<
Command       : XIL_AXI_WRITE (100) A:0x0000008000000440 ID:0x0000018d len:0x03 XIL_AXI_SIZE_16BYTE XIL_AXI_BURST_TYPE_INCR C:0b0010 L:XIL_AXI_ALOCK_NOLOCK P:0b000
INFO: [Slave VIP_wr_driver] (axi_vip_pkg.axi_slv_wr_driver(C_AXI_ADDR_WIDTH=40,C_AXI_WDATA_WIDTH=128,C_AXI_RDATA_WIDTH=128,C_AXI_WID_WIDTH=16,C_AXI_RID_WIDTH=16,C_AXI_AWUSER_WIDTH=16,C_AXI_ARUSER_WIDTH=16,C_AXI_HAS_REGION=0)::service_done_q.SERVICE_DONE_Q) 3515000 : SERVICE_DONE_Q: XIL_AXI_WRITE (100) A:0x0000008000000440 ID:0x0000018d len:0x03 XIL_AXI_SIZE_16BYTE XIL_AXI_BURST_TYPE_INCR C:0b0010 L:XIL_AXI_ALOCK_NOLOCK P:0b000
INFO: [Slave VIP_wr_driver] (axi_vip_pkg.axi_slv_wr_driver(C_AXI_ADDR_WIDTH=40,C_AXI_WDATA_WIDTH=128,C_AXI_RDATA_WIDTH=128,C_AXI_WID_WIDTH=16,C_AXI_RID_WIDTH=16,C_AXI_AWUSER_WIDTH=16,C_AXI_ARUSER_WIDTH=16,C_AXI_HAS_REGION=0)::w_channel.W_CHANNEL) 3535000 : W BEAT -- write_beat     Last:0 D:0x00000000000000000000000000000049 BE:0b1111111111111111 
INFO: [Slave VIP_wr_driver] (axi_vip_pkg.axi_slv_wr_driver(C_AXI_ADDR_WIDTH=40,C_AXI_WDATA_WIDTH=128,C_AXI_RDATA_WIDTH=128,C_AXI_WID_WIDTH=16,C_AXI_RID_WIDTH=16,C_AXI_AWUSER_WIDTH=16,C_AXI_ARUSER_WIDTH=16,C_AXI_HAS_REGION=0)::aw_channel.AW_CHANNEL) 3535000 : AWVALID >>>
XIL_AXI_WRITE (105) A:0x0000008000000480 ID:0x0000018d len:0x03 XIL_AXI_SIZE_16BYTE XIL_AXI_BURST_TYPE_INCR C:0b0010 L:XIL_AXI_ALOCK_NOLOCK P:0b000<<<
INFO: [Slave VIP_wr_driver] (axi_vip_pkg.axi_slv_wr_driver(C_AXI_ADDR_WIDTH=40,C_AXI_WDATA_WIDTH=128,C_AXI_RDATA_WIDTH=128,C_AXI_WID_WIDTH=16,C_AXI_RID_WIDTH=16,C_AXI_AWUSER_WIDTH=16,C_AXI_ARUSER_WIDTH=16,C_AXI_HAS_REGION=0)::w_channel.W_CHANNEL) 3565000 : W BEAT -- write_beat     Last:0 D:0x0000000000000000000000000000004a BE:0b1111111111111111 
INFO: [Slave VIP_wr_driver] (axi_vip_pkg.axi_slv_wr_driver(C_AXI_ADDR_WIDTH=40,C_AXI_WDATA_WIDTH=128,C_AXI_RDATA_WIDTH=128,C_AXI_WID_WIDTH=16,C_AXI_RID_WIDTH=16,C_AXI_AWUSER_WIDTH=16,C_AXI_ARUSER_WIDTH=16,C_AXI_HAS_REGION=0)::w_channel.W_CHANNEL) 3595000 : W BEAT -- write_beat     Last:0 D:0x0000000000000000000000000000004b BE:0b1111111111111111 
INFO: [Slave VIP_wr_driver] (axi_vip_pkg.axi_slv_wr_driver(C_AXI_ADDR_WIDTH=40,C_AXI_WDATA_WIDTH=128,C_AXI_RDATA_WIDTH=128,C_AXI_WID_WIDTH=16,C_AXI_RID_WIDTH=16,C_AXI_AWUSER_WIDTH=16,C_AXI_ARUSER_WIDTH=16,C_AXI_HAS_REGION=0)::w_channel.W_CHANNEL) 3625000 : W LAST -- write_beat     Last:1 D:0x0000000000000000000000000000004c BE:0b1111111111111111 
INFO: [Slave VIP_wr_driver] (axi_vip_pkg.axi_slv_wr_driver(C_AXI_ADDR_WIDTH=40,C_AXI_WDATA_WIDTH=128,C_AXI_RDATA_WIDTH=128,C_AXI_WID_WIDTH=16,C_AXI_RID_WIDTH=16,C_AXI_AWUSER_WIDTH=16,C_AXI_ARUSER_WIDTH=16,C_AXI_HAS_REGION=0)::push_reactive_q) 3625000 : PUSH_REACTIVE_Q: PUSH (         0) >>> XIL_AXI_WRITE (105) A:0x0000008000000480 ID:0x0000018d len:0x03 XIL_AXI_SIZE_16BYTE XIL_AXI_BURST_TYPE_INCR C:0b0010 L:XIL_AXI_ALOCK_NOLOCK P:0b000 <<<
INFO: [Slave VIP_wr_driver] (axi_vip_pkg.axi_slv_wr_driver(C_AXI_ADDR_WIDTH=40,C_AXI_WDATA_WIDTH=128,C_AXI_RDATA_WIDTH=128,C_AXI_WID_WIDTH=16,C_AXI_RID_WIDTH=16,C_AXI_AWUSER_WIDTH=16,C_AXI_ARUSER_WIDTH=16,C_AXI_HAS_REGION=0)::pop_reactive_q) 3625000 : POP_REACTIVE_Q: (         1) >>> XIL_AXI_WRITE (105) A:0x0000008000000480 ID:0x0000018d len:0x03 XIL_AXI_SIZE_16BYTE XIL_AXI_BURST_TYPE_INCR C:0b0010 L:XIL_AXI_ALOCK_NOLOCK P:0b000 <<<
INFO: [Slave VIP_wr_driver] (axi_vip_pkg.axi_slv_wr_driver(C_AXI_ADDR_WIDTH=40,C_AXI_WDATA_WIDTH=128,C_AXI_RDATA_WIDTH=128,C_AXI_WID_WIDTH=16,C_AXI_RID_WIDTH=16,C_AXI_AWUSER_WIDTH=16,C_AXI_ARUSER_WIDTH=16,C_AXI_HAS_REGION=0)::get_and_drive.GET_AND_DRIVE) 3625000 : GNI : XIL_AXI_WRITE (105) A:0x0000008000000480 ID:0x0000018d len:0x03 XIL_AXI_SIZE_16BYTE XIL_AXI_BURST_TYPE_INCR C:0b0010 L:XIL_AXI_ALOCK_NOLOCK P:0b000
INFO: [Slave VIP_wr_driver] (axi_vip_pkg.axi_slv_wr_driver(C_AXI_ADDR_WIDTH=40,C_AXI_WDATA_WIDTH=128,C_AXI_RDATA_WIDTH=128,C_AXI_WID_WIDTH=16,C_AXI_RID_WIDTH=16,C_AXI_AWUSER_WIDTH=16,C_AXI_ARUSER_WIDTH=16,C_AXI_HAS_REGION=0)::push_b_q) 3625000 : B PUSH (         0)
INFO: [Slave VIP_wr_driver] (axi_vip_pkg.axi_slv_wr_driver(C_AXI_ADDR_WIDTH=40,C_AXI_WDATA_WIDTH=128,C_AXI_RDATA_WIDTH=128,C_AXI_WID_WIDTH=16,C_AXI_RID_WIDTH=16,C_AXI_AWUSER_WIDTH=16,C_AXI_ARUSER_WIDTH=16,C_AXI_HAS_REGION=0)::push_b_q) 3625000 : ID=0x0000018d - State 0b0111
Entries in BQ : NumEntries:         0 >>> 
 <<<
Command       : XIL_AXI_WRITE (105) A:0x0000008000000480 ID:0x0000018d len:0x03 XIL_AXI_SIZE_16BYTE XIL_AXI_BURST_TYPE_INCR C:0b0010 L:XIL_AXI_ALOCK_NOLOCK P:0b000
INFO: [Slave VIP_wr_driver] (axi_vip_pkg.axi_slv_wr_driver(C_AXI_ADDR_WIDTH=40,C_AXI_WDATA_WIDTH=128,C_AXI_RDATA_WIDTH=128,C_AXI_WID_WIDTH=16,C_AXI_RID_WIDTH=16,C_AXI_AWUSER_WIDTH=16,C_AXI_ARUSER_WIDTH=16,C_AXI_HAS_REGION=0)::service_done_q.SERVICE_DONE_Q) 3645000 : SERVICE_DONE_Q: XIL_AXI_WRITE (105) A:0x0000008000000480 ID:0x0000018d len:0x03 XIL_AXI_SIZE_16BYTE XIL_AXI_BURST_TYPE_INCR C:0b0010 L:XIL_AXI_ALOCK_NOLOCK P:0b000
INFO: [Slave VIP_wr_driver] (axi_vip_pkg.axi_slv_wr_driver(C_AXI_ADDR_WIDTH=40,C_AXI_WDATA_WIDTH=128,C_AXI_RDATA_WIDTH=128,C_AXI_WID_WIDTH=16,C_AXI_RID_WIDTH=16,C_AXI_AWUSER_WIDTH=16,C_AXI_ARUSER_WIDTH=16,C_AXI_HAS_REGION=0)::aw_channel.AW_CHANNEL) 3665000 : AWVALID >>>
XIL_AXI_WRITE (108) A:0x00000080000004c0 ID:0x0000018d len:0x03 XIL_AXI_SIZE_16BYTE XIL_AXI_BURST_TYPE_INCR C:0b0010 L:XIL_AXI_ALOCK_NOLOCK P:0b000<<<
INFO: [Slave VIP_wr_driver] (axi_vip_pkg.axi_slv_wr_driver(C_AXI_ADDR_WIDTH=40,C_AXI_WDATA_WIDTH=128,C_AXI_RDATA_WIDTH=128,C_AXI_WID_WIDTH=16,C_AXI_RID_WIDTH=16,C_AXI_AWUSER_WIDTH=16,C_AXI_ARUSER_WIDTH=16,C_AXI_HAS_REGION=0)::w_channel.W_CHANNEL) 3665000 : W BEAT -- write_beat     Last:0 D:0x0000000000000000000000000000004d BE:0b1111111111111111 
INFO: [Slave VIP_wr_driver] (axi_vip_pkg.axi_slv_wr_driver(C_AXI_ADDR_WIDTH=40,C_AXI_WDATA_WIDTH=128,C_AXI_RDATA_WIDTH=128,C_AXI_WID_WIDTH=16,C_AXI_RID_WIDTH=16,C_AXI_AWUSER_WIDTH=16,C_AXI_ARUSER_WIDTH=16,C_AXI_HAS_REGION=0)::w_channel.W_CHANNEL) 3695000 : W BEAT -- write_beat     Last:0 D:0x0000000000000000000000000000004e BE:0b1111111111111111 
INFO: [Slave VIP_wr_driver] (axi_vip_pkg.axi_slv_wr_driver(C_AXI_ADDR_WIDTH=40,C_AXI_WDATA_WIDTH=128,C_AXI_RDATA_WIDTH=128,C_AXI_WID_WIDTH=16,C_AXI_RID_WIDTH=16,C_AXI_AWUSER_WIDTH=16,C_AXI_ARUSER_WIDTH=16,C_AXI_HAS_REGION=0)::w_channel.W_CHANNEL) 3725000 : W BEAT -- write_beat     Last:0 D:0x0000000000000000000000000000004f BE:0b1111111111111111 
INFO: [Slave VIP_wr_driver] (axi_vip_pkg.axi_slv_wr_driver(C_AXI_ADDR_WIDTH=40,C_AXI_WDATA_WIDTH=128,C_AXI_RDATA_WIDTH=128,C_AXI_WID_WIDTH=16,C_AXI_RID_WIDTH=16,C_AXI_AWUSER_WIDTH=16,C_AXI_ARUSER_WIDTH=16,C_AXI_HAS_REGION=0)::w_channel.W_CHANNEL) 3755000 : W LAST -- write_beat     Last:1 D:0x00000000000000000000000000000050 BE:0b1111111111111111 
INFO: [Slave VIP_wr_driver] (axi_vip_pkg.axi_slv_wr_driver(C_AXI_ADDR_WIDTH=40,C_AXI_WDATA_WIDTH=128,C_AXI_RDATA_WIDTH=128,C_AXI_WID_WIDTH=16,C_AXI_RID_WIDTH=16,C_AXI_AWUSER_WIDTH=16,C_AXI_ARUSER_WIDTH=16,C_AXI_HAS_REGION=0)::push_reactive_q) 3755000 : PUSH_REACTIVE_Q: PUSH (         0) >>> XIL_AXI_WRITE (108) A:0x00000080000004c0 ID:0x0000018d len:0x03 XIL_AXI_SIZE_16BYTE XIL_AXI_BURST_TYPE_INCR C:0b0010 L:XIL_AXI_ALOCK_NOLOCK P:0b000 <<<
INFO: [Slave VIP_wr_driver] (axi_vip_pkg.axi_slv_wr_driver(C_AXI_ADDR_WIDTH=40,C_AXI_WDATA_WIDTH=128,C_AXI_RDATA_WIDTH=128,C_AXI_WID_WIDTH=16,C_AXI_RID_WIDTH=16,C_AXI_AWUSER_WIDTH=16,C_AXI_ARUSER_WIDTH=16,C_AXI_HAS_REGION=0)::pop_reactive_q) 3755000 : POP_REACTIVE_Q: (         1) >>> XIL_AXI_WRITE (108) A:0x00000080000004c0 ID:0x0000018d len:0x03 XIL_AXI_SIZE_16BYTE XIL_AXI_BURST_TYPE_INCR C:0b0010 L:XIL_AXI_ALOCK_NOLOCK P:0b000 <<<
INFO: [Slave VIP_wr_driver] (axi_vip_pkg.axi_slv_wr_driver(C_AXI_ADDR_WIDTH=40,C_AXI_WDATA_WIDTH=128,C_AXI_RDATA_WIDTH=128,C_AXI_WID_WIDTH=16,C_AXI_RID_WIDTH=16,C_AXI_AWUSER_WIDTH=16,C_AXI_ARUSER_WIDTH=16,C_AXI_HAS_REGION=0)::get_and_drive.GET_AND_DRIVE) 3755000 : GNI : XIL_AXI_WRITE (108) A:0x00000080000004c0 ID:0x0000018d len:0x03 XIL_AXI_SIZE_16BYTE XIL_AXI_BURST_TYPE_INCR C:0b0010 L:XIL_AXI_ALOCK_NOLOCK P:0b000
INFO: [Slave VIP_wr_driver] (axi_vip_pkg.axi_slv_wr_driver(C_AXI_ADDR_WIDTH=40,C_AXI_WDATA_WIDTH=128,C_AXI_RDATA_WIDTH=128,C_AXI_WID_WIDTH=16,C_AXI_RID_WIDTH=16,C_AXI_AWUSER_WIDTH=16,C_AXI_ARUSER_WIDTH=16,C_AXI_HAS_REGION=0)::push_b_q) 3755000 : B PUSH (         0)
INFO: [Slave VIP_wr_driver] (axi_vip_pkg.axi_slv_wr_driver(C_AXI_ADDR_WIDTH=40,C_AXI_WDATA_WIDTH=128,C_AXI_RDATA_WIDTH=128,C_AXI_WID_WIDTH=16,C_AXI_RID_WIDTH=16,C_AXI_AWUSER_WIDTH=16,C_AXI_ARUSER_WIDTH=16,C_AXI_HAS_REGION=0)::push_b_q) 3755000 : ID=0x0000018d - State 0b0111
Entries in BQ : NumEntries:         0 >>> 
 <<<
Command       : XIL_AXI_WRITE (108) A:0x00000080000004c0 ID:0x0000018d len:0x03 XIL_AXI_SIZE_16BYTE XIL_AXI_BURST_TYPE_INCR C:0b0010 L:XIL_AXI_ALOCK_NOLOCK P:0b000
INFO: [Slave VIP_wr_driver] (axi_vip_pkg.axi_slv_wr_driver(C_AXI_ADDR_WIDTH=40,C_AXI_WDATA_WIDTH=128,C_AXI_RDATA_WIDTH=128,C_AXI_WID_WIDTH=16,C_AXI_RID_WIDTH=16,C_AXI_AWUSER_WIDTH=16,C_AXI_ARUSER_WIDTH=16,C_AXI_HAS_REGION=0)::service_done_q.SERVICE_DONE_Q) 3775000 : SERVICE_DONE_Q: XIL_AXI_WRITE (108) A:0x00000080000004c0 ID:0x0000018d len:0x03 XIL_AXI_SIZE_16BYTE XIL_AXI_BURST_TYPE_INCR C:0b0010 L:XIL_AXI_ALOCK_NOLOCK P:0b000
INFO: [Slave VIP_wr_driver] (axi_vip_pkg.axi_slv_wr_driver(C_AXI_ADDR_WIDTH=40,C_AXI_WDATA_WIDTH=128,C_AXI_RDATA_WIDTH=128,C_AXI_WID_WIDTH=16,C_AXI_RID_WIDTH=16,C_AXI_AWUSER_WIDTH=16,C_AXI_ARUSER_WIDTH=16,C_AXI_HAS_REGION=0)::w_channel.W_CHANNEL) 3795000 : W BEAT -- write_beat     Last:0 D:0x00000000000000000000000000000051 BE:0b1111111111111111 
INFO: [Slave VIP_wr_driver] (axi_vip_pkg.axi_slv_wr_driver(C_AXI_ADDR_WIDTH=40,C_AXI_WDATA_WIDTH=128,C_AXI_RDATA_WIDTH=128,C_AXI_WID_WIDTH=16,C_AXI_RID_WIDTH=16,C_AXI_AWUSER_WIDTH=16,C_AXI_ARUSER_WIDTH=16,C_AXI_HAS_REGION=0)::aw_channel.AW_CHANNEL) 3795000 : AWVALID >>>
XIL_AXI_WRITE (113) A:0x0000008000000500 ID:0x0000018d len:0x03 XIL_AXI_SIZE_16BYTE XIL_AXI_BURST_TYPE_INCR C:0b0010 L:XIL_AXI_ALOCK_NOLOCK P:0b000<<<
INFO: [Slave VIP_wr_driver] (axi_vip_pkg.axi_slv_wr_driver(C_AXI_ADDR_WIDTH=40,C_AXI_WDATA_WIDTH=128,C_AXI_RDATA_WIDTH=128,C_AXI_WID_WIDTH=16,C_AXI_RID_WIDTH=16,C_AXI_AWUSER_WIDTH=16,C_AXI_ARUSER_WIDTH=16,C_AXI_HAS_REGION=0)::w_channel.W_CHANNEL) 3825000 : W BEAT -- write_beat     Last:0 D:0x00000000000000000000000000000052 BE:0b1111111111111111 
INFO: [Slave VIP_wr_driver] (axi_vip_pkg.axi_slv_wr_driver(C_AXI_ADDR_WIDTH=40,C_AXI_WDATA_WIDTH=128,C_AXI_RDATA_WIDTH=128,C_AXI_WID_WIDTH=16,C_AXI_RID_WIDTH=16,C_AXI_AWUSER_WIDTH=16,C_AXI_ARUSER_WIDTH=16,C_AXI_HAS_REGION=0)::w_channel.W_CHANNEL) 3855000 : W BEAT -- write_beat     Last:0 D:0x00000000000000000000000000000053 BE:0b1111111111111111 
INFO: [Slave VIP_wr_driver] (axi_vip_pkg.axi_slv_wr_driver(C_AXI_ADDR_WIDTH=40,C_AXI_WDATA_WIDTH=128,C_AXI_RDATA_WIDTH=128,C_AXI_WID_WIDTH=16,C_AXI_RID_WIDTH=16,C_AXI_AWUSER_WIDTH=16,C_AXI_ARUSER_WIDTH=16,C_AXI_HAS_REGION=0)::w_channel.W_CHANNEL) 3885000 : W LAST -- write_beat     Last:1 D:0x00000000000000000000000000000054 BE:0b1111111111111111 
