Vivado Simulator 2017.4
Time resolution is 1 ps
INFO: ID width is 16 bigger than 16, AXI protocol Checker will not be instantiated in this case 
XilinxAXIVIP: Found at Path: TB_MemorEDF.DUT.design_1_i.axi_vip_0.inst
INFO: ID width is 16 bigger than 16, AXI protocol Checker will not be instantiated in this case 
XilinxAXIVIP: Found at Path: TB_MemorEDF.DUT.design_1_i.axi_vip_1.inst
INFO: ID width is 16 bigger than 16, AXI protocol Checker will not be instantiated in this case 
XilinxAXIVIP: Found at Path: TB_MemorEDF.DUT.design_1_i.axi_vip_2.inst
Slave depth 00000000000000000000000000010000
INFO: [Master VIP_rd_driver] (.axi_vip_pkg.axi_mst_rd_driver(C_AXI_WDATA_WIDTH=128,C_AXI_RDATA_WIDTH=128,C_AXI_WID_WIDTH=16,C_AXI_RID_WIDTH=16,C_AXI_AWUSER_WIDTH=16,C_AXI_ARUSER_WIDTH=16)::run_phase.Block10873_272.) 25001 : run()
INFO: [Master VIP_wr_driver] (.axi_vip_pkg.axi_mst_wr_driver(C_AXI_WDATA_WIDTH=128,C_AXI_RDATA_WIDTH=128,C_AXI_WID_WIDTH=16,C_AXI_RID_WIDTH=16,C_AXI_AWUSER_WIDTH=16,C_AXI_ARUSER_WIDTH=16)::run_phase.Block9793_226.) 25001 : run()
INFO: [Master VIP_monitor] (.axi_vip_pkg.axi_monitor(C_AXI_WDATA_WIDTH=128,C_AXI_RDATA_WIDTH=128,C_AXI_WID_WIDTH=16,C_AXI_RID_WIDTH=16,C_AXI_AWUSER_WIDTH=16,C_AXI_ARUSER_WIDTH=16)::run_phase.Block8620_193.) 25001 : run()
INFO: [Slave VIP_rd_driver] (.axi_vip_pkg.axi_slv_rd_driver(C_AXI_ADDR_WIDTH=40,C_AXI_WDATA_WIDTH=128,C_AXI_RDATA_WIDTH=128,C_AXI_WID_WIDTH=16,C_AXI_RID_WIDTH=16,C_AXI_AWUSER_WIDTH=16,C_AXI_ARUSER_WIDTH=16,C_AXI_HAS_REGION=0)::run_phase.Block14104_370.) 25001 : run()
INFO: [Slave VIP_wr_driver] (.axi_vip_pkg.axi_slv_wr_driver(C_AXI_ADDR_WIDTH=40,C_AXI_WDATA_WIDTH=128,C_AXI_RDATA_WIDTH=128,C_AXI_WID_WIDTH=16,C_AXI_RID_WIDTH=16,C_AXI_AWUSER_WIDTH=16,C_AXI_ARUSER_WIDTH=16,C_AXI_HAS_REGION=0)::run_phase.Block12612_319.) 25001 : run()
INFO: [Slave VIP_monitor] (.axi_vip_pkg.axi_monitor(C_AXI_ADDR_WIDTH=40,C_AXI_WDATA_WIDTH=128,C_AXI_RDATA_WIDTH=128,C_AXI_WID_WIDTH=16,C_AXI_RID_WIDTH=16,C_AXI_AWUSER_WIDTH=16,C_AXI_ARUSER_WIDTH=16,C_AXI_HAS_REGION=0)::run_phase.Block8620_210.) 25001 : run()
INFO: [Master VIP_rd_driver] (.axi_vip_pkg.axi_mst_rd_driver(C_AXI_WDATA_WIDTH=128,C_AXI_RDATA_WIDTH=128,C_AXI_WID_WIDTH=16,C_AXI_RID_WIDTH=16,C_AXI_AWUSER_WIDTH=16,C_AXI_ARUSER_WIDTH=16)::run_phase.Block10873_272.) 25001 : run()
INFO: [Master VIP_wr_driver] (.axi_vip_pkg.axi_mst_wr_driver(C_AXI_WDATA_WIDTH=128,C_AXI_RDATA_WIDTH=128,C_AXI_WID_WIDTH=16,C_AXI_RID_WIDTH=16,C_AXI_AWUSER_WIDTH=16,C_AXI_ARUSER_WIDTH=16)::run_phase.Block9793_226.) 25001 : run()
INFO: [Master VIP_monitor] (.axi_vip_pkg.axi_monitor(C_AXI_WDATA_WIDTH=128,C_AXI_RDATA_WIDTH=128,C_AXI_WID_WIDTH=16,C_AXI_RID_WIDTH=16,C_AXI_AWUSER_WIDTH=16,C_AXI_ARUSER_WIDTH=16)::run_phase.Block8620_193.) 25001 : run()
INFO: [Master VIP_wr_driver] (axi_vip_pkg.axi_mst_wr_driver(C_AXI_WDATA_WIDTH=128,C_AXI_RDATA_WIDTH=128,C_AXI_WID_WIDTH=16,C_AXI_RID_WIDTH=16,C_AXI_AWUSER_WIDTH=16,C_AXI_ARUSER_WIDTH=16)::get_and_drive.GET_AND_DRIVE) 40000 : Sending transaction: 
INFO: [Master VIP_wr_driver] (axi_vip_pkg.axi_mst_wr_driver(C_AXI_WDATA_WIDTH=128,C_AXI_RDATA_WIDTH=128,C_AXI_WID_WIDTH=16,C_AXI_RID_WIDTH=16,C_AXI_AWUSER_WIDTH=16,C_AXI_ARUSER_WIDTH=16)::get_and_drive.GET_AND_DRIVE) 40000 : ---------------------------------------------------------------------------------------------
  Name                         Value
---------------------------------------------------------------------------------------------
  CMD                          XIL_AXI_WRITE
  ADDR                         0x0000000000000000 
  WID                          0x00000000
  LEN                          0x00
  SIZE                         0x100
  BURST                        0x01
  CACHE                        0x0000
  LOCK                         0x00
  PROT                         0x000
  REGION                       0x0000
  QOS                          0x0000
  AWUSER                       0x0000
  BRESP                        XIL_AXI_RESP_OKAY
  DRIVER_RETURN_ITEM           XIL_AXI_PAYLOAD_RETURN 
  CREATION_TIME                40000
  SUBMIT_TIME                  0
  PAYLOAD                      16
    BEAT[          0]          0x00000000000000000000000800000020 (strb : 0b1111111111111111) :beat_delay:         0
--------------------------------------------------------------------------------------------
INFO: [Master VIP_wr_driver] (axi_vip_pkg.axi_mst_wr_driver(C_AXI_WDATA_WIDTH=128,C_AXI_RDATA_WIDTH=128,C_AXI_WID_WIDTH=16,C_AXI_RID_WIDTH=16,C_AXI_AWUSER_WIDTH=16,C_AXI_ARUSER_WIDTH=16)::w_channel.W_CHANNEL.Block10274_258.Block10274_259) 115000 : WREADY+WLAST (         0) id=0x00000000
INFO: [Master VIP_wr_driver] (axi_vip_pkg.axi_mst_wr_driver(C_AXI_WDATA_WIDTH=128,C_AXI_RDATA_WIDTH=128,C_AXI_WID_WIDTH=16,C_AXI_RID_WIDTH=16,C_AXI_AWUSER_WIDTH=16,C_AXI_ARUSER_WIDTH=16)::service_done_q.SERVICE_DONE_Q) 125000 : SERVICE_DONE_Q: XIL_AXI_WRITE (0) A:0x0000000000000000 ID:0x00000000 len:0x00 XIL_AXI_SIZE_16BYTE XIL_AXI_BURST_TYPE_INCR C:0b0000 L:XIL_AXI_ALOCK_NOLOCK P:0b000
INFO: [Master VIP_wr_driver] (axi_vip_pkg.axi_mst_wr_driver(C_AXI_WDATA_WIDTH=128,C_AXI_RDATA_WIDTH=128,C_AXI_WID_WIDTH=16,C_AXI_RID_WIDTH=16,C_AXI_AWUSER_WIDTH=16,C_AXI_ARUSER_WIDTH=16)::get_and_drive.GET_AND_DRIVE) 145000 : Sending transaction: 
INFO: [Master VIP_wr_driver] (axi_vip_pkg.axi_mst_wr_driver(C_AXI_WDATA_WIDTH=128,C_AXI_RDATA_WIDTH=128,C_AXI_WID_WIDTH=16,C_AXI_RID_WIDTH=16,C_AXI_AWUSER_WIDTH=16,C_AXI_ARUSER_WIDTH=16)::get_and_drive.GET_AND_DRIVE) 145000 : ---------------------------------------------------------------------------------------------
  Name                         Value
---------------------------------------------------------------------------------------------
  CMD                          XIL_AXI_WRITE
  ADDR                         0x0000000000000010 
  WID                          0x00000000
  LEN                          0x00
  SIZE                         0x100
  BURST                        0x01
  CACHE                        0x0000
  LOCK                         0x00
  PROT                         0x000
  REGION                       0x0000
  QOS                          0x0000
  AWUSER                       0x0000
  BRESP                        XIL_AXI_RESP_OKAY
  DRIVER_RETURN_ITEM           XIL_AXI_PAYLOAD_RETURN 
  CREATION_TIME                145000
  SUBMIT_TIME                  0
  PAYLOAD                      16
    BEAT[          0]          0x00000000000000000000000000000000 (strb : 0b1111111111111111) :beat_delay:         0
--------------------------------------------------------------------------------------------
INFO: [Master VIP_wr_driver] (axi_vip_pkg.axi_mst_wr_driver(C_AXI_WDATA_WIDTH=128,C_AXI_RDATA_WIDTH=128,C_AXI_WID_WIDTH=16,C_AXI_RID_WIDTH=16,C_AXI_AWUSER_WIDTH=16,C_AXI_ARUSER_WIDTH=16)::w_channel.W_CHANNEL.Block10274_258.Block10274_259) 225000 : WREADY+WLAST (         0) id=0x00000000
INFO: [Master VIP_wr_driver] (axi_vip_pkg.axi_mst_wr_driver(C_AXI_WDATA_WIDTH=128,C_AXI_RDATA_WIDTH=128,C_AXI_WID_WIDTH=16,C_AXI_RID_WIDTH=16,C_AXI_AWUSER_WIDTH=16,C_AXI_ARUSER_WIDTH=16)::service_done_q.SERVICE_DONE_Q) 235000 : SERVICE_DONE_Q: XIL_AXI_WRITE (4) A:0x0000000000000010 ID:0x00000000 len:0x00 XIL_AXI_SIZE_16BYTE XIL_AXI_BURST_TYPE_INCR C:0b0000 L:XIL_AXI_ALOCK_NOLOCK P:0b000
INFO: [Master VIP_wr_driver] (axi_vip_pkg.axi_mst_wr_driver(C_AXI_WDATA_WIDTH=128,C_AXI_RDATA_WIDTH=128,C_AXI_WID_WIDTH=16,C_AXI_RID_WIDTH=16,C_AXI_AWUSER_WIDTH=16,C_AXI_ARUSER_WIDTH=16)::get_and_drive.GET_AND_DRIVE) 255000 : Sending transaction: 
INFO: [Master VIP_wr_driver] (axi_vip_pkg.axi_mst_wr_driver(C_AXI_WDATA_WIDTH=128,C_AXI_RDATA_WIDTH=128,C_AXI_WID_WIDTH=16,C_AXI_RID_WIDTH=16,C_AXI_AWUSER_WIDTH=16,C_AXI_ARUSER_WIDTH=16)::get_and_drive.GET_AND_DRIVE) 255000 : ---------------------------------------------------------------------------------------------
  Name                         Value
---------------------------------------------------------------------------------------------
  CMD                          XIL_AXI_WRITE
  ADDR                         0x0000000000000020 
  WID                          0x00000000
  LEN                          0x00
  SIZE                         0x100
  BURST                        0x01
  CACHE                        0x0000
  LOCK                         0x00
  PROT                         0x000
  REGION                       0x0000
  QOS                          0x0000
  AWUSER                       0x0000
  BRESP                        XIL_AXI_RESP_OKAY
  DRIVER_RETURN_ITEM           XIL_AXI_PAYLOAD_RETURN 
  CREATION_TIME                255000
  SUBMIT_TIME                  0
  PAYLOAD                      16
    BEAT[          0]          0x0000000000000000000000000f0e0d0c (strb : 0b1111111111111111) :beat_delay:         0
--------------------------------------------------------------------------------------------
INFO: [Master VIP_wr_driver] (axi_vip_pkg.axi_mst_wr_driver(C_AXI_WDATA_WIDTH=128,C_AXI_RDATA_WIDTH=128,C_AXI_WID_WIDTH=16,C_AXI_RID_WIDTH=16,C_AXI_AWUSER_WIDTH=16,C_AXI_ARUSER_WIDTH=16)::w_channel.W_CHANNEL.Block10274_258.Block10274_259) 335000 : WREADY+WLAST (         0) id=0x00000000
INFO: [Master VIP_wr_driver] (axi_vip_pkg.axi_mst_wr_driver(C_AXI_WDATA_WIDTH=128,C_AXI_RDATA_WIDTH=128,C_AXI_WID_WIDTH=16,C_AXI_RID_WIDTH=16,C_AXI_AWUSER_WIDTH=16,C_AXI_ARUSER_WIDTH=16)::service_done_q.SERVICE_DONE_Q) 345000 : SERVICE_DONE_Q: XIL_AXI_WRITE (8) A:0x0000000000000020 ID:0x00000000 len:0x00 XIL_AXI_SIZE_16BYTE XIL_AXI_BURST_TYPE_INCR C:0b0000 L:XIL_AXI_ALOCK_NOLOCK P:0b000
INFO: [Master VIP_wr_driver] (axi_vip_pkg.axi_mst_wr_driver(C_AXI_WDATA_WIDTH=128,C_AXI_RDATA_WIDTH=128,C_AXI_WID_WIDTH=16,C_AXI_RID_WIDTH=16,C_AXI_AWUSER_WIDTH=16,C_AXI_ARUSER_WIDTH=16)::get_and_drive.GET_AND_DRIVE) 365000 : Sending transaction: 
INFO: [Master VIP_wr_driver] (axi_vip_pkg.axi_mst_wr_driver(C_AXI_WDATA_WIDTH=128,C_AXI_RDATA_WIDTH=128,C_AXI_WID_WIDTH=16,C_AXI_RID_WIDTH=16,C_AXI_AWUSER_WIDTH=16,C_AXI_ARUSER_WIDTH=16)::get_and_drive.GET_AND_DRIVE) 365000 : ---------------------------------------------------------------------------------------------
  Name                         Value
---------------------------------------------------------------------------------------------
  CMD                          XIL_AXI_WRITE
  ADDR                         0x0000000000000024 
  WID                          0x00000000
  LEN                          0x00
  SIZE                         0x100
  BURST                        0x01
  CACHE                        0x0000
  LOCK                         0x00
  PROT                         0x000
  REGION                       0x0000
  QOS                          0x0000
  AWUSER                       0x0000
  BRESP                        XIL_AXI_RESP_OKAY
  DRIVER_RETURN_ITEM           XIL_AXI_PAYLOAD_RETURN 
  CREATION_TIME                365000
  SUBMIT_TIME                  0
  PAYLOAD                      16
    BEAT[          0]          0x000000000000000000000000aaaaaaaa (strb : 0b1111111111110000) :beat_delay:         0
--------------------------------------------------------------------------------------------
INFO: [Master VIP_wr_driver] (axi_vip_pkg.axi_mst_wr_driver(C_AXI_WDATA_WIDTH=128,C_AXI_RDATA_WIDTH=128,C_AXI_WID_WIDTH=16,C_AXI_RID_WIDTH=16,C_AXI_AWUSER_WIDTH=16,C_AXI_ARUSER_WIDTH=16)::w_channel.W_CHANNEL.Block10274_258.Block10274_259) 445000 : WREADY+WLAST (         0) id=0x00000000
INFO: [Master VIP_wr_driver] (axi_vip_pkg.axi_mst_wr_driver(C_AXI_WDATA_WIDTH=128,C_AXI_RDATA_WIDTH=128,C_AXI_WID_WIDTH=16,C_AXI_RID_WIDTH=16,C_AXI_AWUSER_WIDTH=16,C_AXI_ARUSER_WIDTH=16)::service_done_q.SERVICE_DONE_Q) 455000 : SERVICE_DONE_Q: XIL_AXI_WRITE (12) A:0x0000000000000024 ID:0x00000000 len:0x00 XIL_AXI_SIZE_16BYTE XIL_AXI_BURST_TYPE_INCR C:0b0000 L:XIL_AXI_ALOCK_NOLOCK P:0b000
INFO: [Master VIP_wr_driver] (axi_vip_pkg.axi_mst_wr_driver(C_AXI_WDATA_WIDTH=128,C_AXI_RDATA_WIDTH=128,C_AXI_WID_WIDTH=16,C_AXI_RID_WIDTH=16,C_AXI_AWUSER_WIDTH=16,C_AXI_ARUSER_WIDTH=16)::get_and_drive.GET_AND_DRIVE) 475000 : Sending transaction: 
INFO: [Master VIP_wr_driver] (axi_vip_pkg.axi_mst_wr_driver(C_AXI_WDATA_WIDTH=128,C_AXI_RDATA_WIDTH=128,C_AXI_WID_WIDTH=16,C_AXI_RID_WIDTH=16,C_AXI_AWUSER_WIDTH=16,C_AXI_ARUSER_WIDTH=16)::get_and_drive.GET_AND_DRIVE) 475000 : ---------------------------------------------------------------------------------------------
  Name                         Value
---------------------------------------------------------------------------------------------
  CMD                          XIL_AXI_WRITE
  ADDR                         0x0000000000000028 
  WID                          0x00000000
  LEN                          0x00
  SIZE                         0x100
  BURST                        0x01
  CACHE                        0x0000
  LOCK                         0x00
  PROT                         0x000
  REGION                       0x0000
  QOS                          0x0000
  AWUSER                       0x0000
  BRESP                        XIL_AXI_RESP_OKAY
  DRIVER_RETURN_ITEM           XIL_AXI_PAYLOAD_RETURN 
  CREATION_TIME                475000
  SUBMIT_TIME                  0
  PAYLOAD                      16
    BEAT[          0]          0x00000000000000000000000100000000 (strb : 0b1111111100000000) :beat_delay:         0
--------------------------------------------------------------------------------------------
INFO: [Master VIP_wr_driver] (axi_vip_pkg.axi_mst_wr_driver(C_AXI_WDATA_WIDTH=128,C_AXI_RDATA_WIDTH=128,C_AXI_WID_WIDTH=16,C_AXI_RID_WIDTH=16,C_AXI_AWUSER_WIDTH=16,C_AXI_ARUSER_WIDTH=16)::w_channel.W_CHANNEL.Block10274_258.Block10274_259) 555000 : WREADY+WLAST (         0) id=0x00000000
INFO: [Master VIP_wr_driver] (axi_vip_pkg.axi_mst_wr_driver(C_AXI_WDATA_WIDTH=128,C_AXI_RDATA_WIDTH=128,C_AXI_WID_WIDTH=16,C_AXI_RID_WIDTH=16,C_AXI_AWUSER_WIDTH=16,C_AXI_ARUSER_WIDTH=16)::service_done_q.SERVICE_DONE_Q) 565000 : SERVICE_DONE_Q: XIL_AXI_WRITE (16) A:0x0000000000000028 ID:0x00000000 len:0x00 XIL_AXI_SIZE_16BYTE XIL_AXI_BURST_TYPE_INCR C:0b0000 L:XIL_AXI_ALOCK_NOLOCK P:0b000
INFO: [Master VIP_wr_driver] (axi_vip_pkg.axi_mst_wr_driver(C_AXI_WDATA_WIDTH=128,C_AXI_RDATA_WIDTH=128,C_AXI_WID_WIDTH=16,C_AXI_RID_WIDTH=16,C_AXI_AWUSER_WIDTH=16,C_AXI_ARUSER_WIDTH=16)::get_and_drive.GET_AND_DRIVE) 585000 : Sending transaction: 
INFO: [Master VIP_wr_driver] (axi_vip_pkg.axi_mst_wr_driver(C_AXI_WDATA_WIDTH=128,C_AXI_RDATA_WIDTH=128,C_AXI_WID_WIDTH=16,C_AXI_RID_WIDTH=16,C_AXI_AWUSER_WIDTH=16,C_AXI_ARUSER_WIDTH=16)::get_and_drive.GET_AND_DRIVE) 585000 : ---------------------------------------------------------------------------------------------
  Name                         Value
---------------------------------------------------------------------------------------------
  CMD                          XIL_AXI_WRITE
  ADDR                         0x000000000000002c 
  WID                          0x00000000
  LEN                          0x00
  SIZE                         0x100
  BURST                        0x01
  CACHE                        0x0000
  LOCK                         0x00
  PROT                         0x000
  REGION                       0x0000
  QOS                          0x0000
  AWUSER                       0x0000
  BRESP                        XIL_AXI_RESP_OKAY
  DRIVER_RETURN_ITEM           XIL_AXI_PAYLOAD_RETURN 
  CREATION_TIME                585000
  SUBMIT_TIME                  0
  PAYLOAD                      16
    BEAT[          0]          0x00000000000000000000000000000000 (strb : 0b1111000000000000) :beat_delay:         0
--------------------------------------------------------------------------------------------
INFO: [Master VIP_wr_driver] (axi_vip_pkg.axi_mst_wr_driver(C_AXI_WDATA_WIDTH=128,C_AXI_RDATA_WIDTH=128,C_AXI_WID_WIDTH=16,C_AXI_RID_WIDTH=16,C_AXI_AWUSER_WIDTH=16,C_AXI_ARUSER_WIDTH=16)::w_channel.W_CHANNEL.Block10274_258.Block10274_259) 665000 : WREADY+WLAST (         0) id=0x00000000
INFO: [Master VIP_wr_driver] (axi_vip_pkg.axi_mst_wr_driver(C_AXI_WDATA_WIDTH=128,C_AXI_RDATA_WIDTH=128,C_AXI_WID_WIDTH=16,C_AXI_RID_WIDTH=16,C_AXI_AWUSER_WIDTH=16,C_AXI_ARUSER_WIDTH=16)::service_done_q.SERVICE_DONE_Q) 675000 : SERVICE_DONE_Q: XIL_AXI_WRITE (20) A:0x000000000000002c ID:0x00000000 len:0x00 XIL_AXI_SIZE_16BYTE XIL_AXI_BURST_TYPE_INCR C:0b0000 L:XIL_AXI_ALOCK_NOLOCK P:0b000
INFO: [Master VIP_wr_driver] (axi_vip_pkg.axi_mst_wr_driver(C_AXI_WDATA_WIDTH=128,C_AXI_RDATA_WIDTH=128,C_AXI_WID_WIDTH=16,C_AXI_RID_WIDTH=16,C_AXI_AWUSER_WIDTH=16,C_AXI_ARUSER_WIDTH=16)::get_and_drive.GET_AND_DRIVE) 695000 : Sending transaction: 
INFO: [Master VIP_wr_driver] (axi_vip_pkg.axi_mst_wr_driver(C_AXI_WDATA_WIDTH=128,C_AXI_RDATA_WIDTH=128,C_AXI_WID_WIDTH=16,C_AXI_RID_WIDTH=16,C_AXI_AWUSER_WIDTH=16,C_AXI_ARUSER_WIDTH=16)::get_and_drive.GET_AND_DRIVE) 695000 : ---------------------------------------------------------------------------------------------
  Name                         Value
---------------------------------------------------------------------------------------------
  CMD                          XIL_AXI_WRITE
  ADDR                         0x0000000000000030 
  WID                          0x00000000
  LEN                          0x00
  SIZE                         0x100
  BURST                        0x01
  CACHE                        0x0000
  LOCK                         0x00
  PROT                         0x000
  REGION                       0x0000
  QOS                          0x0000
  AWUSER                       0x0000
  BRESP                        XIL_AXI_RESP_OKAY
  DRIVER_RETURN_ITEM           XIL_AXI_PAYLOAD_RETURN 
  CREATION_TIME                695000
  SUBMIT_TIME                  0
  PAYLOAD                      16
    BEAT[          0]          0x00000000000000000000000000000000 (strb : 0b1111111111111111) :beat_delay:         0
--------------------------------------------------------------------------------------------
INFO: [Master VIP_wr_driver] (axi_vip_pkg.axi_mst_wr_driver(C_AXI_WDATA_WIDTH=128,C_AXI_RDATA_WIDTH=128,C_AXI_WID_WIDTH=16,C_AXI_RID_WIDTH=16,C_AXI_AWUSER_WIDTH=16,C_AXI_ARUSER_WIDTH=16)::w_channel.W_CHANNEL.Block10274_258.Block10274_259) 775000 : WREADY+WLAST (         0) id=0x00000000
INFO: [Master VIP_wr_driver] (axi_vip_pkg.axi_mst_wr_driver(C_AXI_WDATA_WIDTH=128,C_AXI_RDATA_WIDTH=128,C_AXI_WID_WIDTH=16,C_AXI_RID_WIDTH=16,C_AXI_AWUSER_WIDTH=16,C_AXI_ARUSER_WIDTH=16)::service_done_q.SERVICE_DONE_Q) 785000 : SERVICE_DONE_Q: XIL_AXI_WRITE (24) A:0x0000000000000030 ID:0x00000000 len:0x00 XIL_AXI_SIZE_16BYTE XIL_AXI_BURST_TYPE_INCR C:0b0000 L:XIL_AXI_ALOCK_NOLOCK P:0b000
INFO: [Master VIP_wr_driver] (axi_vip_pkg.axi_mst_wr_driver(C_AXI_WDATA_WIDTH=128,C_AXI_RDATA_WIDTH=128,C_AXI_WID_WIDTH=16,C_AXI_RID_WIDTH=16,C_AXI_AWUSER_WIDTH=16,C_AXI_ARUSER_WIDTH=16)::get_and_drive.GET_AND_DRIVE) 805000 : Sending transaction: 
INFO: [Master VIP_wr_driver] (axi_vip_pkg.axi_mst_wr_driver(C_AXI_WDATA_WIDTH=128,C_AXI_RDATA_WIDTH=128,C_AXI_WID_WIDTH=16,C_AXI_RID_WIDTH=16,C_AXI_AWUSER_WIDTH=16,C_AXI_ARUSER_WIDTH=16)::get_and_drive.GET_AND_DRIVE) 805000 : ---------------------------------------------------------------------------------------------
  Name                         Value
---------------------------------------------------------------------------------------------
  CMD                          XIL_AXI_WRITE
  ADDR                         0x0000000000000034 
  WID                          0x00000000
  LEN                          0x00
  SIZE                         0x100
  BURST                        0x01
  CACHE                        0x0000
  LOCK                         0x00
  PROT                         0x000
  REGION                       0x0000
  QOS                          0x0000
  AWUSER                       0x0000
  BRESP                        XIL_AXI_RESP_OKAY
  DRIVER_RETURN_ITEM           XIL_AXI_PAYLOAD_RETURN 
  CREATION_TIME                805000
  SUBMIT_TIME                  0
  PAYLOAD                      16
    BEAT[          0]          0x0000000000000000eeeeeeee00000002 (strb : 0b1111111111110000) :beat_delay:         0
--------------------------------------------------------------------------------------------
INFO: [Master VIP_wr_driver] (axi_vip_pkg.axi_mst_wr_driver(C_AXI_WDATA_WIDTH=128,C_AXI_RDATA_WIDTH=128,C_AXI_WID_WIDTH=16,C_AXI_RID_WIDTH=16,C_AXI_AWUSER_WIDTH=16,C_AXI_ARUSER_WIDTH=16)::w_channel.W_CHANNEL.Block10274_258.Block10274_259) 885000 : WREADY+WLAST (         0) id=0x00000000
INFO: [Master VIP_wr_driver] (axi_vip_pkg.axi_mst_wr_driver(C_AXI_WDATA_WIDTH=128,C_AXI_RDATA_WIDTH=128,C_AXI_WID_WIDTH=16,C_AXI_RID_WIDTH=16,C_AXI_AWUSER_WIDTH=16,C_AXI_ARUSER_WIDTH=16)::service_done_q.SERVICE_DONE_Q) 895000 : SERVICE_DONE_Q: XIL_AXI_WRITE (28) A:0x0000000000000034 ID:0x00000000 len:0x00 XIL_AXI_SIZE_16BYTE XIL_AXI_BURST_TYPE_INCR C:0b0000 L:XIL_AXI_ALOCK_NOLOCK P:0b000
INFO: [Master VIP_wr_driver] (axi_vip_pkg.axi_mst_wr_driver(C_AXI_WDATA_WIDTH=128,C_AXI_RDATA_WIDTH=128,C_AXI_WID_WIDTH=16,C_AXI_RID_WIDTH=16,C_AXI_AWUSER_WIDTH=16,C_AXI_ARUSER_WIDTH=16)::get_and_drive.GET_AND_DRIVE) 915000 : Sending transaction: 
INFO: [Master VIP_wr_driver] (axi_vip_pkg.axi_mst_wr_driver(C_AXI_WDATA_WIDTH=128,C_AXI_RDATA_WIDTH=128,C_AXI_WID_WIDTH=16,C_AXI_RID_WIDTH=16,C_AXI_AWUSER_WIDTH=16,C_AXI_ARUSER_WIDTH=16)::get_and_drive.GET_AND_DRIVE) 915000 : ---------------------------------------------------------------------------------------------
  Name                         Value
---------------------------------------------------------------------------------------------
  CMD                          XIL_AXI_WRITE
  ADDR                         0x0000000000000038 
  WID                          0x00000000
  LEN                          0x00
  SIZE                         0x100
  BURST                        0x01
  CACHE                        0x0000
  LOCK                         0x00
  PROT                         0x000
  REGION                       0x0000
  QOS                          0x0000
  AWUSER                       0x0000
  BRESP                        XIL_AXI_RESP_OKAY
  DRIVER_RETURN_ITEM           XIL_AXI_PAYLOAD_RETURN 
  CREATION_TIME                915000
  SUBMIT_TIME                  0
  PAYLOAD                      16
    BEAT[          0]          0x00000000000000000000000000000002 (strb : 0b1111111100000000) :beat_delay:         0
--------------------------------------------------------------------------------------------
INFO: [Master VIP_wr_driver] (axi_vip_pkg.axi_mst_wr_driver(C_AXI_WDATA_WIDTH=128,C_AXI_RDATA_WIDTH=128,C_AXI_WID_WIDTH=16,C_AXI_RID_WIDTH=16,C_AXI_AWUSER_WIDTH=16,C_AXI_ARUSER_WIDTH=16)::w_channel.W_CHANNEL.Block10274_258.Block10274_259) 995000 : WREADY+WLAST (         0) id=0x00000000
INFO: [Master VIP_wr_driver] (axi_vip_pkg.axi_mst_wr_driver(C_AXI_WDATA_WIDTH=128,C_AXI_RDATA_WIDTH=128,C_AXI_WID_WIDTH=16,C_AXI_RID_WIDTH=16,C_AXI_AWUSER_WIDTH=16,C_AXI_ARUSER_WIDTH=16)::service_done_q.SERVICE_DONE_Q) 1005000 : SERVICE_DONE_Q: XIL_AXI_WRITE (32) A:0x0000000000000038 ID:0x00000000 len:0x00 XIL_AXI_SIZE_16BYTE XIL_AXI_BURST_TYPE_INCR C:0b0000 L:XIL_AXI_ALOCK_NOLOCK P:0b000
INFO: [Master VIP_rd_driver] (axi_vip_pkg.axi_mst_rd_driver(C_AXI_WDATA_WIDTH=128,C_AXI_RDATA_WIDTH=128,C_AXI_WID_WIDTH=16,C_AXI_RID_WIDTH=16,C_AXI_AWUSER_WIDTH=16,C_AXI_ARUSER_WIDTH=16)::ar_channel.AR_CHANNEL) 1085001 : ARVALID id=0x00000000
INFO: [Master VIP_rd_driver] (axi_vip_pkg.axi_mst_rd_driver(C_AXI_WDATA_WIDTH=128,C_AXI_RDATA_WIDTH=128,C_AXI_WID_WIDTH=16,C_AXI_RID_WIDTH=16,C_AXI_AWUSER_WIDTH=16,C_AXI_ARUSER_WIDTH=16)::ar_channel.AR_CHANNEL) 1145001 : ARVALID id=0x00000000
INFO: [Master VIP_rd_driver] (axi_vip_pkg.axi_mst_rd_driver(C_AXI_WDATA_WIDTH=128,C_AXI_RDATA_WIDTH=128,C_AXI_WID_WIDTH=16,C_AXI_RID_WIDTH=16,C_AXI_AWUSER_WIDTH=16,C_AXI_ARUSER_WIDTH=16)::ar_channel.AR_CHANNEL) 1205001 : ARVALID id=0x00000000
INFO: [Master VIP_rd_driver] (axi_vip_pkg.axi_mst_rd_driver(C_AXI_WDATA_WIDTH=128,C_AXI_RDATA_WIDTH=128,C_AXI_WID_WIDTH=16,C_AXI_RID_WIDTH=16,C_AXI_AWUSER_WIDTH=16,C_AXI_ARUSER_WIDTH=16)::ar_channel.AR_CHANNEL) 1265001 : ARVALID id=0x00000000
INFO: [Master VIP_rd_driver] (axi_vip_pkg.axi_mst_rd_driver(C_AXI_WDATA_WIDTH=128,C_AXI_RDATA_WIDTH=128,C_AXI_WID_WIDTH=16,C_AXI_RID_WIDTH=16,C_AXI_AWUSER_WIDTH=16,C_AXI_ARUSER_WIDTH=16)::ar_channel.AR_CHANNEL) 1325001 : ARVALID id=0x00000000
INFO: [Master VIP_rd_driver] (axi_vip_pkg.axi_mst_rd_driver(C_AXI_WDATA_WIDTH=128,C_AXI_RDATA_WIDTH=128,C_AXI_WID_WIDTH=16,C_AXI_RID_WIDTH=16,C_AXI_AWUSER_WIDTH=16,C_AXI_ARUSER_WIDTH=16)::ar_channel.AR_CHANNEL) 1385001 : ARVALID id=0x00000000
INFO: [Master VIP_rd_driver] (axi_vip_pkg.axi_mst_rd_driver(C_AXI_WDATA_WIDTH=128,C_AXI_RDATA_WIDTH=128,C_AXI_WID_WIDTH=16,C_AXI_RID_WIDTH=16,C_AXI_AWUSER_WIDTH=16,C_AXI_ARUSER_WIDTH=16)::ar_channel.AR_CHANNEL) 1445001 : ARVALID id=0x00000000
Data match, test succeeded
Warning: [continuous_wrburst_00000000] (axi_vip_pkg.axi_transaction::set_addr) 1565000 : Attempted to send ADDR (0x0000000400000000) which is wider than addr_width (        32). Truncating ADDR to (0x0)
Time: 1565 ns  Iteration: 0  Process: /axi_vip_pkg/axi_mst_wr_driver(C_AXI_WDATA_WIDTH=128,C_AXI_RDATA_WIDTH=128,C_AXI_WID_WIDTH=16,C_AXI_RID_WIDTH=16,C_AXI_AWUSER_WIDTH=16,C_AXI_ARUSER_WIDTH=16)::get_and_drive/GET_AND_DRIVE  File: /wrk/2017.4/nightly/2017_12_15_2086221/prep/rdi/vivado/data/xilinx_vip/hdl/axi_vip_pkg.sv
INFO: [Master VIP_wr_driver] (axi_vip_pkg.axi_mst_wr_driver(C_AXI_WDATA_WIDTH=128,C_AXI_RDATA_WIDTH=128,C_AXI_WID_WIDTH=16,C_AXI_RID_WIDTH=16,C_AXI_AWUSER_WIDTH=16,C_AXI_ARUSER_WIDTH=16)::get_and_drive.GET_AND_DRIVE) 1565000 : Sending transaction: 
INFO: [Master VIP_wr_driver] (axi_vip_pkg.axi_mst_wr_driver(C_AXI_WDATA_WIDTH=128,C_AXI_RDATA_WIDTH=128,C_AXI_WID_WIDTH=16,C_AXI_RID_WIDTH=16,C_AXI_AWUSER_WIDTH=16,C_AXI_ARUSER_WIDTH=16)::get_and_drive.GET_AND_DRIVE) 1565000 : ---------------------------------------------------------------------------------------------
  Name                         Value
---------------------------------------------------------------------------------------------
  CMD                          XIL_AXI_WRITE
  ADDR                         0x0000000000000000 
  WID                          0x000001ad
  LEN                          0x00
  SIZE                         0x010
  BURST                        0x01
  CACHE                        0x0000
  LOCK                         0x00
  PROT                         0x010
  REGION                       0x1000
  QOS                          0x0001
  AWUSER                       0x2231ff443cf11979efbe94dfda8ae2b5b29fb665ed536cdaf682e2ed14cfc1292d28db5af3091ae6e59b36cb7bf8fdf722290d44afd8565fd9d292b39799a82fd18bb4a339961773937dbc267d3599face2ff29cc71a0c8ec33f38862c156358150caf2a9ff2ae3f248b4b492dda595bbc14887842d92f85e9ebf6d30fd28f1f
  BRESP                        XIL_AXI_RESP_OKAY
  DRIVER_RETURN_ITEM           XIL_AXI_NO_RETURN 
  CREATION_TIME                1565000
  SUBMIT_TIME                  0
  PAYLOAD                      4
    BEAT[          0]          0x5b5c9fb7 (strb : 0b1111) :beat_delay:         0
--------------------------------------------------------------------------------------------
Warning: [continuous_wrburst_00000001] (axi_vip_pkg.axi_transaction::set_addr) 1565000 : Attempted to send ADDR (0x0000000400000004) which is wider than addr_width (        32). Truncating ADDR to (0x4)
Time: 1565 ns  Iteration: 0  Process: /axi_vip_pkg/axi_mst_wr_driver(C_AXI_WDATA_WIDTH=128,C_AXI_RDATA_WIDTH=128,C_AXI_WID_WIDTH=16,C_AXI_RID_WIDTH=16,C_AXI_AWUSER_WIDTH=16,C_AXI_ARUSER_WIDTH=16)::get_and_drive/GET_AND_DRIVE  File: /wrk/2017.4/nightly/2017_12_15_2086221/prep/rdi/vivado/data/xilinx_vip/hdl/axi_vip_pkg.sv
INFO: [Master VIP_wr_driver] (axi_vip_pkg.axi_mst_wr_driver(C_AXI_WDATA_WIDTH=128,C_AXI_RDATA_WIDTH=128,C_AXI_WID_WIDTH=16,C_AXI_RID_WIDTH=16,C_AXI_AWUSER_WIDTH=16,C_AXI_ARUSER_WIDTH=16)::get_and_drive.GET_AND_DRIVE) 1565000 : Sending transaction: 
INFO: [Master VIP_wr_driver] (axi_vip_pkg.axi_mst_wr_driver(C_AXI_WDATA_WIDTH=128,C_AXI_RDATA_WIDTH=128,C_AXI_WID_WIDTH=16,C_AXI_RID_WIDTH=16,C_AXI_AWUSER_WIDTH=16,C_AXI_ARUSER_WIDTH=16)::get_and_drive.GET_AND_DRIVE) 1565000 : ---------------------------------------------------------------------------------------------
  Name                         Value
---------------------------------------------------------------------------------------------
  CMD                          XIL_AXI_WRITE
  ADDR                         0x0000000000000004 
  WID                          0x000001ad
  LEN                          0x00
  SIZE                         0x010
  BURST                        0x01
  CACHE                        0x0011
  LOCK                         0x00
  PROT                         0x111
  REGION                       0x1010
  QOS                          0x0110
  AWUSER                       0xc6d1008dbe8eee7dea32a2d446be978da6b8684d514ac5a29f03cc3e41f64d83476c8f8e98a788313edfe37d7ba3ebf7276a854e4d22a39a7875ddf0e65e38cc65801fcb760d33ec26d76d4d3de9b77b669ff3cdf2b020e57b2d09f643bcab87207553407b300df6bd29e27a2d43195a9cb85239fd315cfa163fef2c87e2c20f
  BRESP                        XIL_AXI_RESP_OKAY
  DRIVER_RETURN_ITEM           XIL_AXI_NO_RETURN 
  CREATION_TIME                1565000
  SUBMIT_TIME                  0
  PAYLOAD                      4
    BEAT[          0]          0x28ed905f (strb : 0b1111) :beat_delay:         0
--------------------------------------------------------------------------------------------
Warning: [continuous_wrburst_00000002] (axi_vip_pkg.axi_transaction::set_addr) 1565000 : Attempted to send ADDR (0x0000000400000008) which is wider than addr_width (        32). Truncating ADDR to (0x8)
Time: 1565 ns  Iteration: 0  Process: /axi_vip_pkg/axi_mst_wr_driver(C_AXI_WDATA_WIDTH=128,C_AXI_RDATA_WIDTH=128,C_AXI_WID_WIDTH=16,C_AXI_RID_WIDTH=16,C_AXI_AWUSER_WIDTH=16,C_AXI_ARUSER_WIDTH=16)::get_and_drive/GET_AND_DRIVE  File: /wrk/2017.4/nightly/2017_12_15_2086221/prep/rdi/vivado/data/xilinx_vip/hdl/axi_vip_pkg.sv
INFO: [Master VIP_wr_driver] (axi_vip_pkg.axi_mst_wr_driver(C_AXI_WDATA_WIDTH=128,C_AXI_RDATA_WIDTH=128,C_AXI_WID_WIDTH=16,C_AXI_RID_WIDTH=16,C_AXI_AWUSER_WIDTH=16,C_AXI_ARUSER_WIDTH=16)::get_and_drive.GET_AND_DRIVE) 1565000 : Sending transaction: 
INFO: [Master VIP_wr_driver] (axi_vip_pkg.axi_mst_wr_driver(C_AXI_WDATA_WIDTH=128,C_AXI_RDATA_WIDTH=128,C_AXI_WID_WIDTH=16,C_AXI_RID_WIDTH=16,C_AXI_AWUSER_WIDTH=16,C_AXI_ARUSER_WIDTH=16)::get_and_drive.GET_AND_DRIVE) 1565000 : ---------------------------------------------------------------------------------------------
  Name                         Value
---------------------------------------------------------------------------------------------
  CMD                          XIL_AXI_WRITE
  ADDR                         0x0000000000000008 
  WID                          0x000001ad
  LEN                          0x00
  SIZE                         0x010
  BURST                        0x01
  CACHE                        0x0111
  LOCK                         0x00
  PROT                         0x011
  REGION                       0x0001
  QOS                          0x1101
  AWUSER                       0x83627406132ce326e03202c031736d62bea0667d8a99f215ebfbcad75e92bfbdfb9920f7528619a52a3f495403c9e307065d310cdfd03abf9212f22402351d04bcd5ee79e5d2fecb8d37fa1a5b8671b7d0196ea0e908c4d2d14e54a25c09a3b8327e8364716fb3e297c8b62fde6834bc4670bf8c40adab8128a093516d2d6fda
  BRESP                        XIL_AXI_RESP_OKAY
  DRIVER_RETURN_ITEM           XIL_AXI_NO_RETURN 
  CREATION_TIME                1565000
  SUBMIT_TIME                  0
  PAYLOAD                      4
    BEAT[          0]          0x75bb242c (strb : 0b1111) :beat_delay:         0
--------------------------------------------------------------------------------------------
Warning: [continuous_wrburst_00000003] (axi_vip_pkg.axi_transaction::set_addr) 1565000 : Attempted to send ADDR (0x000000040000000c) which is wider than addr_width (        32). Truncating ADDR to (0xc)
Time: 1565 ns  Iteration: 0  Process: /axi_vip_pkg/axi_mst_wr_driver(C_AXI_WDATA_WIDTH=128,C_AXI_RDATA_WIDTH=128,C_AXI_WID_WIDTH=16,C_AXI_RID_WIDTH=16,C_AXI_AWUSER_WIDTH=16,C_AXI_ARUSER_WIDTH=16)::get_and_drive/GET_AND_DRIVE  File: /wrk/2017.4/nightly/2017_12_15_2086221/prep/rdi/vivado/data/xilinx_vip/hdl/axi_vip_pkg.sv
INFO: [Master VIP_wr_driver] (axi_vip_pkg.axi_mst_wr_driver(C_AXI_WDATA_WIDTH=128,C_AXI_RDATA_WIDTH=128,C_AXI_WID_WIDTH=16,C_AXI_RID_WIDTH=16,C_AXI_AWUSER_WIDTH=16,C_AXI_ARUSER_WIDTH=16)::get_and_drive.GET_AND_DRIVE) 1565000 : Sending transaction: 
INFO: [Master VIP_wr_driver] (axi_vip_pkg.axi_mst_wr_driver(C_AXI_WDATA_WIDTH=128,C_AXI_RDATA_WIDTH=128,C_AXI_WID_WIDTH=16,C_AXI_RID_WIDTH=16,C_AXI_AWUSER_WIDTH=16,C_AXI_ARUSER_WIDTH=16)::get_and_drive.GET_AND_DRIVE) 1565000 : ---------------------------------------------------------------------------------------------
  Name                         Value
---------------------------------------------------------------------------------------------
  CMD                          XIL_AXI_WRITE
  ADDR                         0x000000000000000c 
  WID                          0x000001ad
  LEN                          0x00
  SIZE                         0x010
  BURST                        0x01
  CACHE                        0x1111
  LOCK                         0x00
  PROT                         0x010
  REGION                       0x1101
  QOS                          0x0110
  AWUSER                       0x3341d0621b7b143f78ea8efdc95bab9c545608ae973f2d2a62d884c822c2c04b375d266eacb5cd548907b915b0431b698d06831aa20b454ea8150d5735aefe65d02d5bae6447eccd42ea0a83ea5477dca118c94e0f8fec110bfbd21c473de8828cbc351193639326da8b9db69171bd227ff6b4fbb2df07646be6b8df6031eec
  BRESP                        XIL_AXI_RESP_OKAY
  DRIVER_RETURN_ITEM           XIL_AXI_NO_RETURN 
  CREATION_TIME                1565000
  SUBMIT_TIME                  0
  PAYLOAD                      4
    BEAT[          0]          0x5c74426d (strb : 0b1111) :beat_delay:         0
--------------------------------------------------------------------------------------------
Warning: [continuous_wrburst_00000004] (axi_vip_pkg.axi_transaction::set_addr) 1565000 : Attempted to send ADDR (0x0000000400000010) which is wider than addr_width (        32). Truncating ADDR to (0x10)
Time: 1565 ns  Iteration: 0  Process: /axi_vip_pkg/axi_mst_wr_driver(C_AXI_WDATA_WIDTH=128,C_AXI_RDATA_WIDTH=128,C_AXI_WID_WIDTH=16,C_AXI_RID_WIDTH=16,C_AXI_AWUSER_WIDTH=16,C_AXI_ARUSER_WIDTH=16)::get_and_drive/GET_AND_DRIVE  File: /wrk/2017.4/nightly/2017_12_15_2086221/prep/rdi/vivado/data/xilinx_vip/hdl/axi_vip_pkg.sv
INFO: [Master VIP_wr_driver] (axi_vip_pkg.axi_mst_wr_driver(C_AXI_WDATA_WIDTH=128,C_AXI_RDATA_WIDTH=128,C_AXI_WID_WIDTH=16,C_AXI_RID_WIDTH=16,C_AXI_AWUSER_WIDTH=16,C_AXI_ARUSER_WIDTH=16)::get_and_drive.GET_AND_DRIVE) 1565000 : Sending transaction: 
INFO: [Master VIP_wr_driver] (axi_vip_pkg.axi_mst_wr_driver(C_AXI_WDATA_WIDTH=128,C_AXI_RDATA_WIDTH=128,C_AXI_WID_WIDTH=16,C_AXI_RID_WIDTH=16,C_AXI_AWUSER_WIDTH=16,C_AXI_ARUSER_WIDTH=16)::get_and_drive.GET_AND_DRIVE) 1565000 : ---------------------------------------------------------------------------------------------
  Name                         Value
---------------------------------------------------------------------------------------------
  CMD                          XIL_AXI_WRITE
  ADDR                         0x0000000000000010 
  WID                          0x000001ad
  LEN                          0x00
  SIZE                         0x010
  BURST                        0x01
  CACHE                        0x0011
  LOCK                         0x00
  PROT                         0x011
  REGION                       0x0100
  QOS                          0x1001
  AWUSER                       0x3e43137caf7d5a5eca6b2894fae724f54cf4ed99768e27ed9608e02c90106420925e8e242cab1f595cedb3b9cd906c9b0ffa4f1fce03e69ce803d2d04fe63d9f37df3f6f4b17e1964c0437988dda9c1b5bd533b7c01a34803a6a917499440c324d28bf9ae015c2c09529562a6d8ad3db013f3b02b7d1306ff91dbaf24fecf39f
  BRESP                        XIL_AXI_RESP_OKAY
  DRIVER_RETURN_ITEM           XIL_AXI_NO_RETURN 
  CREATION_TIME                1565000
  SUBMIT_TIME                  0
  PAYLOAD                      4
    BEAT[          0]          0xd29215b8 (strb : 0b1111) :beat_delay:         0
--------------------------------------------------------------------------------------------
Warning: [continuous_wrburst_00000005] (axi_vip_pkg.axi_transaction::set_addr) 1565000 : Attempted to send ADDR (0x0000000400000014) which is wider than addr_width (        32). Truncating ADDR to (0x14)
Time: 1565 ns  Iteration: 0  Process: /axi_vip_pkg/axi_mst_wr_driver(C_AXI_WDATA_WIDTH=128,C_AXI_RDATA_WIDTH=128,C_AXI_WID_WIDTH=16,C_AXI_RID_WIDTH=16,C_AXI_AWUSER_WIDTH=16,C_AXI_ARUSER_WIDTH=16)::get_and_drive/GET_AND_DRIVE  File: /wrk/2017.4/nightly/2017_12_15_2086221/prep/rdi/vivado/data/xilinx_vip/hdl/axi_vip_pkg.sv
INFO: [Master VIP_wr_driver] (axi_vip_pkg.axi_mst_wr_driver(C_AXI_WDATA_WIDTH=128,C_AXI_RDATA_WIDTH=128,C_AXI_WID_WIDTH=16,C_AXI_RID_WIDTH=16,C_AXI_AWUSER_WIDTH=16,C_AXI_ARUSER_WIDTH=16)::get_and_drive.GET_AND_DRIVE) 1565000 : Sending transaction: 
INFO: [Master VIP_wr_driver] (axi_vip_pkg.axi_mst_wr_driver(C_AXI_WDATA_WIDTH=128,C_AXI_RDATA_WIDTH=128,C_AXI_WID_WIDTH=16,C_AXI_RID_WIDTH=16,C_AXI_AWUSER_WIDTH=16,C_AXI_ARUSER_WIDTH=16)::get_and_drive.GET_AND_DRIVE) 1565000 : ---------------------------------------------------------------------------------------------
  Name                         Value
---------------------------------------------------------------------------------------------
  CMD                          XIL_AXI_WRITE
  ADDR                         0x0000000000000014 
  WID                          0x000001ad
  LEN                          0x00
  SIZE                         0x010
  BURST                        0x01
  CACHE                        0x1110
  LOCK                         0x00
  PROT                         0x001
  REGION                       0x1111
  QOS                          0x1111
  AWUSER                       0x1b420536d034b4a018f92b312dfd695b9f2f503e81cb5c0347634f8eb5f0626bcfe3ae9fbe00a27ca74ec44e2533454afcd5d4f969920bd3d98b26b3b15ff262ddc334bb19ded733f650c2ecba5c0e74e82402d06c2c0fd89d94b03be7fd00cfdf5f34bec2a87285441cc388b76be86ed3be7ca76b3089d6d1538ea2dc49aeb8
  BRESP                        XIL_AXI_RESP_OKAY
  DRIVER_RETURN_ITEM           XIL_AXI_NO_RETURN 
  CREATION_TIME                1565000
  SUBMIT_TIME                  0
  PAYLOAD                      4
    BEAT[          0]          0x3798ae10 (strb : 0b1111) :beat_delay:         0
--------------------------------------------------------------------------------------------
Warning: [continuous_wrburst_00000006] (axi_vip_pkg.axi_transaction::set_addr) 1565000 : Attempted to send ADDR (0x0000000400000018) which is wider than addr_width (        32). Truncating ADDR to (0x18)
Time: 1565 ns  Iteration: 0  Process: /axi_vip_pkg/axi_mst_wr_driver(C_AXI_WDATA_WIDTH=128,C_AXI_RDATA_WIDTH=128,C_AXI_WID_WIDTH=16,C_AXI_RID_WIDTH=16,C_AXI_AWUSER_WIDTH=16,C_AXI_ARUSER_WIDTH=16)::get_and_drive/GET_AND_DRIVE  File: /wrk/2017.4/nightly/2017_12_15_2086221/prep/rdi/vivado/data/xilinx_vip/hdl/axi_vip_pkg.sv
INFO: [Master VIP_wr_driver] (axi_vip_pkg.axi_mst_wr_driver(C_AXI_WDATA_WIDTH=128,C_AXI_RDATA_WIDTH=128,C_AXI_WID_WIDTH=16,C_AXI_RID_WIDTH=16,C_AXI_AWUSER_WIDTH=16,C_AXI_ARUSER_WIDTH=16)::get_and_drive.GET_AND_DRIVE) 1565000 : Sending transaction: 
INFO: [Master VIP_wr_driver] (axi_vip_pkg.axi_mst_wr_driver(C_AXI_WDATA_WIDTH=128,C_AXI_RDATA_WIDTH=128,C_AXI_WID_WIDTH=16,C_AXI_RID_WIDTH=16,C_AXI_AWUSER_WIDTH=16,C_AXI_ARUSER_WIDTH=16)::get_and_drive.GET_AND_DRIVE) 1565000 : ---------------------------------------------------------------------------------------------
  Name                         Value
---------------------------------------------------------------------------------------------
  CMD                          XIL_AXI_WRITE
  ADDR                         0x0000000000000018 
  WID                          0x000001ad
  LEN                          0x00
  SIZE                         0x010
  BURST                        0x01
  CACHE                        0x0110
  LOCK                         0x00
  PROT                         0x110
  REGION                       0x1110
  QOS                          0x0111
  AWUSER                       0x9025013d47517a708c03e1e84aa4d011c699230cbb5f190ed73f1ddb49b8b6765899ec374a6b6e98ffb831e30a46c6b49e386979b8dbf3241765488712100ebd104e7a80aed20186e2f80d32a49f653b1c6d76c8dc3691368de76df04732e05ab8e9b506dca90d0a1e6314e704cece96b8d42dfadb90f558a963b1dd7238ba
  BRESP                        XIL_AXI_RESP_OKAY
  DRIVER_RETURN_ITEM           XIL_AXI_NO_RETURN 
  CREATION_TIME                1565000
  SUBMIT_TIME                  0
  PAYLOAD                      4
    BEAT[          0]          0x66151c32 (strb : 0b1111) :beat_delay:         0
--------------------------------------------------------------------------------------------
Warning: [continuous_wrburst_00000007] (axi_vip_pkg.axi_transaction::set_addr) 1565000 : Attempted to send ADDR (0x000000040000001c) which is wider than addr_width (        32). Truncating ADDR to (0x1c)
Time: 1565 ns  Iteration: 0  Process: /axi_vip_pkg/axi_mst_wr_driver(C_AXI_WDATA_WIDTH=128,C_AXI_RDATA_WIDTH=128,C_AXI_WID_WIDTH=16,C_AXI_RID_WIDTH=16,C_AXI_AWUSER_WIDTH=16,C_AXI_ARUSER_WIDTH=16)::get_and_drive/GET_AND_DRIVE  File: /wrk/2017.4/nightly/2017_12_15_2086221/prep/rdi/vivado/data/xilinx_vip/hdl/axi_vip_pkg.sv
INFO: [Master VIP_wr_driver] (axi_vip_pkg.axi_mst_wr_driver(C_AXI_WDATA_WIDTH=128,C_AXI_RDATA_WIDTH=128,C_AXI_WID_WIDTH=16,C_AXI_RID_WIDTH=16,C_AXI_AWUSER_WIDTH=16,C_AXI_ARUSER_WIDTH=16)::get_and_drive.GET_AND_DRIVE) 1565000 : Sending transaction: 
INFO: [Master VIP_wr_driver] (axi_vip_pkg.axi_mst_wr_driver(C_AXI_WDATA_WIDTH=128,C_AXI_RDATA_WIDTH=128,C_AXI_WID_WIDTH=16,C_AXI_RID_WIDTH=16,C_AXI_AWUSER_WIDTH=16,C_AXI_ARUSER_WIDTH=16)::get_and_drive.GET_AND_DRIVE) 1565000 : ---------------------------------------------------------------------------------------------
  Name                         Value
---------------------------------------------------------------------------------------------
  CMD                          XIL_AXI_WRITE
  ADDR                         0x000000000000001c 
  WID                          0x000001ad
  LEN                          0x00
  SIZE                         0x010
  BURST                        0x01
  CACHE                        0x0001
  LOCK                         0x00
  PROT                         0x101
  REGION                       0x0011
  QOS                          0x1011
  AWUSER                       0x77add9efdb789ab60dbc4d1b552f71aaa219404451200da2c23da684d326b6a6f0745ee0f02d50e09d10563a3b19f9763175a9622fdcab5f4abdb595a983dc53bc7e507816001f2c70fbd5e1c9fec293eace4ad581037002bcc1887929a8d153ef784cde8bb02217b11a64628d47e81a0215c904ceb17c9d0ababd156f2db3de
  BRESP                        XIL_AXI_RESP_OKAY
  DRIVER_RETURN_ITEM           XIL_AXI_NO_RETURN 
  CREATION_TIME                1565000
  SUBMIT_TIME                  0
  PAYLOAD                      4
    BEAT[          0]          0xf56a88b6 (strb : 0b1111) :beat_delay:         0
--------------------------------------------------------------------------------------------
INFO: [Master VIP_wr_driver] (axi_vip_pkg.axi_mst_wr_driver(C_AXI_WDATA_WIDTH=128,C_AXI_RDATA_WIDTH=128,C_AXI_WID_WIDTH=16,C_AXI_RID_WIDTH=16,C_AXI_AWUSER_WIDTH=16,C_AXI_ARUSER_WIDTH=16)::w_channel.W_CHANNEL.Block10274_258.Block10274_259) 1605000 : WREADY+WLAST (         0) id=0x000001ad
INFO: [Master VIP_wr_driver] (axi_vip_pkg.axi_mst_wr_driver(C_AXI_WDATA_WIDTH=128,C_AXI_RDATA_WIDTH=128,C_AXI_WID_WIDTH=16,C_AXI_RID_WIDTH=16,C_AXI_AWUSER_WIDTH=16,C_AXI_ARUSER_WIDTH=16)::w_channel.W_CHANNEL.Block10274_258.Block10274_259) 1635000 : WREADY+WLAST (         0) id=0x000001ad
INFO: [Master VIP_wr_driver] (axi_vip_pkg.axi_mst_wr_driver(C_AXI_WDATA_WIDTH=128,C_AXI_RDATA_WIDTH=128,C_AXI_WID_WIDTH=16,C_AXI_RID_WIDTH=16,C_AXI_AWUSER_WIDTH=16,C_AXI_ARUSER_WIDTH=16)::w_channel.W_CHANNEL.Block10274_258.Block10274_259) 1665000 : WREADY+WLAST (         0) id=0x000001ad
INFO: [Slave VIP_wr_driver] (axi_vip_pkg.axi_slv_wr_driver(C_AXI_ADDR_WIDTH=40,C_AXI_WDATA_WIDTH=128,C_AXI_RDATA_WIDTH=128,C_AXI_WID_WIDTH=16,C_AXI_RID_WIDTH=16,C_AXI_AWUSER_WIDTH=16,C_AXI_ARUSER_WIDTH=16,C_AXI_HAS_REGION=0)::w_channel.W_CHANNEL) 1695000 : W LAST -- write_beat     Last:1 D:0x0000000000000000000000005b5c9fb7 BE:0b0000000000001111 
INFO: [Slave VIP_wr_driver] (axi_vip_pkg.axi_slv_wr_driver(C_AXI_ADDR_WIDTH=40,C_AXI_WDATA_WIDTH=128,C_AXI_RDATA_WIDTH=128,C_AXI_WID_WIDTH=16,C_AXI_RID_WIDTH=16,C_AXI_AWUSER_WIDTH=16,C_AXI_ARUSER_WIDTH=16,C_AXI_HAS_REGION=0)::aw_channel.AW_CHANNEL) 1695000 : AWVALID >>>
XIL_AXI_WRITE (85) A:0x0000000000000000 ID:0x000001ad len:0x00 XIL_AXI_SIZE_4BYTE XIL_AXI_BURST_TYPE_INCR C:0b0000 L:XIL_AXI_ALOCK_NOLOCK P:0b010<<<
INFO: [Master VIP_wr_driver] (axi_vip_pkg.axi_mst_wr_driver(C_AXI_WDATA_WIDTH=128,C_AXI_RDATA_WIDTH=128,C_AXI_WID_WIDTH=16,C_AXI_RID_WIDTH=16,C_AXI_AWUSER_WIDTH=16,C_AXI_ARUSER_WIDTH=16)::w_channel.W_CHANNEL.Block10274_258.Block10274_259) 1695000 : WREADY+WLAST (         0) id=0x000001ad
INFO: [Slave VIP_wr_driver] (axi_vip_pkg.axi_slv_wr_driver(C_AXI_ADDR_WIDTH=40,C_AXI_WDATA_WIDTH=128,C_AXI_RDATA_WIDTH=128,C_AXI_WID_WIDTH=16,C_AXI_RID_WIDTH=16,C_AXI_AWUSER_WIDTH=16,C_AXI_ARUSER_WIDTH=16,C_AXI_HAS_REGION=0)::push_reactive_q) 1695000 : PUSH_REACTIVE_Q: PUSH (         0) >>> XIL_AXI_WRITE (85) A:0x0000000000000000 ID:0x000001ad len:0x00 XIL_AXI_SIZE_4BYTE XIL_AXI_BURST_TYPE_INCR C:0b0000 L:XIL_AXI_ALOCK_NOLOCK P:0b010 <<<
INFO: [Slave VIP_wr_driver] (axi_vip_pkg.axi_slv_wr_driver(C_AXI_ADDR_WIDTH=40,C_AXI_WDATA_WIDTH=128,C_AXI_RDATA_WIDTH=128,C_AXI_WID_WIDTH=16,C_AXI_RID_WIDTH=16,C_AXI_AWUSER_WIDTH=16,C_AXI_ARUSER_WIDTH=16,C_AXI_HAS_REGION=0)::pop_reactive_q) 1695000 : POP_REACTIVE_Q: (         1) >>> XIL_AXI_WRITE (85) A:0x0000000000000000 ID:0x000001ad len:0x00 XIL_AXI_SIZE_4BYTE XIL_AXI_BURST_TYPE_INCR C:0b0000 L:XIL_AXI_ALOCK_NOLOCK P:0b010 <<<
INFO: [Slave VIP_wr_driver] (axi_vip_pkg.axi_slv_wr_driver(C_AXI_ADDR_WIDTH=40,C_AXI_WDATA_WIDTH=128,C_AXI_RDATA_WIDTH=128,C_AXI_WID_WIDTH=16,C_AXI_RID_WIDTH=16,C_AXI_AWUSER_WIDTH=16,C_AXI_ARUSER_WIDTH=16,C_AXI_HAS_REGION=0)::get_and_drive.GET_AND_DRIVE) 1695000 : GNI : XIL_AXI_WRITE (85) A:0x0000000000000000 ID:0x000001ad len:0x00 XIL_AXI_SIZE_4BYTE XIL_AXI_BURST_TYPE_INCR C:0b0000 L:XIL_AXI_ALOCK_NOLOCK P:0b010
INFO: [Slave VIP_wr_driver] (axi_vip_pkg.axi_slv_wr_driver(C_AXI_ADDR_WIDTH=40,C_AXI_WDATA_WIDTH=128,C_AXI_RDATA_WIDTH=128,C_AXI_WID_WIDTH=16,C_AXI_RID_WIDTH=16,C_AXI_AWUSER_WIDTH=16,C_AXI_ARUSER_WIDTH=16,C_AXI_HAS_REGION=0)::push_b_q) 1695000 : B PUSH (         0)
INFO: [Slave VIP_wr_driver] (axi_vip_pkg.axi_slv_wr_driver(C_AXI_ADDR_WIDTH=40,C_AXI_WDATA_WIDTH=128,C_AXI_RDATA_WIDTH=128,C_AXI_WID_WIDTH=16,C_AXI_RID_WIDTH=16,C_AXI_AWUSER_WIDTH=16,C_AXI_ARUSER_WIDTH=16,C_AXI_HAS_REGION=0)::push_b_q) 1695000 : ID=0x000001ad - State 0b0111
Entries in BQ : NumEntries:         0 >>> 
 <<<
Command       : XIL_AXI_WRITE (85) A:0x0000000000000000 ID:0x000001ad len:0x00 XIL_AXI_SIZE_4BYTE XIL_AXI_BURST_TYPE_INCR C:0b0000 L:XIL_AXI_ALOCK_NOLOCK P:0b010
INFO: [Master VIP_wr_driver] (axi_vip_pkg.axi_mst_wr_driver(C_AXI_WDATA_WIDTH=128,C_AXI_RDATA_WIDTH=128,C_AXI_WID_WIDTH=16,C_AXI_RID_WIDTH=16,C_AXI_AWUSER_WIDTH=16,C_AXI_ARUSER_WIDTH=16)::service_done_q.SERVICE_DONE_Q) 1705000 : SERVICE_DONE_Q: XIL_AXI_WRITE (64) A:0x0000000000000000 ID:0x000001ad len:0x00 XIL_AXI_SIZE_4BYTE XIL_AXI_BURST_TYPE_INCR C:0b0000 L:XIL_AXI_ALOCK_NOLOCK P:0b010
INFO: [Slave VIP_wr_driver] (axi_vip_pkg.axi_slv_wr_driver(C_AXI_ADDR_WIDTH=40,C_AXI_WDATA_WIDTH=128,C_AXI_RDATA_WIDTH=128,C_AXI_WID_WIDTH=16,C_AXI_RID_WIDTH=16,C_AXI_AWUSER_WIDTH=16,C_AXI_ARUSER_WIDTH=16,C_AXI_HAS_REGION=0)::service_done_q.SERVICE_DONE_Q) 1705000 : SERVICE_DONE_Q: XIL_AXI_WRITE (85) A:0x0000000000000000 ID:0x000001ad len:0x00 XIL_AXI_SIZE_4BYTE XIL_AXI_BURST_TYPE_INCR C:0b0000 L:XIL_AXI_ALOCK_NOLOCK P:0b010
INFO: [Master VIP_wr_driver] (axi_vip_pkg.axi_mst_wr_driver(C_AXI_WDATA_WIDTH=128,C_AXI_RDATA_WIDTH=128,C_AXI_WID_WIDTH=16,C_AXI_RID_WIDTH=16,C_AXI_AWUSER_WIDTH=16,C_AXI_ARUSER_WIDTH=16)::w_channel.W_CHANNEL.Block10274_258.Block10274_259) 1725000 : WREADY+WLAST (         0) id=0x000001ad
INFO: [Slave VIP_wr_driver] (axi_vip_pkg.axi_slv_wr_driver(C_AXI_ADDR_WIDTH=40,C_AXI_WDATA_WIDTH=128,C_AXI_RDATA_WIDTH=128,C_AXI_WID_WIDTH=16,C_AXI_RID_WIDTH=16,C_AXI_AWUSER_WIDTH=16,C_AXI_ARUSER_WIDTH=16,C_AXI_HAS_REGION=0)::w_channel.W_CHANNEL) 1755000 : W LAST -- write_beat     Last:1 D:0x000000000000000028ed905f00000000 BE:0b0000000011110000 
INFO: [Slave VIP_wr_driver] (axi_vip_pkg.axi_slv_wr_driver(C_AXI_ADDR_WIDTH=40,C_AXI_WDATA_WIDTH=128,C_AXI_RDATA_WIDTH=128,C_AXI_WID_WIDTH=16,C_AXI_RID_WIDTH=16,C_AXI_AWUSER_WIDTH=16,C_AXI_ARUSER_WIDTH=16,C_AXI_HAS_REGION=0)::aw_channel.AW_CHANNEL) 1755000 : AWVALID >>>
XIL_AXI_WRITE (91) A:0x0000000000000004 ID:0x000001ad len:0x00 XIL_AXI_SIZE_4BYTE XIL_AXI_BURST_TYPE_INCR C:0b0011 L:XIL_AXI_ALOCK_NOLOCK P:0b111<<<
INFO: [Master VIP_wr_driver] (axi_vip_pkg.axi_mst_wr_driver(C_AXI_WDATA_WIDTH=128,C_AXI_RDATA_WIDTH=128,C_AXI_WID_WIDTH=16,C_AXI_RID_WIDTH=16,C_AXI_AWUSER_WIDTH=16,C_AXI_ARUSER_WIDTH=16)::w_channel.W_CHANNEL.Block10274_258.Block10274_259) 1755000 : WREADY+WLAST (         0) id=0x000001ad
INFO: [Slave VIP_wr_driver] (axi_vip_pkg.axi_slv_wr_driver(C_AXI_ADDR_WIDTH=40,C_AXI_WDATA_WIDTH=128,C_AXI_RDATA_WIDTH=128,C_AXI_WID_WIDTH=16,C_AXI_RID_WIDTH=16,C_AXI_AWUSER_WIDTH=16,C_AXI_ARUSER_WIDTH=16,C_AXI_HAS_REGION=0)::push_reactive_q) 1755000 : PUSH_REACTIVE_Q: PUSH (         0) >>> XIL_AXI_WRITE (91) A:0x0000000000000004 ID:0x000001ad len:0x00 XIL_AXI_SIZE_4BYTE XIL_AXI_BURST_TYPE_INCR C:0b0011 L:XIL_AXI_ALOCK_NOLOCK P:0b111 <<<
INFO: [Slave VIP_wr_driver] (axi_vip_pkg.axi_slv_wr_driver(C_AXI_ADDR_WIDTH=40,C_AXI_WDATA_WIDTH=128,C_AXI_RDATA_WIDTH=128,C_AXI_WID_WIDTH=16,C_AXI_RID_WIDTH=16,C_AXI_AWUSER_WIDTH=16,C_AXI_ARUSER_WIDTH=16,C_AXI_HAS_REGION=0)::pop_reactive_q) 1755000 : POP_REACTIVE_Q: (         1) >>> XIL_AXI_WRITE (91) A:0x0000000000000004 ID:0x000001ad len:0x00 XIL_AXI_SIZE_4BYTE XIL_AXI_BURST_TYPE_INCR C:0b0011 L:XIL_AXI_ALOCK_NOLOCK P:0b111 <<<
INFO: [Slave VIP_wr_driver] (axi_vip_pkg.axi_slv_wr_driver(C_AXI_ADDR_WIDTH=40,C_AXI_WDATA_WIDTH=128,C_AXI_RDATA_WIDTH=128,C_AXI_WID_WIDTH=16,C_AXI_RID_WIDTH=16,C_AXI_AWUSER_WIDTH=16,C_AXI_ARUSER_WIDTH=16,C_AXI_HAS_REGION=0)::get_and_drive.GET_AND_DRIVE) 1755000 : GNI : XIL_AXI_WRITE (91) A:0x0000000000000004 ID:0x000001ad len:0x00 XIL_AXI_SIZE_4BYTE XIL_AXI_BURST_TYPE_INCR C:0b0011 L:XIL_AXI_ALOCK_NOLOCK P:0b111
INFO: [Slave VIP_wr_driver] (axi_vip_pkg.axi_slv_wr_driver(C_AXI_ADDR_WIDTH=40,C_AXI_WDATA_WIDTH=128,C_AXI_RDATA_WIDTH=128,C_AXI_WID_WIDTH=16,C_AXI_RID_WIDTH=16,C_AXI_AWUSER_WIDTH=16,C_AXI_ARUSER_WIDTH=16,C_AXI_HAS_REGION=0)::push_b_q) 1755000 : B PUSH (         0)
INFO: [Slave VIP_wr_driver] (axi_vip_pkg.axi_slv_wr_driver(C_AXI_ADDR_WIDTH=40,C_AXI_WDATA_WIDTH=128,C_AXI_RDATA_WIDTH=128,C_AXI_WID_WIDTH=16,C_AXI_RID_WIDTH=16,C_AXI_AWUSER_WIDTH=16,C_AXI_ARUSER_WIDTH=16,C_AXI_HAS_REGION=0)::push_b_q) 1755000 : ID=0x000001ad - State 0b0111
Entries in BQ : NumEntries:         0 >>> 
 <<<
Command       : XIL_AXI_WRITE (91) A:0x0000000000000004 ID:0x000001ad len:0x00 XIL_AXI_SIZE_4BYTE XIL_AXI_BURST_TYPE_INCR C:0b0011 L:XIL_AXI_ALOCK_NOLOCK P:0b111
INFO: [Master VIP_wr_driver] (axi_vip_pkg.axi_mst_wr_driver(C_AXI_WDATA_WIDTH=128,C_AXI_RDATA_WIDTH=128,C_AXI_WID_WIDTH=16,C_AXI_RID_WIDTH=16,C_AXI_AWUSER_WIDTH=16,C_AXI_ARUSER_WIDTH=16)::service_done_q.SERVICE_DONE_Q) 1765000 : SERVICE_DONE_Q: XIL_AXI_WRITE (66) A:0x0000000000000004 ID:0x000001ad len:0x00 XIL_AXI_SIZE_4BYTE XIL_AXI_BURST_TYPE_INCR C:0b0011 L:XIL_AXI_ALOCK_NOLOCK P:0b111
INFO: [Slave VIP_wr_driver] (axi_vip_pkg.axi_slv_wr_driver(C_AXI_ADDR_WIDTH=40,C_AXI_WDATA_WIDTH=128,C_AXI_RDATA_WIDTH=128,C_AXI_WID_WIDTH=16,C_AXI_RID_WIDTH=16,C_AXI_AWUSER_WIDTH=16,C_AXI_ARUSER_WIDTH=16,C_AXI_HAS_REGION=0)::service_done_q.SERVICE_DONE_Q) 1765000 : SERVICE_DONE_Q: XIL_AXI_WRITE (91) A:0x0000000000000004 ID:0x000001ad len:0x00 XIL_AXI_SIZE_4BYTE XIL_AXI_BURST_TYPE_INCR C:0b0011 L:XIL_AXI_ALOCK_NOLOCK P:0b111
INFO: [Master VIP_wr_driver] (axi_vip_pkg.axi_mst_wr_driver(C_AXI_WDATA_WIDTH=128,C_AXI_RDATA_WIDTH=128,C_AXI_WID_WIDTH=16,C_AXI_RID_WIDTH=16,C_AXI_AWUSER_WIDTH=16,C_AXI_ARUSER_WIDTH=16)::w_channel.W_CHANNEL.Block10274_258.Block10274_259) 1785000 : WREADY+WLAST (         0) id=0x000001ad
INFO: [Slave VIP_wr_driver] (axi_vip_pkg.axi_slv_wr_driver(C_AXI_ADDR_WIDTH=40,C_AXI_WDATA_WIDTH=128,C_AXI_RDATA_WIDTH=128,C_AXI_WID_WIDTH=16,C_AXI_RID_WIDTH=16,C_AXI_AWUSER_WIDTH=16,C_AXI_ARUSER_WIDTH=16,C_AXI_HAS_REGION=0)::w_channel.W_CHANNEL) 1815000 : W LAST -- write_beat     Last:1 D:0x0000000075bb242c0000000000000000 BE:0b0000111100000000 
INFO: [Slave VIP_wr_driver] (axi_vip_pkg.axi_slv_wr_driver(C_AXI_ADDR_WIDTH=40,C_AXI_WDATA_WIDTH=128,C_AXI_RDATA_WIDTH=128,C_AXI_WID_WIDTH=16,C_AXI_RID_WIDTH=16,C_AXI_AWUSER_WIDTH=16,C_AXI_ARUSER_WIDTH=16,C_AXI_HAS_REGION=0)::aw_channel.AW_CHANNEL) 1815000 : AWVALID >>>
XIL_AXI_WRITE (97) A:0x0000000000000008 ID:0x000001ad len:0x00 XIL_AXI_SIZE_4BYTE XIL_AXI_BURST_TYPE_INCR C:0b0111 L:XIL_AXI_ALOCK_NOLOCK P:0b011<<<
INFO: [Master VIP_wr_driver] (axi_vip_pkg.axi_mst_wr_driver(C_AXI_WDATA_WIDTH=128,C_AXI_RDATA_WIDTH=128,C_AXI_WID_WIDTH=16,C_AXI_RID_WIDTH=16,C_AXI_AWUSER_WIDTH=16,C_AXI_ARUSER_WIDTH=16)::w_channel.W_CHANNEL.Block10274_258.Block10274_259) 1815000 : WREADY+WLAST (         0) id=0x000001ad
INFO: [Slave VIP_wr_driver] (axi_vip_pkg.axi_slv_wr_driver(C_AXI_ADDR_WIDTH=40,C_AXI_WDATA_WIDTH=128,C_AXI_RDATA_WIDTH=128,C_AXI_WID_WIDTH=16,C_AXI_RID_WIDTH=16,C_AXI_AWUSER_WIDTH=16,C_AXI_ARUSER_WIDTH=16,C_AXI_HAS_REGION=0)::push_reactive_q) 1815000 : PUSH_REACTIVE_Q: PUSH (         0) >>> XIL_AXI_WRITE (97) A:0x0000000000000008 ID:0x000001ad len:0x00 XIL_AXI_SIZE_4BYTE XIL_AXI_BURST_TYPE_INCR C:0b0111 L:XIL_AXI_ALOCK_NOLOCK P:0b011 <<<
INFO: [Slave VIP_wr_driver] (axi_vip_pkg.axi_slv_wr_driver(C_AXI_ADDR_WIDTH=40,C_AXI_WDATA_WIDTH=128,C_AXI_RDATA_WIDTH=128,C_AXI_WID_WIDTH=16,C_AXI_RID_WIDTH=16,C_AXI_AWUSER_WIDTH=16,C_AXI_ARUSER_WIDTH=16,C_AXI_HAS_REGION=0)::pop_reactive_q) 1815000 : POP_REACTIVE_Q: (         1) >>> XIL_AXI_WRITE (97) A:0x0000000000000008 ID:0x000001ad len:0x00 XIL_AXI_SIZE_4BYTE XIL_AXI_BURST_TYPE_INCR C:0b0111 L:XIL_AXI_ALOCK_NOLOCK P:0b011 <<<
INFO: [Slave VIP_wr_driver] (axi_vip_pkg.axi_slv_wr_driver(C_AXI_ADDR_WIDTH=40,C_AXI_WDATA_WIDTH=128,C_AXI_RDATA_WIDTH=128,C_AXI_WID_WIDTH=16,C_AXI_RID_WIDTH=16,C_AXI_AWUSER_WIDTH=16,C_AXI_ARUSER_WIDTH=16,C_AXI_HAS_REGION=0)::get_and_drive.GET_AND_DRIVE) 1815000 : GNI : XIL_AXI_WRITE (97) A:0x0000000000000008 ID:0x000001ad len:0x00 XIL_AXI_SIZE_4BYTE XIL_AXI_BURST_TYPE_INCR C:0b0111 L:XIL_AXI_ALOCK_NOLOCK P:0b011
INFO: [Slave VIP_wr_driver] (axi_vip_pkg.axi_slv_wr_driver(C_AXI_ADDR_WIDTH=40,C_AXI_WDATA_WIDTH=128,C_AXI_RDATA_WIDTH=128,C_AXI_WID_WIDTH=16,C_AXI_RID_WIDTH=16,C_AXI_AWUSER_WIDTH=16,C_AXI_ARUSER_WIDTH=16,C_AXI_HAS_REGION=0)::push_b_q) 1815000 : B PUSH (         0)
INFO: [Slave VIP_wr_driver] (axi_vip_pkg.axi_slv_wr_driver(C_AXI_ADDR_WIDTH=40,C_AXI_WDATA_WIDTH=128,C_AXI_RDATA_WIDTH=128,C_AXI_WID_WIDTH=16,C_AXI_RID_WIDTH=16,C_AXI_AWUSER_WIDTH=16,C_AXI_ARUSER_WIDTH=16,C_AXI_HAS_REGION=0)::push_b_q) 1815000 : ID=0x000001ad - State 0b0111
Entries in BQ : NumEntries:         0 >>> 
 <<<
Command       : XIL_AXI_WRITE (97) A:0x0000000000000008 ID:0x000001ad len:0x00 XIL_AXI_SIZE_4BYTE XIL_AXI_BURST_TYPE_INCR C:0b0111 L:XIL_AXI_ALOCK_NOLOCK P:0b011
INFO: [Master VIP_wr_driver] (axi_vip_pkg.axi_mst_wr_driver(C_AXI_WDATA_WIDTH=128,C_AXI_RDATA_WIDTH=128,C_AXI_WID_WIDTH=16,C_AXI_RID_WIDTH=16,C_AXI_AWUSER_WIDTH=16,C_AXI_ARUSER_WIDTH=16)::service_done_q.SERVICE_DONE_Q) 1825000 : SERVICE_DONE_Q: XIL_AXI_WRITE (68) A:0x0000000000000008 ID:0x000001ad len:0x00 XIL_AXI_SIZE_4BYTE XIL_AXI_BURST_TYPE_INCR C:0b0111 L:XIL_AXI_ALOCK_NOLOCK P:0b011
INFO: [Slave VIP_wr_driver] (axi_vip_pkg.axi_slv_wr_driver(C_AXI_ADDR_WIDTH=40,C_AXI_WDATA_WIDTH=128,C_AXI_RDATA_WIDTH=128,C_AXI_WID_WIDTH=16,C_AXI_RID_WIDTH=16,C_AXI_AWUSER_WIDTH=16,C_AXI_ARUSER_WIDTH=16,C_AXI_HAS_REGION=0)::service_done_q.SERVICE_DONE_Q) 1825000 : SERVICE_DONE_Q: XIL_AXI_WRITE (97) A:0x0000000000000008 ID:0x000001ad len:0x00 XIL_AXI_SIZE_4BYTE XIL_AXI_BURST_TYPE_INCR C:0b0111 L:XIL_AXI_ALOCK_NOLOCK P:0b011
INFO: [Slave VIP_wr_driver] (axi_vip_pkg.axi_slv_wr_driver(C_AXI_ADDR_WIDTH=40,C_AXI_WDATA_WIDTH=128,C_AXI_RDATA_WIDTH=128,C_AXI_WID_WIDTH=16,C_AXI_RID_WIDTH=16,C_AXI_AWUSER_WIDTH=16,C_AXI_ARUSER_WIDTH=16,C_AXI_HAS_REGION=0)::w_channel.W_CHANNEL) 1875000 : W LAST -- write_beat     Last:1 D:0x5c74426d000000000000000000000000 BE:0b1111000000000000 
INFO: [Slave VIP_wr_driver] (axi_vip_pkg.axi_slv_wr_driver(C_AXI_ADDR_WIDTH=40,C_AXI_WDATA_WIDTH=128,C_AXI_RDATA_WIDTH=128,C_AXI_WID_WIDTH=16,C_AXI_RID_WIDTH=16,C_AXI_AWUSER_WIDTH=16,C_AXI_ARUSER_WIDTH=16,C_AXI_HAS_REGION=0)::aw_channel.AW_CHANNEL) 1875000 : AWVALID >>>
XIL_AXI_WRITE (101) A:0x000000000000000c ID:0x000001ad len:0x00 XIL_AXI_SIZE_4BYTE XIL_AXI_BURST_TYPE_INCR C:0b1111 L:XIL_AXI_ALOCK_NOLOCK P:0b010<<<
INFO: [Slave VIP_wr_driver] (axi_vip_pkg.axi_slv_wr_driver(C_AXI_ADDR_WIDTH=40,C_AXI_WDATA_WIDTH=128,C_AXI_RDATA_WIDTH=128,C_AXI_WID_WIDTH=16,C_AXI_RID_WIDTH=16,C_AXI_AWUSER_WIDTH=16,C_AXI_ARUSER_WIDTH=16,C_AXI_HAS_REGION=0)::push_reactive_q) 1875000 : PUSH_REACTIVE_Q: PUSH (         0) >>> XIL_AXI_WRITE (101) A:0x000000000000000c ID:0x000001ad len:0x00 XIL_AXI_SIZE_4BYTE XIL_AXI_BURST_TYPE_INCR C:0b1111 L:XIL_AXI_ALOCK_NOLOCK P:0b010 <<<
INFO: [Slave VIP_wr_driver] (axi_vip_pkg.axi_slv_wr_driver(C_AXI_ADDR_WIDTH=40,C_AXI_WDATA_WIDTH=128,C_AXI_RDATA_WIDTH=128,C_AXI_WID_WIDTH=16,C_AXI_RID_WIDTH=16,C_AXI_AWUSER_WIDTH=16,C_AXI_ARUSER_WIDTH=16,C_AXI_HAS_REGION=0)::pop_reactive_q) 1875000 : POP_REACTIVE_Q: (         1) >>> XIL_AXI_WRITE (101) A:0x000000000000000c ID:0x000001ad len:0x00 XIL_AXI_SIZE_4BYTE XIL_AXI_BURST_TYPE_INCR C:0b1111 L:XIL_AXI_ALOCK_NOLOCK P:0b010 <<<
INFO: [Slave VIP_wr_driver] (axi_vip_pkg.axi_slv_wr_driver(C_AXI_ADDR_WIDTH=40,C_AXI_WDATA_WIDTH=128,C_AXI_RDATA_WIDTH=128,C_AXI_WID_WIDTH=16,C_AXI_RID_WIDTH=16,C_AXI_AWUSER_WIDTH=16,C_AXI_ARUSER_WIDTH=16,C_AXI_HAS_REGION=0)::get_and_drive.GET_AND_DRIVE) 1875000 : GNI : XIL_AXI_WRITE (101) A:0x000000000000000c ID:0x000001ad len:0x00 XIL_AXI_SIZE_4BYTE XIL_AXI_BURST_TYPE_INCR C:0b1111 L:XIL_AXI_ALOCK_NOLOCK P:0b010
INFO: [Slave VIP_wr_driver] (axi_vip_pkg.axi_slv_wr_driver(C_AXI_ADDR_WIDTH=40,C_AXI_WDATA_WIDTH=128,C_AXI_RDATA_WIDTH=128,C_AXI_WID_WIDTH=16,C_AXI_RID_WIDTH=16,C_AXI_AWUSER_WIDTH=16,C_AXI_ARUSER_WIDTH=16,C_AXI_HAS_REGION=0)::push_b_q) 1875000 : B PUSH (         0)
INFO: [Slave VIP_wr_driver] (axi_vip_pkg.axi_slv_wr_driver(C_AXI_ADDR_WIDTH=40,C_AXI_WDATA_WIDTH=128,C_AXI_RDATA_WIDTH=128,C_AXI_WID_WIDTH=16,C_AXI_RID_WIDTH=16,C_AXI_AWUSER_WIDTH=16,C_AXI_ARUSER_WIDTH=16,C_AXI_HAS_REGION=0)::push_b_q) 1875000 : ID=0x000001ad - State 0b0111
Entries in BQ : NumEntries:         0 >>> 
 <<<
Command       : XIL_AXI_WRITE (101) A:0x000000000000000c ID:0x000001ad len:0x00 XIL_AXI_SIZE_4BYTE XIL_AXI_BURST_TYPE_INCR C:0b1111 L:XIL_AXI_ALOCK_NOLOCK P:0b010
INFO: [Master VIP_wr_driver] (axi_vip_pkg.axi_mst_wr_driver(C_AXI_WDATA_WIDTH=128,C_AXI_RDATA_WIDTH=128,C_AXI_WID_WIDTH=16,C_AXI_RID_WIDTH=16,C_AXI_AWUSER_WIDTH=16,C_AXI_ARUSER_WIDTH=16)::service_done_q.SERVICE_DONE_Q) 1885000 : SERVICE_DONE_Q: XIL_AXI_WRITE (70) A:0x000000000000000c ID:0x000001ad len:0x00 XIL_AXI_SIZE_4BYTE XIL_AXI_BURST_TYPE_INCR C:0b1111 L:XIL_AXI_ALOCK_NOLOCK P:0b010
INFO: [Slave VIP_wr_driver] (axi_vip_pkg.axi_slv_wr_driver(C_AXI_ADDR_WIDTH=40,C_AXI_WDATA_WIDTH=128,C_AXI_RDATA_WIDTH=128,C_AXI_WID_WIDTH=16,C_AXI_RID_WIDTH=16,C_AXI_AWUSER_WIDTH=16,C_AXI_ARUSER_WIDTH=16,C_AXI_HAS_REGION=0)::service_done_q.SERVICE_DONE_Q) 1885000 : SERVICE_DONE_Q: XIL_AXI_WRITE (101) A:0x000000000000000c ID:0x000001ad len:0x00 XIL_AXI_SIZE_4BYTE XIL_AXI_BURST_TYPE_INCR C:0b1111 L:XIL_AXI_ALOCK_NOLOCK P:0b010
INFO: [Slave VIP_wr_driver] (axi_vip_pkg.axi_slv_wr_driver(C_AXI_ADDR_WIDTH=40,C_AXI_WDATA_WIDTH=128,C_AXI_RDATA_WIDTH=128,C_AXI_WID_WIDTH=16,C_AXI_RID_WIDTH=16,C_AXI_AWUSER_WIDTH=16,C_AXI_ARUSER_WIDTH=16,C_AXI_HAS_REGION=0)::w_channel.W_CHANNEL) 1935000 : W LAST -- write_beat     Last:1 D:0x000000000000000000000000d29215b8 BE:0b0000000000001111 
INFO: [Slave VIP_wr_driver] (axi_vip_pkg.axi_slv_wr_driver(C_AXI_ADDR_WIDTH=40,C_AXI_WDATA_WIDTH=128,C_AXI_RDATA_WIDTH=128,C_AXI_WID_WIDTH=16,C_AXI_RID_WIDTH=16,C_AXI_AWUSER_WIDTH=16,C_AXI_ARUSER_WIDTH=16,C_AXI_HAS_REGION=0)::aw_channel.AW_CHANNEL) 1935000 : AWVALID >>>
XIL_AXI_WRITE (105) A:0x0000000000000010 ID:0x000001ad len:0x00 XIL_AXI_SIZE_4BYTE XIL_AXI_BURST_TYPE_INCR C:0b0011 L:XIL_AXI_ALOCK_NOLOCK P:0b011<<<
INFO: [Slave VIP_wr_driver] (axi_vip_pkg.axi_slv_wr_driver(C_AXI_ADDR_WIDTH=40,C_AXI_WDATA_WIDTH=128,C_AXI_RDATA_WIDTH=128,C_AXI_WID_WIDTH=16,C_AXI_RID_WIDTH=16,C_AXI_AWUSER_WIDTH=16,C_AXI_ARUSER_WIDTH=16,C_AXI_HAS_REGION=0)::push_reactive_q) 1935000 : PUSH_REACTIVE_Q: PUSH (         0) >>> XIL_AXI_WRITE (105) A:0x0000000000000010 ID:0x000001ad len:0x00 XIL_AXI_SIZE_4BYTE XIL_AXI_BURST_TYPE_INCR C:0b0011 L:XIL_AXI_ALOCK_NOLOCK P:0b011 <<<
INFO: [Slave VIP_wr_driver] (axi_vip_pkg.axi_slv_wr_driver(C_AXI_ADDR_WIDTH=40,C_AXI_WDATA_WIDTH=128,C_AXI_RDATA_WIDTH=128,C_AXI_WID_WIDTH=16,C_AXI_RID_WIDTH=16,C_AXI_AWUSER_WIDTH=16,C_AXI_ARUSER_WIDTH=16,C_AXI_HAS_REGION=0)::pop_reactive_q) 1935000 : POP_REACTIVE_Q: (         1) >>> XIL_AXI_WRITE (105) A:0x0000000000000010 ID:0x000001ad len:0x00 XIL_AXI_SIZE_4BYTE XIL_AXI_BURST_TYPE_INCR C:0b0011 L:XIL_AXI_ALOCK_NOLOCK P:0b011 <<<
INFO: [Slave VIP_wr_driver] (axi_vip_pkg.axi_slv_wr_driver(C_AXI_ADDR_WIDTH=40,C_AXI_WDATA_WIDTH=128,C_AXI_RDATA_WIDTH=128,C_AXI_WID_WIDTH=16,C_AXI_RID_WIDTH=16,C_AXI_AWUSER_WIDTH=16,C_AXI_ARUSER_WIDTH=16,C_AXI_HAS_REGION=0)::get_and_drive.GET_AND_DRIVE) 1935000 : GNI : XIL_AXI_WRITE (105) A:0x0000000000000010 ID:0x000001ad len:0x00 XIL_AXI_SIZE_4BYTE XIL_AXI_BURST_TYPE_INCR C:0b0011 L:XIL_AXI_ALOCK_NOLOCK P:0b011
INFO: [Slave VIP_wr_driver] (axi_vip_pkg.axi_slv_wr_driver(C_AXI_ADDR_WIDTH=40,C_AXI_WDATA_WIDTH=128,C_AXI_RDATA_WIDTH=128,C_AXI_WID_WIDTH=16,C_AXI_RID_WIDTH=16,C_AXI_AWUSER_WIDTH=16,C_AXI_ARUSER_WIDTH=16,C_AXI_HAS_REGION=0)::push_b_q) 1935000 : B PUSH (         0)
INFO: [Slave VIP_wr_driver] (axi_vip_pkg.axi_slv_wr_driver(C_AXI_ADDR_WIDTH=40,C_AXI_WDATA_WIDTH=128,C_AXI_RDATA_WIDTH=128,C_AXI_WID_WIDTH=16,C_AXI_RID_WIDTH=16,C_AXI_AWUSER_WIDTH=16,C_AXI_ARUSER_WIDTH=16,C_AXI_HAS_REGION=0)::push_b_q) 1935000 : ID=0x000001ad - State 0b0111
Entries in BQ : NumEntries:         0 >>> 
 <<<
Command       : XIL_AXI_WRITE (105) A:0x0000000000000010 ID:0x000001ad len:0x00 XIL_AXI_SIZE_4BYTE XIL_AXI_BURST_TYPE_INCR C:0b0011 L:XIL_AXI_ALOCK_NOLOCK P:0b011
INFO: [Master VIP_wr_driver] (axi_vip_pkg.axi_mst_wr_driver(C_AXI_WDATA_WIDTH=128,C_AXI_RDATA_WIDTH=128,C_AXI_WID_WIDTH=16,C_AXI_RID_WIDTH=16,C_AXI_AWUSER_WIDTH=16,C_AXI_ARUSER_WIDTH=16)::service_done_q.SERVICE_DONE_Q) 1945000 : SERVICE_DONE_Q: XIL_AXI_WRITE (72) A:0x0000000000000010 ID:0x000001ad len:0x00 XIL_AXI_SIZE_4BYTE XIL_AXI_BURST_TYPE_INCR C:0b0011 L:XIL_AXI_ALOCK_NOLOCK P:0b011
INFO: [Slave VIP_wr_driver] (axi_vip_pkg.axi_slv_wr_driver(C_AXI_ADDR_WIDTH=40,C_AXI_WDATA_WIDTH=128,C_AXI_RDATA_WIDTH=128,C_AXI_WID_WIDTH=16,C_AXI_RID_WIDTH=16,C_AXI_AWUSER_WIDTH=16,C_AXI_ARUSER_WIDTH=16,C_AXI_HAS_REGION=0)::service_done_q.SERVICE_DONE_Q) 1945000 : SERVICE_DONE_Q: XIL_AXI_WRITE (105) A:0x0000000000000010 ID:0x000001ad len:0x00 XIL_AXI_SIZE_4BYTE XIL_AXI_BURST_TYPE_INCR C:0b0011 L:XIL_AXI_ALOCK_NOLOCK P:0b011
INFO: [Slave VIP_wr_driver] (axi_vip_pkg.axi_slv_wr_driver(C_AXI_ADDR_WIDTH=40,C_AXI_WDATA_WIDTH=128,C_AXI_RDATA_WIDTH=128,C_AXI_WID_WIDTH=16,C_AXI_RID_WIDTH=16,C_AXI_AWUSER_WIDTH=16,C_AXI_ARUSER_WIDTH=16,C_AXI_HAS_REGION=0)::w_channel.W_CHANNEL) 1995000 : W LAST -- write_beat     Last:1 D:0x00000000000000003798ae1000000000 BE:0b0000000011110000 
INFO: [Slave VIP_wr_driver] (axi_vip_pkg.axi_slv_wr_driver(C_AXI_ADDR_WIDTH=40,C_AXI_WDATA_WIDTH=128,C_AXI_RDATA_WIDTH=128,C_AXI_WID_WIDTH=16,C_AXI_RID_WIDTH=16,C_AXI_AWUSER_WIDTH=16,C_AXI_ARUSER_WIDTH=16,C_AXI_HAS_REGION=0)::aw_channel.AW_CHANNEL) 1995000 : AWVALID >>>
XIL_AXI_WRITE (109) A:0x0000000000000014 ID:0x000001ad len:0x00 XIL_AXI_SIZE_4BYTE XIL_AXI_BURST_TYPE_INCR C:0b1110 L:XIL_AXI_ALOCK_NOLOCK P:0b001<<<
INFO: [Slave VIP_wr_driver] (axi_vip_pkg.axi_slv_wr_driver(C_AXI_ADDR_WIDTH=40,C_AXI_WDATA_WIDTH=128,C_AXI_RDATA_WIDTH=128,C_AXI_WID_WIDTH=16,C_AXI_RID_WIDTH=16,C_AXI_AWUSER_WIDTH=16,C_AXI_ARUSER_WIDTH=16,C_AXI_HAS_REGION=0)::push_reactive_q) 1995000 : PUSH_REACTIVE_Q: PUSH (         0) >>> XIL_AXI_WRITE (109) A:0x0000000000000014 ID:0x000001ad len:0x00 XIL_AXI_SIZE_4BYTE XIL_AXI_BURST_TYPE_INCR C:0b1110 L:XIL_AXI_ALOCK_NOLOCK P:0b001 <<<
INFO: [Slave VIP_wr_driver] (axi_vip_pkg.axi_slv_wr_driver(C_AXI_ADDR_WIDTH=40,C_AXI_WDATA_WIDTH=128,C_AXI_RDATA_WIDTH=128,C_AXI_WID_WIDTH=16,C_AXI_RID_WIDTH=16,C_AXI_AWUSER_WIDTH=16,C_AXI_ARUSER_WIDTH=16,C_AXI_HAS_REGION=0)::pop_reactive_q) 1995000 : POP_REACTIVE_Q: (         1) >>> XIL_AXI_WRITE (109) A:0x0000000000000014 ID:0x000001ad len:0x00 XIL_AXI_SIZE_4BYTE XIL_AXI_BURST_TYPE_INCR C:0b1110 L:XIL_AXI_ALOCK_NOLOCK P:0b001 <<<
INFO: [Slave VIP_wr_driver] (axi_vip_pkg.axi_slv_wr_driver(C_AXI_ADDR_WIDTH=40,C_AXI_WDATA_WIDTH=128,C_AXI_RDATA_WIDTH=128,C_AXI_WID_WIDTH=16,C_AXI_RID_WIDTH=16,C_AXI_AWUSER_WIDTH=16,C_AXI_ARUSER_WIDTH=16,C_AXI_HAS_REGION=0)::get_and_drive.GET_AND_DRIVE) 1995000 : GNI : XIL_AXI_WRITE (109) A:0x0000000000000014 ID:0x000001ad len:0x00 XIL_AXI_SIZE_4BYTE XIL_AXI_BURST_TYPE_INCR C:0b1110 L:XIL_AXI_ALOCK_NOLOCK P:0b001
INFO: [Slave VIP_wr_driver] (axi_vip_pkg.axi_slv_wr_driver(C_AXI_ADDR_WIDTH=40,C_AXI_WDATA_WIDTH=128,C_AXI_RDATA_WIDTH=128,C_AXI_WID_WIDTH=16,C_AXI_RID_WIDTH=16,C_AXI_AWUSER_WIDTH=16,C_AXI_ARUSER_WIDTH=16,C_AXI_HAS_REGION=0)::push_b_q) 1995000 : B PUSH (         0)
INFO: [Slave VIP_wr_driver] (axi_vip_pkg.axi_slv_wr_driver(C_AXI_ADDR_WIDTH=40,C_AXI_WDATA_WIDTH=128,C_AXI_RDATA_WIDTH=128,C_AXI_WID_WIDTH=16,C_AXI_RID_WIDTH=16,C_AXI_AWUSER_WIDTH=16,C_AXI_ARUSER_WIDTH=16,C_AXI_HAS_REGION=0)::push_b_q) 1995000 : ID=0x000001ad - State 0b0111
Entries in BQ : NumEntries:         0 >>> 
 <<<
Command       : XIL_AXI_WRITE (109) A:0x0000000000000014 ID:0x000001ad len:0x00 XIL_AXI_SIZE_4BYTE XIL_AXI_BURST_TYPE_INCR C:0b1110 L:XIL_AXI_ALOCK_NOLOCK P:0b001
INFO: [Master VIP_wr_driver] (axi_vip_pkg.axi_mst_wr_driver(C_AXI_WDATA_WIDTH=128,C_AXI_RDATA_WIDTH=128,C_AXI_WID_WIDTH=16,C_AXI_RID_WIDTH=16,C_AXI_AWUSER_WIDTH=16,C_AXI_ARUSER_WIDTH=16)::service_done_q.SERVICE_DONE_Q) 2005000 : SERVICE_DONE_Q: XIL_AXI_WRITE (74) A:0x0000000000000014 ID:0x000001ad len:0x00 XIL_AXI_SIZE_4BYTE XIL_AXI_BURST_TYPE_INCR C:0b1110 L:XIL_AXI_ALOCK_NOLOCK P:0b001
INFO: [Slave VIP_wr_driver] (axi_vip_pkg.axi_slv_wr_driver(C_AXI_ADDR_WIDTH=40,C_AXI_WDATA_WIDTH=128,C_AXI_RDATA_WIDTH=128,C_AXI_WID_WIDTH=16,C_AXI_RID_WIDTH=16,C_AXI_AWUSER_WIDTH=16,C_AXI_ARUSER_WIDTH=16,C_AXI_HAS_REGION=0)::service_done_q.SERVICE_DONE_Q) 2005000 : SERVICE_DONE_Q: XIL_AXI_WRITE (109) A:0x0000000000000014 ID:0x000001ad len:0x00 XIL_AXI_SIZE_4BYTE XIL_AXI_BURST_TYPE_INCR C:0b1110 L:XIL_AXI_ALOCK_NOLOCK P:0b001
INFO: [Slave VIP_wr_driver] (axi_vip_pkg.axi_slv_wr_driver(C_AXI_ADDR_WIDTH=40,C_AXI_WDATA_WIDTH=128,C_AXI_RDATA_WIDTH=128,C_AXI_WID_WIDTH=16,C_AXI_RID_WIDTH=16,C_AXI_AWUSER_WIDTH=16,C_AXI_ARUSER_WIDTH=16,C_AXI_HAS_REGION=0)::w_channel.W_CHANNEL) 2055000 : W LAST -- write_beat     Last:1 D:0x0000000066151c320000000000000000 BE:0b0000111100000000 
INFO: [Slave VIP_wr_driver] (axi_vip_pkg.axi_slv_wr_driver(C_AXI_ADDR_WIDTH=40,C_AXI_WDATA_WIDTH=128,C_AXI_RDATA_WIDTH=128,C_AXI_WID_WIDTH=16,C_AXI_RID_WIDTH=16,C_AXI_AWUSER_WIDTH=16,C_AXI_ARUSER_WIDTH=16,C_AXI_HAS_REGION=0)::aw_channel.AW_CHANNEL) 2055000 : AWVALID >>>
XIL_AXI_WRITE (113) A:0x0000000000000018 ID:0x000001ad len:0x00 XIL_AXI_SIZE_4BYTE XIL_AXI_BURST_TYPE_INCR C:0b0110 L:XIL_AXI_ALOCK_NOLOCK P:0b110<<<
INFO: [Slave VIP_wr_driver] (axi_vip_pkg.axi_slv_wr_driver(C_AXI_ADDR_WIDTH=40,C_AXI_WDATA_WIDTH=128,C_AXI_RDATA_WIDTH=128,C_AXI_WID_WIDTH=16,C_AXI_RID_WIDTH=16,C_AXI_AWUSER_WIDTH=16,C_AXI_ARUSER_WIDTH=16,C_AXI_HAS_REGION=0)::push_reactive_q) 2055000 : PUSH_REACTIVE_Q: PUSH (         0) >>> XIL_AXI_WRITE (113) A:0x0000000000000018 ID:0x000001ad len:0x00 XIL_AXI_SIZE_4BYTE XIL_AXI_BURST_TYPE_INCR C:0b0110 L:XIL_AXI_ALOCK_NOLOCK P:0b110 <<<
INFO: [Slave VIP_wr_driver] (axi_vip_pkg.axi_slv_wr_driver(C_AXI_ADDR_WIDTH=40,C_AXI_WDATA_WIDTH=128,C_AXI_RDATA_WIDTH=128,C_AXI_WID_WIDTH=16,C_AXI_RID_WIDTH=16,C_AXI_AWUSER_WIDTH=16,C_AXI_ARUSER_WIDTH=16,C_AXI_HAS_REGION=0)::pop_reactive_q) 2055000 : POP_REACTIVE_Q: (         1) >>> XIL_AXI_WRITE (113) A:0x0000000000000018 ID:0x000001ad len:0x00 XIL_AXI_SIZE_4BYTE XIL_AXI_BURST_TYPE_INCR C:0b0110 L:XIL_AXI_ALOCK_NOLOCK P:0b110 <<<
INFO: [Slave VIP_wr_driver] (axi_vip_pkg.axi_slv_wr_driver(C_AXI_ADDR_WIDTH=40,C_AXI_WDATA_WIDTH=128,C_AXI_RDATA_WIDTH=128,C_AXI_WID_WIDTH=16,C_AXI_RID_WIDTH=16,C_AXI_AWUSER_WIDTH=16,C_AXI_ARUSER_WIDTH=16,C_AXI_HAS_REGION=0)::get_and_drive.GET_AND_DRIVE) 2055000 : GNI : XIL_AXI_WRITE (113) A:0x0000000000000018 ID:0x000001ad len:0x00 XIL_AXI_SIZE_4BYTE XIL_AXI_BURST_TYPE_INCR C:0b0110 L:XIL_AXI_ALOCK_NOLOCK P:0b110
INFO: [Slave VIP_wr_driver] (axi_vip_pkg.axi_slv_wr_driver(C_AXI_ADDR_WIDTH=40,C_AXI_WDATA_WIDTH=128,C_AXI_RDATA_WIDTH=128,C_AXI_WID_WIDTH=16,C_AXI_RID_WIDTH=16,C_AXI_AWUSER_WIDTH=16,C_AXI_ARUSER_WIDTH=16,C_AXI_HAS_REGION=0)::push_b_q) 2055000 : B PUSH (         0)
INFO: [Slave VIP_wr_driver] (axi_vip_pkg.axi_slv_wr_driver(C_AXI_ADDR_WIDTH=40,C_AXI_WDATA_WIDTH=128,C_AXI_RDATA_WIDTH=128,C_AXI_WID_WIDTH=16,C_AXI_RID_WIDTH=16,C_AXI_AWUSER_WIDTH=16,C_AXI_ARUSER_WIDTH=16,C_AXI_HAS_REGION=0)::push_b_q) 2055000 : ID=0x000001ad - State 0b0111
Entries in BQ : NumEntries:         0 >>> 
 <<<
Command       : XIL_AXI_WRITE (113) A:0x0000000000000018 ID:0x000001ad len:0x00 XIL_AXI_SIZE_4BYTE XIL_AXI_BURST_TYPE_INCR C:0b0110 L:XIL_AXI_ALOCK_NOLOCK P:0b110
INFO: [Master VIP_wr_driver] (axi_vip_pkg.axi_mst_wr_driver(C_AXI_WDATA_WIDTH=128,C_AXI_RDATA_WIDTH=128,C_AXI_WID_WIDTH=16,C_AXI_RID_WIDTH=16,C_AXI_AWUSER_WIDTH=16,C_AXI_ARUSER_WIDTH=16)::service_done_q.SERVICE_DONE_Q) 2065000 : SERVICE_DONE_Q: XIL_AXI_WRITE (76) A:0x0000000000000018 ID:0x000001ad len:0x00 XIL_AXI_SIZE_4BYTE XIL_AXI_BURST_TYPE_INCR C:0b0110 L:XIL_AXI_ALOCK_NOLOCK P:0b110
INFO: [Slave VIP_wr_driver] (axi_vip_pkg.axi_slv_wr_driver(C_AXI_ADDR_WIDTH=40,C_AXI_WDATA_WIDTH=128,C_AXI_RDATA_WIDTH=128,C_AXI_WID_WIDTH=16,C_AXI_RID_WIDTH=16,C_AXI_AWUSER_WIDTH=16,C_AXI_ARUSER_WIDTH=16,C_AXI_HAS_REGION=0)::service_done_q.SERVICE_DONE_Q) 2065000 : SERVICE_DONE_Q: XIL_AXI_WRITE (113) A:0x0000000000000018 ID:0x000001ad len:0x00 XIL_AXI_SIZE_4BYTE XIL_AXI_BURST_TYPE_INCR C:0b0110 L:XIL_AXI_ALOCK_NOLOCK P:0b110
INFO: [Slave VIP_wr_driver] (axi_vip_pkg.axi_slv_wr_driver(C_AXI_ADDR_WIDTH=40,C_AXI_WDATA_WIDTH=128,C_AXI_RDATA_WIDTH=128,C_AXI_WID_WIDTH=16,C_AXI_RID_WIDTH=16,C_AXI_AWUSER_WIDTH=16,C_AXI_ARUSER_WIDTH=16,C_AXI_HAS_REGION=0)::w_channel.W_CHANNEL) 2115000 : W LAST -- write_beat     Last:1 D:0xf56a88b6000000000000000000000000 BE:0b1111000000000000 
INFO: [Slave VIP_wr_driver] (axi_vip_pkg.axi_slv_wr_driver(C_AXI_ADDR_WIDTH=40,C_AXI_WDATA_WIDTH=128,C_AXI_RDATA_WIDTH=128,C_AXI_WID_WIDTH=16,C_AXI_RID_WIDTH=16,C_AXI_AWUSER_WIDTH=16,C_AXI_ARUSER_WIDTH=16,C_AXI_HAS_REGION=0)::aw_channel.AW_CHANNEL) 2115000 : AWVALID >>>
XIL_AXI_WRITE (117) A:0x000000000000001c ID:0x000001ad len:0x00 XIL_AXI_SIZE_4BYTE XIL_AXI_BURST_TYPE_INCR C:0b0001 L:XIL_AXI_ALOCK_NOLOCK P:0b101<<<
INFO: [Slave VIP_wr_driver] (axi_vip_pkg.axi_slv_wr_driver(C_AXI_ADDR_WIDTH=40,C_AXI_WDATA_WIDTH=128,C_AXI_RDATA_WIDTH=128,C_AXI_WID_WIDTH=16,C_AXI_RID_WIDTH=16,C_AXI_AWUSER_WIDTH=16,C_AXI_ARUSER_WIDTH=16,C_AXI_HAS_REGION=0)::push_reactive_q) 2115000 : PUSH_REACTIVE_Q: PUSH (         0) >>> XIL_AXI_WRITE (117) A:0x000000000000001c ID:0x000001ad len:0x00 XIL_AXI_SIZE_4BYTE XIL_AXI_BURST_TYPE_INCR C:0b0001 L:XIL_AXI_ALOCK_NOLOCK P:0b101 <<<
INFO: [Slave VIP_wr_driver] (axi_vip_pkg.axi_slv_wr_driver(C_AXI_ADDR_WIDTH=40,C_AXI_WDATA_WIDTH=128,C_AXI_RDATA_WIDTH=128,C_AXI_WID_WIDTH=16,C_AXI_RID_WIDTH=16,C_AXI_AWUSER_WIDTH=16,C_AXI_ARUSER_WIDTH=16,C_AXI_HAS_REGION=0)::pop_reactive_q) 2115000 : POP_REACTIVE_Q: (         1) >>> XIL_AXI_WRITE (117) A:0x000000000000001c ID:0x000001ad len:0x00 XIL_AXI_SIZE_4BYTE XIL_AXI_BURST_TYPE_INCR C:0b0001 L:XIL_AXI_ALOCK_NOLOCK P:0b101 <<<
INFO: [Slave VIP_wr_driver] (axi_vip_pkg.axi_slv_wr_driver(C_AXI_ADDR_WIDTH=40,C_AXI_WDATA_WIDTH=128,C_AXI_RDATA_WIDTH=128,C_AXI_WID_WIDTH=16,C_AXI_RID_WIDTH=16,C_AXI_AWUSER_WIDTH=16,C_AXI_ARUSER_WIDTH=16,C_AXI_HAS_REGION=0)::get_and_drive.GET_AND_DRIVE) 2115000 : GNI : XIL_AXI_WRITE (117) A:0x000000000000001c ID:0x000001ad len:0x00 XIL_AXI_SIZE_4BYTE XIL_AXI_BURST_TYPE_INCR C:0b0001 L:XIL_AXI_ALOCK_NOLOCK P:0b101
INFO: [Slave VIP_wr_driver] (axi_vip_pkg.axi_slv_wr_driver(C_AXI_ADDR_WIDTH=40,C_AXI_WDATA_WIDTH=128,C_AXI_RDATA_WIDTH=128,C_AXI_WID_WIDTH=16,C_AXI_RID_WIDTH=16,C_AXI_AWUSER_WIDTH=16,C_AXI_ARUSER_WIDTH=16,C_AXI_HAS_REGION=0)::push_b_q) 2115000 : B PUSH (         0)
INFO: [Slave VIP_wr_driver] (axi_vip_pkg.axi_slv_wr_driver(C_AXI_ADDR_WIDTH=40,C_AXI_WDATA_WIDTH=128,C_AXI_RDATA_WIDTH=128,C_AXI_WID_WIDTH=16,C_AXI_RID_WIDTH=16,C_AXI_AWUSER_WIDTH=16,C_AXI_ARUSER_WIDTH=16,C_AXI_HAS_REGION=0)::push_b_q) 2115000 : ID=0x000001ad - State 0b0111
Entries in BQ : NumEntries:         0 >>> 
 <<<
Command       : XIL_AXI_WRITE (117) A:0x000000000000001c ID:0x000001ad len:0x00 XIL_AXI_SIZE_4BYTE XIL_AXI_BURST_TYPE_INCR C:0b0001 L:XIL_AXI_ALOCK_NOLOCK P:0b101
INFO: [Master VIP_wr_driver] (axi_vip_pkg.axi_mst_wr_driver(C_AXI_WDATA_WIDTH=128,C_AXI_RDATA_WIDTH=128,C_AXI_WID_WIDTH=16,C_AXI_RID_WIDTH=16,C_AXI_AWUSER_WIDTH=16,C_AXI_ARUSER_WIDTH=16)::service_done_q.SERVICE_DONE_Q) 2125000 : SERVICE_DONE_Q: XIL_AXI_WRITE (78) A:0x000000000000001c ID:0x000001ad len:0x00 XIL_AXI_SIZE_4BYTE XIL_AXI_BURST_TYPE_INCR C:0b0001 L:XIL_AXI_ALOCK_NOLOCK P:0b101
INFO: [Slave VIP_wr_driver] (axi_vip_pkg.axi_slv_wr_driver(C_AXI_ADDR_WIDTH=40,C_AXI_WDATA_WIDTH=128,C_AXI_RDATA_WIDTH=128,C_AXI_WID_WIDTH=16,C_AXI_RID_WIDTH=16,C_AXI_AWUSER_WIDTH=16,C_AXI_ARUSER_WIDTH=16,C_AXI_HAS_REGION=0)::service_done_q.SERVICE_DONE_Q) 2125000 : SERVICE_DONE_Q: XIL_AXI_WRITE (117) A:0x000000000000001c ID:0x000001ad len:0x00 XIL_AXI_SIZE_4BYTE XIL_AXI_BURST_TYPE_INCR C:0b0001 L:XIL_AXI_ALOCK_NOLOCK P:0b101
Warning: [continuous_rdburst_00000000] (axi_vip_pkg.axi_transaction::set_addr) 2145000 : Attempted to send ADDR (0x0000000400000000) which is wider than addr_width (        32). Truncating ADDR to (0x0)
Time: 2145 ns  Iteration: 0  Process: /axi_vip_pkg/axi_mst_rd_driver(C_AXI_WDATA_WIDTH=128,C_AXI_RDATA_WIDTH=128,C_AXI_WID_WIDTH=16,C_AXI_RID_WIDTH=16,C_AXI_AWUSER_WIDTH=16,C_AXI_ARUSER_WIDTH=16)::get_and_drive/GET_AND_DRIVE  File: /wrk/2017.4/nightly/2017_12_15_2086221/prep/rdi/vivado/data/xilinx_vip/hdl/axi_vip_pkg.sv
Warning: [continuous_rdburst_00000001] (axi_vip_pkg.axi_transaction::set_addr) 2145000 : Attempted to send ADDR (0x0000000400000004) which is wider than addr_width (        32). Truncating ADDR to (0x4)
Time: 2145 ns  Iteration: 0  Process: /axi_vip_pkg/axi_mst_rd_driver(C_AXI_WDATA_WIDTH=128,C_AXI_RDATA_WIDTH=128,C_AXI_WID_WIDTH=16,C_AXI_RID_WIDTH=16,C_AXI_AWUSER_WIDTH=16,C_AXI_ARUSER_WIDTH=16)::get_and_drive/GET_AND_DRIVE  File: /wrk/2017.4/nightly/2017_12_15_2086221/prep/rdi/vivado/data/xilinx_vip/hdl/axi_vip_pkg.sv
Warning: [continuous_rdburst_00000002] (axi_vip_pkg.axi_transaction::set_addr) 2145000 : Attempted to send ADDR (0x0000000400000008) which is wider than addr_width (        32). Truncating ADDR to (0x8)
Time: 2145 ns  Iteration: 0  Process: /axi_vip_pkg/axi_mst_rd_driver(C_AXI_WDATA_WIDTH=128,C_AXI_RDATA_WIDTH=128,C_AXI_WID_WIDTH=16,C_AXI_RID_WIDTH=16,C_AXI_AWUSER_WIDTH=16,C_AXI_ARUSER_WIDTH=16)::get_and_drive/GET_AND_DRIVE  File: /wrk/2017.4/nightly/2017_12_15_2086221/prep/rdi/vivado/data/xilinx_vip/hdl/axi_vip_pkg.sv
Warning: [continuous_rdburst_00000003] (axi_vip_pkg.axi_transaction::set_addr) 2145000 : Attempted to send ADDR (0x000000040000000c) which is wider than addr_width (        32). Truncating ADDR to (0xc)
Time: 2145 ns  Iteration: 0  Process: /axi_vip_pkg/axi_mst_rd_driver(C_AXI_WDATA_WIDTH=128,C_AXI_RDATA_WIDTH=128,C_AXI_WID_WIDTH=16,C_AXI_RID_WIDTH=16,C_AXI_AWUSER_WIDTH=16,C_AXI_ARUSER_WIDTH=16)::get_and_drive/GET_AND_DRIVE  File: /wrk/2017.4/nightly/2017_12_15_2086221/prep/rdi/vivado/data/xilinx_vip/hdl/axi_vip_pkg.sv
Warning: [continuous_rdburst_00000004] (axi_vip_pkg.axi_transaction::set_addr) 2145000 : Attempted to send ADDR (0x0000000400000010) which is wider than addr_width (        32). Truncating ADDR to (0x10)
Time: 2145 ns  Iteration: 0  Process: /axi_vip_pkg/axi_mst_rd_driver(C_AXI_WDATA_WIDTH=128,C_AXI_RDATA_WIDTH=128,C_AXI_WID_WIDTH=16,C_AXI_RID_WIDTH=16,C_AXI_AWUSER_WIDTH=16,C_AXI_ARUSER_WIDTH=16)::get_and_drive/GET_AND_DRIVE  File: /wrk/2017.4/nightly/2017_12_15_2086221/prep/rdi/vivado/data/xilinx_vip/hdl/axi_vip_pkg.sv
Warning: [continuous_rdburst_00000005] (axi_vip_pkg.axi_transaction::set_addr) 2145000 : Attempted to send ADDR (0x0000000400000014) which is wider than addr_width (        32). Truncating ADDR to (0x14)
Time: 2145 ns  Iteration: 0  Process: /axi_vip_pkg/axi_mst_rd_driver(C_AXI_WDATA_WIDTH=128,C_AXI_RDATA_WIDTH=128,C_AXI_WID_WIDTH=16,C_AXI_RID_WIDTH=16,C_AXI_AWUSER_WIDTH=16,C_AXI_ARUSER_WIDTH=16)::get_and_drive/GET_AND_DRIVE  File: /wrk/2017.4/nightly/2017_12_15_2086221/prep/rdi/vivado/data/xilinx_vip/hdl/axi_vip_pkg.sv
Warning: [continuous_rdburst_00000006] (axi_vip_pkg.axi_transaction::set_addr) 2145000 : Attempted to send ADDR (0x0000000400000018) which is wider than addr_width (        32). Truncating ADDR to (0x18)
Time: 2145 ns  Iteration: 0  Process: /axi_vip_pkg/axi_mst_rd_driver(C_AXI_WDATA_WIDTH=128,C_AXI_RDATA_WIDTH=128,C_AXI_WID_WIDTH=16,C_AXI_RID_WIDTH=16,C_AXI_AWUSER_WIDTH=16,C_AXI_ARUSER_WIDTH=16)::get_and_drive/GET_AND_DRIVE  File: /wrk/2017.4/nightly/2017_12_15_2086221/prep/rdi/vivado/data/xilinx_vip/hdl/axi_vip_pkg.sv
Warning: [continuous_rdburst_00000007] (axi_vip_pkg.axi_transaction::set_addr) 2145000 : Attempted to send ADDR (0x000000040000001c) which is wider than addr_width (        32). Truncating ADDR to (0x1c)
Time: 2145 ns  Iteration: 0  Process: /axi_vip_pkg/axi_mst_rd_driver(C_AXI_WDATA_WIDTH=128,C_AXI_RDATA_WIDTH=128,C_AXI_WID_WIDTH=16,C_AXI_RID_WIDTH=16,C_AXI_AWUSER_WIDTH=16,C_AXI_ARUSER_WIDTH=16)::get_and_drive/GET_AND_DRIVE  File: /wrk/2017.4/nightly/2017_12_15_2086221/prep/rdi/vivado/data/xilinx_vip/hdl/axi_vip_pkg.sv
INFO: [Master VIP_rd_driver] (axi_vip_pkg.axi_mst_rd_driver(C_AXI_WDATA_WIDTH=128,C_AXI_RDATA_WIDTH=128,C_AXI_WID_WIDTH=16,C_AXI_RID_WIDTH=16,C_AXI_AWUSER_WIDTH=16,C_AXI_ARUSER_WIDTH=16)::ar_channel.AR_CHANNEL) 2155001 : ARVALID id=0x000001ad
INFO: [Master VIP_rd_driver] (axi_vip_pkg.axi_mst_rd_driver(C_AXI_WDATA_WIDTH=128,C_AXI_RDATA_WIDTH=128,C_AXI_WID_WIDTH=16,C_AXI_RID_WIDTH=16,C_AXI_AWUSER_WIDTH=16,C_AXI_ARUSER_WIDTH=16)::ar_channel.AR_CHANNEL) 2175001 : ARVALID id=0x000001ad
INFO: [Master VIP_rd_driver] (axi_vip_pkg.axi_mst_rd_driver(C_AXI_WDATA_WIDTH=128,C_AXI_RDATA_WIDTH=128,C_AXI_WID_WIDTH=16,C_AXI_RID_WIDTH=16,C_AXI_AWUSER_WIDTH=16,C_AXI_ARUSER_WIDTH=16)::ar_channel.AR_CHANNEL) 2205001 : ARVALID id=0x000001ad
INFO: [Master VIP_rd_driver] (axi_vip_pkg.axi_mst_rd_driver(C_AXI_WDATA_WIDTH=128,C_AXI_RDATA_WIDTH=128,C_AXI_WID_WIDTH=16,C_AXI_RID_WIDTH=16,C_AXI_AWUSER_WIDTH=16,C_AXI_ARUSER_WIDTH=16)::ar_channel.AR_CHANNEL) 2235001 : ARVALID id=0x000001ad
INFO: [Slave VIP_rd_driver] (axi_vip_pkg.axi_slv_rd_driver(C_AXI_ADDR_WIDTH=40,C_AXI_WDATA_WIDTH=128,C_AXI_RDATA_WIDTH=128,C_AXI_WID_WIDTH=16,C_AXI_RID_WIDTH=16,C_AXI_AWUSER_WIDTH=16,C_AXI_ARUSER_WIDTH=16,C_AXI_HAS_REGION=0)::get_rd_reactive) 2265000 : ARVALID >>>
XIL_AXI_READ (139) A:0x0000000000000000 ID:0x000001ad len:0x00 XIL_AXI_SIZE_4BYTE XIL_AXI_BURST_TYPE_INCR C:0b0011 L:XIL_AXI_ALOCK_NOLOCK P:0b001<<<
INFO: [Slave VIP_rd_driver] (axi_vip_pkg.axi_slv_rd_driver(C_AXI_ADDR_WIDTH=40,C_AXI_WDATA_WIDTH=128,C_AXI_RDATA_WIDTH=128,C_AXI_WID_WIDTH=16,C_AXI_RID_WIDTH=16,C_AXI_AWUSER_WIDTH=16,C_AXI_ARUSER_WIDTH=16,C_AXI_HAS_REGION=0)::get_and_drive.GET_AND_DRIVE) 2265000 : GNI : XIL_AXI_READ (139) A:0x0000000000000000 ID:0x000001ad len:0x00 XIL_AXI_SIZE_4BYTE XIL_AXI_BURST_TYPE_INCR C:0b0011 L:XIL_AXI_ALOCK_NOLOCK P:0b001
INFO: [Master VIP_rd_driver] (axi_vip_pkg.axi_mst_rd_driver(C_AXI_WDATA_WIDTH=128,C_AXI_RDATA_WIDTH=128,C_AXI_WID_WIDTH=16,C_AXI_RID_WIDTH=16,C_AXI_AWUSER_WIDTH=16,C_AXI_ARUSER_WIDTH=16)::ar_channel.AR_CHANNEL) 2265001 : ARVALID id=0x000001ad
INFO: [Master VIP_rd_driver] (axi_vip_pkg.axi_mst_rd_driver(C_AXI_WDATA_WIDTH=128,C_AXI_RDATA_WIDTH=128,C_AXI_WID_WIDTH=16,C_AXI_RID_WIDTH=16,C_AXI_AWUSER_WIDTH=16,C_AXI_ARUSER_WIDTH=16)::ar_channel.AR_CHANNEL) 2295001 : ARVALID id=0x000001ad
INFO: [Slave VIP_rd_driver] (axi_vip_pkg.axi_slv_rd_driver(C_AXI_ADDR_WIDTH=40,C_AXI_WDATA_WIDTH=128,C_AXI_RDATA_WIDTH=128,C_AXI_WID_WIDTH=16,C_AXI_RID_WIDTH=16,C_AXI_AWUSER_WIDTH=16,C_AXI_ARUSER_WIDTH=16,C_AXI_HAS_REGION=0)::drive_r_channel) 2315001 : RVALID (4294967295) id=0x000001ad, len   0
INFO: [Slave VIP_rd_driver] (axi_vip_pkg.axi_slv_rd_driver(C_AXI_ADDR_WIDTH=40,C_AXI_WDATA_WIDTH=128,C_AXI_RDATA_WIDTH=128,C_AXI_WID_WIDTH=16,C_AXI_RID_WIDTH=16,C_AXI_AWUSER_WIDTH=16,C_AXI_ARUSER_WIDTH=16,C_AXI_HAS_REGION=0)::get_rd_reactive) 2325000 : ARVALID >>>
XIL_AXI_READ (146) A:0x0000000000000004 ID:0x000001ad len:0x00 XIL_AXI_SIZE_4BYTE XIL_AXI_BURST_TYPE_INCR C:0b1011 L:XIL_AXI_ALOCK_NOLOCK P:0b011<<<
INFO: [Slave VIP_rd_driver] (axi_vip_pkg.axi_slv_rd_driver(C_AXI_ADDR_WIDTH=40,C_AXI_WDATA_WIDTH=128,C_AXI_RDATA_WIDTH=128,C_AXI_WID_WIDTH=16,C_AXI_RID_WIDTH=16,C_AXI_AWUSER_WIDTH=16,C_AXI_ARUSER_WIDTH=16,C_AXI_HAS_REGION=0)::get_and_drive.GET_AND_DRIVE) 2325000 : GNI : XIL_AXI_READ (146) A:0x0000000000000004 ID:0x000001ad len:0x00 XIL_AXI_SIZE_4BYTE XIL_AXI_BURST_TYPE_INCR C:0b1011 L:XIL_AXI_ALOCK_NOLOCK P:0b011
INFO: [Master VIP_rd_driver] (axi_vip_pkg.axi_mst_rd_driver(C_AXI_WDATA_WIDTH=128,C_AXI_RDATA_WIDTH=128,C_AXI_WID_WIDTH=16,C_AXI_RID_WIDTH=16,C_AXI_AWUSER_WIDTH=16,C_AXI_ARUSER_WIDTH=16)::ar_channel.AR_CHANNEL) 2325001 : ARVALID id=0x000001ad
INFO: [Slave VIP_rd_driver] (axi_vip_pkg.axi_slv_rd_driver(C_AXI_ADDR_WIDTH=40,C_AXI_WDATA_WIDTH=128,C_AXI_RDATA_WIDTH=128,C_AXI_WID_WIDTH=16,C_AXI_RID_WIDTH=16,C_AXI_AWUSER_WIDTH=16,C_AXI_ARUSER_WIDTH=16,C_AXI_HAS_REGION=0)::drive_r_channel) 2375001 : RVALID (4294967295) id=0x000001ad, len   0
INFO: [Master VIP_rd_driver] (axi_vip_pkg.axi_mst_rd_driver(C_AXI_WDATA_WIDTH=128,C_AXI_RDATA_WIDTH=128,C_AXI_WID_WIDTH=16,C_AXI_RID_WIDTH=16,C_AXI_AWUSER_WIDTH=16,C_AXI_ARUSER_WIDTH=16)::ar_channel.AR_CHANNEL) 2375001 : ARVALID id=0x000001ad
INFO: [Slave VIP_rd_driver] (axi_vip_pkg.axi_slv_rd_driver(C_AXI_ADDR_WIDTH=40,C_AXI_WDATA_WIDTH=128,C_AXI_RDATA_WIDTH=128,C_AXI_WID_WIDTH=16,C_AXI_RID_WIDTH=16,C_AXI_AWUSER_WIDTH=16,C_AXI_ARUSER_WIDTH=16,C_AXI_HAS_REGION=0)::get_rd_reactive) 2385000 : ARVALID >>>
XIL_AXI_READ (150) A:0x0000000000000008 ID:0x000001ad len:0x00 XIL_AXI_SIZE_4BYTE XIL_AXI_BURST_TYPE_INCR C:0b0010 L:XIL_AXI_ALOCK_NOLOCK P:0b010<<<
INFO: [Slave VIP_rd_driver] (axi_vip_pkg.axi_slv_rd_driver(C_AXI_ADDR_WIDTH=40,C_AXI_WDATA_WIDTH=128,C_AXI_RDATA_WIDTH=128,C_AXI_WID_WIDTH=16,C_AXI_RID_WIDTH=16,C_AXI_AWUSER_WIDTH=16,C_AXI_ARUSER_WIDTH=16,C_AXI_HAS_REGION=0)::get_and_drive.GET_AND_DRIVE) 2385000 : GNI : XIL_AXI_READ (150) A:0x0000000000000008 ID:0x000001ad len:0x00 XIL_AXI_SIZE_4BYTE XIL_AXI_BURST_TYPE_INCR C:0b0010 L:XIL_AXI_ALOCK_NOLOCK P:0b010
INFO: [Slave VIP_rd_driver] (axi_vip_pkg.axi_slv_rd_driver(C_AXI_ADDR_WIDTH=40,C_AXI_WDATA_WIDTH=128,C_AXI_RDATA_WIDTH=128,C_AXI_WID_WIDTH=16,C_AXI_RID_WIDTH=16,C_AXI_AWUSER_WIDTH=16,C_AXI_ARUSER_WIDTH=16,C_AXI_HAS_REGION=0)::drive_r_channel) 2435001 : RVALID (4294967295) id=0x000001ad, len   0
INFO: [Slave VIP_rd_driver] (axi_vip_pkg.axi_slv_rd_driver(C_AXI_ADDR_WIDTH=40,C_AXI_WDATA_WIDTH=128,C_AXI_RDATA_WIDTH=128,C_AXI_WID_WIDTH=16,C_AXI_RID_WIDTH=16,C_AXI_AWUSER_WIDTH=16,C_AXI_ARUSER_WIDTH=16,C_AXI_HAS_REGION=0)::get_rd_reactive) 2445000 : ARVALID >>>
XIL_AXI_READ (154) A:0x000000000000000c ID:0x000001ad len:0x00 XIL_AXI_SIZE_4BYTE XIL_AXI_BURST_TYPE_INCR C:0b1011 L:XIL_AXI_ALOCK_NOLOCK P:0b000<<<
INFO: [Slave VIP_rd_driver] (axi_vip_pkg.axi_slv_rd_driver(C_AXI_ADDR_WIDTH=40,C_AXI_WDATA_WIDTH=128,C_AXI_RDATA_WIDTH=128,C_AXI_WID_WIDTH=16,C_AXI_RID_WIDTH=16,C_AXI_AWUSER_WIDTH=16,C_AXI_ARUSER_WIDTH=16,C_AXI_HAS_REGION=0)::get_and_drive.GET_AND_DRIVE) 2445000 : GNI : XIL_AXI_READ (154) A:0x000000000000000c ID:0x000001ad len:0x00 XIL_AXI_SIZE_4BYTE XIL_AXI_BURST_TYPE_INCR C:0b1011 L:XIL_AXI_ALOCK_NOLOCK P:0b000
INFO: [Slave VIP_rd_driver] (axi_vip_pkg.axi_slv_rd_driver(C_AXI_ADDR_WIDTH=40,C_AXI_WDATA_WIDTH=128,C_AXI_RDATA_WIDTH=128,C_AXI_WID_WIDTH=16,C_AXI_RID_WIDTH=16,C_AXI_AWUSER_WIDTH=16,C_AXI_ARUSER_WIDTH=16,C_AXI_HAS_REGION=0)::drive_r_channel) 2495001 : RVALID (4294967295) id=0x000001ad, len   0
INFO: [Slave VIP_rd_driver] (axi_vip_pkg.axi_slv_rd_driver(C_AXI_ADDR_WIDTH=40,C_AXI_WDATA_WIDTH=128,C_AXI_RDATA_WIDTH=128,C_AXI_WID_WIDTH=16,C_AXI_RID_WIDTH=16,C_AXI_AWUSER_WIDTH=16,C_AXI_ARUSER_WIDTH=16,C_AXI_HAS_REGION=0)::get_rd_reactive) 2505000 : ARVALID >>>
XIL_AXI_READ (157) A:0x0000000000000010 ID:0x000001ad len:0x00 XIL_AXI_SIZE_4BYTE XIL_AXI_BURST_TYPE_INCR C:0b1010 L:XIL_AXI_ALOCK_NOLOCK P:0b110<<<
INFO: [Slave VIP_rd_driver] (axi_vip_pkg.axi_slv_rd_driver(C_AXI_ADDR_WIDTH=40,C_AXI_WDATA_WIDTH=128,C_AXI_RDATA_WIDTH=128,C_AXI_WID_WIDTH=16,C_AXI_RID_WIDTH=16,C_AXI_AWUSER_WIDTH=16,C_AXI_ARUSER_WIDTH=16,C_AXI_HAS_REGION=0)::get_and_drive.GET_AND_DRIVE) 2505000 : GNI : XIL_AXI_READ (157) A:0x0000000000000010 ID:0x000001ad len:0x00 XIL_AXI_SIZE_4BYTE XIL_AXI_BURST_TYPE_INCR C:0b1010 L:XIL_AXI_ALOCK_NOLOCK P:0b110
INFO: [Slave VIP_rd_driver] (axi_vip_pkg.axi_slv_rd_driver(C_AXI_ADDR_WIDTH=40,C_AXI_WDATA_WIDTH=128,C_AXI_RDATA_WIDTH=128,C_AXI_WID_WIDTH=16,C_AXI_RID_WIDTH=16,C_AXI_AWUSER_WIDTH=16,C_AXI_ARUSER_WIDTH=16,C_AXI_HAS_REGION=0)::drive_r_channel) 2555001 : RVALID (4294967295) id=0x000001ad, len   0
INFO: [Slave VIP_rd_driver] (axi_vip_pkg.axi_slv_rd_driver(C_AXI_ADDR_WIDTH=40,C_AXI_WDATA_WIDTH=128,C_AXI_RDATA_WIDTH=128,C_AXI_WID_WIDTH=16,C_AXI_RID_WIDTH=16,C_AXI_AWUSER_WIDTH=16,C_AXI_ARUSER_WIDTH=16,C_AXI_HAS_REGION=0)::get_rd_reactive) 2565000 : ARVALID >>>
XIL_AXI_READ (160) A:0x0000000000000014 ID:0x000001ad len:0x00 XIL_AXI_SIZE_4BYTE XIL_AXI_BURST_TYPE_INCR C:0b1110 L:XIL_AXI_ALOCK_NOLOCK P:0b101<<<
INFO: [Slave VIP_rd_driver] (axi_vip_pkg.axi_slv_rd_driver(C_AXI_ADDR_WIDTH=40,C_AXI_WDATA_WIDTH=128,C_AXI_RDATA_WIDTH=128,C_AXI_WID_WIDTH=16,C_AXI_RID_WIDTH=16,C_AXI_AWUSER_WIDTH=16,C_AXI_ARUSER_WIDTH=16,C_AXI_HAS_REGION=0)::get_and_drive.GET_AND_DRIVE) 2565000 : GNI : XIL_AXI_READ (160) A:0x0000000000000014 ID:0x000001ad len:0x00 XIL_AXI_SIZE_4BYTE XIL_AXI_BURST_TYPE_INCR C:0b1110 L:XIL_AXI_ALOCK_NOLOCK P:0b101
INFO: [Slave VIP_rd_driver] (axi_vip_pkg.axi_slv_rd_driver(C_AXI_ADDR_WIDTH=40,C_AXI_WDATA_WIDTH=128,C_AXI_RDATA_WIDTH=128,C_AXI_WID_WIDTH=16,C_AXI_RID_WIDTH=16,C_AXI_AWUSER_WIDTH=16,C_AXI_ARUSER_WIDTH=16,C_AXI_HAS_REGION=0)::drive_r_channel) 2615001 : RVALID (4294967295) id=0x000001ad, len   0
INFO: [Slave VIP_rd_driver] (axi_vip_pkg.axi_slv_rd_driver(C_AXI_ADDR_WIDTH=40,C_AXI_WDATA_WIDTH=128,C_AXI_RDATA_WIDTH=128,C_AXI_WID_WIDTH=16,C_AXI_RID_WIDTH=16,C_AXI_AWUSER_WIDTH=16,C_AXI_ARUSER_WIDTH=16,C_AXI_HAS_REGION=0)::get_rd_reactive) 2625000 : ARVALID >>>
XIL_AXI_READ (163) A:0x0000000000000018 ID:0x000001ad len:0x00 XIL_AXI_SIZE_4BYTE XIL_AXI_BURST_TYPE_INCR C:0b0011 L:XIL_AXI_ALOCK_NOLOCK P:0b101<<<
INFO: [Slave VIP_rd_driver] (axi_vip_pkg.axi_slv_rd_driver(C_AXI_ADDR_WIDTH=40,C_AXI_WDATA_WIDTH=128,C_AXI_RDATA_WIDTH=128,C_AXI_WID_WIDTH=16,C_AXI_RID_WIDTH=16,C_AXI_AWUSER_WIDTH=16,C_AXI_ARUSER_WIDTH=16,C_AXI_HAS_REGION=0)::get_and_drive.GET_AND_DRIVE) 2625000 : GNI : XIL_AXI_READ (163) A:0x0000000000000018 ID:0x000001ad len:0x00 XIL_AXI_SIZE_4BYTE XIL_AXI_BURST_TYPE_INCR C:0b0011 L:XIL_AXI_ALOCK_NOLOCK P:0b101
INFO: [Slave VIP_rd_driver] (axi_vip_pkg.axi_slv_rd_driver(C_AXI_ADDR_WIDTH=40,C_AXI_WDATA_WIDTH=128,C_AXI_RDATA_WIDTH=128,C_AXI_WID_WIDTH=16,C_AXI_RID_WIDTH=16,C_AXI_AWUSER_WIDTH=16,C_AXI_ARUSER_WIDTH=16,C_AXI_HAS_REGION=0)::drive_r_channel) 2675001 : RVALID (4294967295) id=0x000001ad, len   0
INFO: [Slave VIP_rd_driver] (axi_vip_pkg.axi_slv_rd_driver(C_AXI_ADDR_WIDTH=40,C_AXI_WDATA_WIDTH=128,C_AXI_RDATA_WIDTH=128,C_AXI_WID_WIDTH=16,C_AXI_RID_WIDTH=16,C_AXI_AWUSER_WIDTH=16,C_AXI_ARUSER_WIDTH=16,C_AXI_HAS_REGION=0)::get_rd_reactive) 2685000 : ARVALID >>>
XIL_AXI_READ (166) A:0x000000000000001c ID:0x000001ad len:0x00 XIL_AXI_SIZE_4BYTE XIL_AXI_BURST_TYPE_INCR C:0b1110 L:XIL_AXI_ALOCK_NOLOCK P:0b111<<<
INFO: [Slave VIP_rd_driver] (axi_vip_pkg.axi_slv_rd_driver(C_AXI_ADDR_WIDTH=40,C_AXI_WDATA_WIDTH=128,C_AXI_RDATA_WIDTH=128,C_AXI_WID_WIDTH=16,C_AXI_RID_WIDTH=16,C_AXI_AWUSER_WIDTH=16,C_AXI_ARUSER_WIDTH=16,C_AXI_HAS_REGION=0)::get_and_drive.GET_AND_DRIVE) 2685000 : GNI : XIL_AXI_READ (166) A:0x000000000000001c ID:0x000001ad len:0x00 XIL_AXI_SIZE_4BYTE XIL_AXI_BURST_TYPE_INCR C:0b1110 L:XIL_AXI_ALOCK_NOLOCK P:0b111
INFO: [Slave VIP_rd_driver] (axi_vip_pkg.axi_slv_rd_driver(C_AXI_ADDR_WIDTH=40,C_AXI_WDATA_WIDTH=128,C_AXI_RDATA_WIDTH=128,C_AXI_WID_WIDTH=16,C_AXI_RID_WIDTH=16,C_AXI_AWUSER_WIDTH=16,C_AXI_ARUSER_WIDTH=16,C_AXI_HAS_REGION=0)::drive_r_channel) 2735001 : RVALID (4294967295) id=0x000001ad, len   0
1 )  Received 00000000000000000000000800000020 but expectd 0d000000000000001111111111111111
2 )  Received 00000000000000000000000000000000 but expectd 01000000000000002222222222222222
3 )  Received 0000000000000000000000000f0e0d0c but expectd 02000000000000003333333333333333
4 )  Received 0000000000000000000000000f0e0d0c but expectd 03000000000000004444444444444444
5 )  Received 0000000000000000000000000f0e0d0c but expectd 04000000000000005555555555555555
6 )  Received 0000000000000000eeeeeeee00000000 but expectd 05000000000000006666666666666666
7 )  Received 0000000000000000eeeeeeee00000000 but expectd 06000000000000007777777777777777
8 )  Received 00000000000000000000000000000000 but expectd 07000000000000008888888888888888
9 )  Received 00000000000000000000000000000000 but expectd 08000000000000009999999999999999
10)  Received 00000000000000000000000000000000 but expectd 0900000000000000aaaaaaaaaaaaaaaa
11)  Received 00000000000000000000000000000000 but expectd 0a00000000000000bbbbbbbbbbbbbbbb
12)  Received 00000000000000000000000000000000 but expectd 0b00000000000000cccccccccccccccc
13)  Received 00000000000000000000000000000000 but expectd 0c00000000000000dddddddddddddddd
$finish called at time : 2825 ns : File "/home/duck/Github/MemorEDF/rtl/MemorEDF/MemorEDF.srcs/sim_1/new/TB_MemorEDF.sv" Line 366
