Vivado Simulator 2017.4
Time resolution is 1 ps
INFO: ID width is 16 bigger than 16, AXI protocol Checker will not be instantiated in this case 
XilinxAXIVIP: Found at Path: TB_MemorEDF.DUT.design_1_i.axi_vip_0.inst
XilinxAXIVIP: Found at Path: TB_MemorEDF.DUT.design_1_i.axi_vip_1.inst
INFO: ID width is 16 bigger than 16, AXI protocol Checker will not be instantiated in this case 
XilinxAXIVIP: Found at Path: TB_MemorEDF.DUT.design_1_i.axi_vip_2.inst
INFO: ID width is 16 bigger than 16, AXI protocol Checker will not be instantiated in this case 
XilinxAXIVIP: Found at Path: TB_MemorEDF.DUT.design_1_i.axi_vip_3.inst
b master depth 00000000000000000000000000001000
b master depth 00000000000000000000000000001000
c master depth 00000000000000000000000000001000
c master depth 00000000000000000000000000001000
INFO: [Master VIP_rd_driver] (.axi_vip_pkg.axi_mst_rd_driver(C_AXI_ADDR_WIDTH=40,C_AXI_WDATA_WIDTH=128,C_AXI_RDATA_WIDTH=128,C_AXI_WID_WIDTH=16,C_AXI_RID_WIDTH=16,C_AXI_AWUSER_WIDTH=16,C_AXI_ARUSER_WIDTH=16)::run_phase.Block10873_1491.) 25001 : run()
INFO: [Master VIP_wr_driver] (.axi_vip_pkg.axi_mst_wr_driver(C_AXI_ADDR_WIDTH=40,C_AXI_WDATA_WIDTH=128,C_AXI_RDATA_WIDTH=128,C_AXI_WID_WIDTH=16,C_AXI_RID_WIDTH=16,C_AXI_AWUSER_WIDTH=16,C_AXI_ARUSER_WIDTH=16)::run_phase.Block9793_1445.) 25001 : run()
INFO: [Master VIP_monitor] (.axi_vip_pkg.axi_monitor(C_AXI_ADDR_WIDTH=40,C_AXI_WDATA_WIDTH=128,C_AXI_RDATA_WIDTH=128,C_AXI_WID_WIDTH=16,C_AXI_RID_WIDTH=16,C_AXI_AWUSER_WIDTH=16,C_AXI_ARUSER_WIDTH=16)::run_phase.Block8620_1412.) 25001 : run()
INFO: [Slave VIP_rd_driver] (.axi_vip_pkg.axi_slv_rd_driver(C_AXI_ADDR_WIDTH=40,C_AXI_WDATA_WIDTH=128,C_AXI_RDATA_WIDTH=128,C_AXI_WID_WIDTH=6,C_AXI_RID_WIDTH=6,C_AXI_AWUSER_WIDTH=1,C_AXI_ARUSER_WIDTH=1,C_AXI_SUPPORTS_NARROW=0,C_AXI_HAS_REGION=0)::run_phase.Block14104_1589.) 25001 : run()
INFO: [Slave VIP_wr_driver] (.axi_vip_pkg.axi_slv_wr_driver(C_AXI_ADDR_WIDTH=40,C_AXI_WDATA_WIDTH=128,C_AXI_RDATA_WIDTH=128,C_AXI_WID_WIDTH=6,C_AXI_RID_WIDTH=6,C_AXI_AWUSER_WIDTH=1,C_AXI_ARUSER_WIDTH=1,C_AXI_SUPPORTS_NARROW=0,C_AXI_HAS_REGION=0)::run_phase.Block12612_1538.) 25001 : run()
INFO: [Slave VIP_monitor] (.axi_vip_pkg.axi_monitor(C_AXI_ADDR_WIDTH=40,C_AXI_WDATA_WIDTH=128,C_AXI_RDATA_WIDTH=128,C_AXI_WID_WIDTH=6,C_AXI_RID_WIDTH=6,C_AXI_AWUSER_WIDTH=1,C_AXI_ARUSER_WIDTH=1,C_AXI_SUPPORTS_NARROW=0,C_AXI_HAS_REGION=0)::run_phase.Block8620_1429.) 25001 : run()
INFO: [Master VIP_rd_driver] (.axi_vip_pkg.axi_mst_rd_driver(C_AXI_ADDR_WIDTH=40,C_AXI_WDATA_WIDTH=128,C_AXI_RDATA_WIDTH=128,C_AXI_WID_WIDTH=16,C_AXI_RID_WIDTH=16,C_AXI_AWUSER_WIDTH=16,C_AXI_ARUSER_WIDTH=16)::run_phase.Block10873_1491.) 25001 : run()
INFO: [Master VIP_wr_driver] (.axi_vip_pkg.axi_mst_wr_driver(C_AXI_ADDR_WIDTH=40,C_AXI_WDATA_WIDTH=128,C_AXI_RDATA_WIDTH=128,C_AXI_WID_WIDTH=16,C_AXI_RID_WIDTH=16,C_AXI_AWUSER_WIDTH=16,C_AXI_ARUSER_WIDTH=16)::run_phase.Block9793_1445.) 25001 : run()
INFO: [Master VIP_monitor] (.axi_vip_pkg.axi_monitor(C_AXI_ADDR_WIDTH=40,C_AXI_WDATA_WIDTH=128,C_AXI_RDATA_WIDTH=128,C_AXI_WID_WIDTH=16,C_AXI_RID_WIDTH=16,C_AXI_AWUSER_WIDTH=16,C_AXI_ARUSER_WIDTH=16)::run_phase.Block8620_1412.) 25001 : run()
INFO: [Master VIP_rd_driver] (.axi_vip_pkg.axi_mst_rd_driver(C_AXI_ADDR_WIDTH=40,C_AXI_WDATA_WIDTH=128,C_AXI_RDATA_WIDTH=128,C_AXI_WID_WIDTH=16,C_AXI_RID_WIDTH=16,C_AXI_AWUSER_WIDTH=16,C_AXI_ARUSER_WIDTH=16)::run_phase.Block10873_1491.) 25001 : run()
INFO: [Master VIP_wr_driver] (.axi_vip_pkg.axi_mst_wr_driver(C_AXI_ADDR_WIDTH=40,C_AXI_WDATA_WIDTH=128,C_AXI_RDATA_WIDTH=128,C_AXI_WID_WIDTH=16,C_AXI_RID_WIDTH=16,C_AXI_AWUSER_WIDTH=16,C_AXI_ARUSER_WIDTH=16)::run_phase.Block9793_1445.) 25001 : run()
INFO: [Master VIP_monitor] (.axi_vip_pkg.axi_monitor(C_AXI_ADDR_WIDTH=40,C_AXI_WDATA_WIDTH=128,C_AXI_RDATA_WIDTH=128,C_AXI_WID_WIDTH=16,C_AXI_RID_WIDTH=16,C_AXI_AWUSER_WIDTH=16,C_AXI_ARUSER_WIDTH=16)::run_phase.Block8620_1412.) 25001 : run()
INFO: [Master VIP_wr_driver] (axi_vip_pkg.axi_mst_wr_driver(C_AXI_ADDR_WIDTH=40,C_AXI_WDATA_WIDTH=128,C_AXI_RDATA_WIDTH=128,C_AXI_WID_WIDTH=16,C_AXI_RID_WIDTH=16,C_AXI_AWUSER_WIDTH=16,C_AXI_ARUSER_WIDTH=16)::get_and_drive.GET_AND_DRIVE) 40000 : Sending transaction: 
INFO: [Master VIP_wr_driver] (axi_vip_pkg.axi_mst_wr_driver(C_AXI_ADDR_WIDTH=40,C_AXI_WDATA_WIDTH=128,C_AXI_RDATA_WIDTH=128,C_AXI_WID_WIDTH=16,C_AXI_RID_WIDTH=16,C_AXI_AWUSER_WIDTH=16,C_AXI_ARUSER_WIDTH=16)::get_and_drive.GET_AND_DRIVE) 40000 : ---------------------------------------------------------------------------------------------
  Name                         Value
---------------------------------------------------------------------------------------------
  CMD                          XIL_AXI_WRITE
  ADDR                         0x0000000000000000 
  WID                          0x00000000
  LEN                          0x00
  SIZE                         0x100
  BURST                        0x01
  CACHE                        0x0000
  LOCK                         0x00
  PROT                         0x000
  REGION                       0x0000
  QOS                          0x0000
  AWUSER                       0x0000
  BRESP                        XIL_AXI_RESP_OKAY
  DRIVER_RETURN_ITEM           XIL_AXI_PAYLOAD_RETURN 
  CREATION_TIME                40000
  SUBMIT_TIME                  0
  PAYLOAD                      16
    BEAT[          0]          0x00000020000000200000002000000020 (strb : 0b1111111111111111) :beat_delay:         0
--------------------------------------------------------------------------------------------
INFO: [Master VIP_wr_driver] (axi_vip_pkg.axi_mst_wr_driver(C_AXI_ADDR_WIDTH=40,C_AXI_WDATA_WIDTH=128,C_AXI_RDATA_WIDTH=128,C_AXI_WID_WIDTH=16,C_AXI_RID_WIDTH=16,C_AXI_AWUSER_WIDTH=16,C_AXI_ARUSER_WIDTH=16)::w_channel.W_CHANNEL.Block10274_1477.Block10274_1478) 115000 : WREADY+WLAST (         0) id=0x00000000
INFO: [Master VIP_wr_driver] (axi_vip_pkg.axi_mst_wr_driver(C_AXI_ADDR_WIDTH=40,C_AXI_WDATA_WIDTH=128,C_AXI_RDATA_WIDTH=128,C_AXI_WID_WIDTH=16,C_AXI_RID_WIDTH=16,C_AXI_AWUSER_WIDTH=16,C_AXI_ARUSER_WIDTH=16)::service_done_q.SERVICE_DONE_Q) 125000 : SERVICE_DONE_Q: XIL_AXI_WRITE (0) A:0x0000000000000000 ID:0x00000000 len:0x00 XIL_AXI_SIZE_16BYTE XIL_AXI_BURST_TYPE_INCR C:0b0000 L:XIL_AXI_ALOCK_NOLOCK P:0b000
INFO: [Master VIP_wr_driver] (axi_vip_pkg.axi_mst_wr_driver(C_AXI_ADDR_WIDTH=40,C_AXI_WDATA_WIDTH=128,C_AXI_RDATA_WIDTH=128,C_AXI_WID_WIDTH=16,C_AXI_RID_WIDTH=16,C_AXI_AWUSER_WIDTH=16,C_AXI_ARUSER_WIDTH=16)::get_and_drive.GET_AND_DRIVE) 145000 : Sending transaction: 
INFO: [Master VIP_wr_driver] (axi_vip_pkg.axi_mst_wr_driver(C_AXI_ADDR_WIDTH=40,C_AXI_WDATA_WIDTH=128,C_AXI_RDATA_WIDTH=128,C_AXI_WID_WIDTH=16,C_AXI_RID_WIDTH=16,C_AXI_AWUSER_WIDTH=16,C_AXI_ARUSER_WIDTH=16)::get_and_drive.GET_AND_DRIVE) 145000 : ---------------------------------------------------------------------------------------------
  Name                         Value
---------------------------------------------------------------------------------------------
  CMD                          XIL_AXI_WRITE
  ADDR                         0x0000000000000010 
  WID                          0x00000000
  LEN                          0x00
  SIZE                         0x100
  BURST                        0x01
  CACHE                        0x0000
  LOCK                         0x00
  PROT                         0x000
  REGION                       0x0000
  QOS                          0x0000
  AWUSER                       0x0000
  BRESP                        XIL_AXI_RESP_OKAY
  DRIVER_RETURN_ITEM           XIL_AXI_PAYLOAD_RETURN 
  CREATION_TIME                145000
  SUBMIT_TIME                  0
  PAYLOAD                      16
    BEAT[          0]          0x00000007000000070000000700000007 (strb : 0b1111111111111111) :beat_delay:         0
--------------------------------------------------------------------------------------------
INFO: [Master VIP_wr_driver] (axi_vip_pkg.axi_mst_wr_driver(C_AXI_ADDR_WIDTH=40,C_AXI_WDATA_WIDTH=128,C_AXI_RDATA_WIDTH=128,C_AXI_WID_WIDTH=16,C_AXI_RID_WIDTH=16,C_AXI_AWUSER_WIDTH=16,C_AXI_ARUSER_WIDTH=16)::w_channel.W_CHANNEL.Block10274_1477.Block10274_1478) 225000 : WREADY+WLAST (         0) id=0x00000000
INFO: [Master VIP_wr_driver] (axi_vip_pkg.axi_mst_wr_driver(C_AXI_ADDR_WIDTH=40,C_AXI_WDATA_WIDTH=128,C_AXI_RDATA_WIDTH=128,C_AXI_WID_WIDTH=16,C_AXI_RID_WIDTH=16,C_AXI_AWUSER_WIDTH=16,C_AXI_ARUSER_WIDTH=16)::service_done_q.SERVICE_DONE_Q) 235000 : SERVICE_DONE_Q: XIL_AXI_WRITE (4) A:0x0000000000000010 ID:0x00000000 len:0x00 XIL_AXI_SIZE_16BYTE XIL_AXI_BURST_TYPE_INCR C:0b0000 L:XIL_AXI_ALOCK_NOLOCK P:0b000
INFO: [Master VIP_wr_driver] (axi_vip_pkg.axi_mst_wr_driver(C_AXI_ADDR_WIDTH=40,C_AXI_WDATA_WIDTH=128,C_AXI_RDATA_WIDTH=128,C_AXI_WID_WIDTH=16,C_AXI_RID_WIDTH=16,C_AXI_AWUSER_WIDTH=16,C_AXI_ARUSER_WIDTH=16)::get_and_drive.GET_AND_DRIVE) 255000 : Sending transaction: 
INFO: [Master VIP_wr_driver] (axi_vip_pkg.axi_mst_wr_driver(C_AXI_ADDR_WIDTH=40,C_AXI_WDATA_WIDTH=128,C_AXI_RDATA_WIDTH=128,C_AXI_WID_WIDTH=16,C_AXI_RID_WIDTH=16,C_AXI_AWUSER_WIDTH=16,C_AXI_ARUSER_WIDTH=16)::get_and_drive.GET_AND_DRIVE) 255000 : ---------------------------------------------------------------------------------------------
  Name                         Value
---------------------------------------------------------------------------------------------
  CMD                          XIL_AXI_WRITE
  ADDR                         0x0000000000000020 
  WID                          0x00000000
  LEN                          0x00
  SIZE                         0x100
  BURST                        0x01
  CACHE                        0x0000
  LOCK                         0x00
  PROT                         0x000
  REGION                       0x0000
  QOS                          0x0000
  AWUSER                       0x0000
  BRESP                        XIL_AXI_RESP_OKAY
  DRIVER_RETURN_ITEM           XIL_AXI_PAYLOAD_RETURN 
  CREATION_TIME                255000
  SUBMIT_TIME                  0
  PAYLOAD                      16
    BEAT[          0]          0x0000000b00000020000000080f0e0d0c (strb : 0b1111111111111111) :beat_delay:         0
--------------------------------------------------------------------------------------------
INFO: [Master VIP_wr_driver] (axi_vip_pkg.axi_mst_wr_driver(C_AXI_ADDR_WIDTH=40,C_AXI_WDATA_WIDTH=128,C_AXI_RDATA_WIDTH=128,C_AXI_WID_WIDTH=16,C_AXI_RID_WIDTH=16,C_AXI_AWUSER_WIDTH=16,C_AXI_ARUSER_WIDTH=16)::w_channel.W_CHANNEL.Block10274_1477.Block10274_1478) 335000 : WREADY+WLAST (         0) id=0x00000000
INFO: [Master VIP_wr_driver] (axi_vip_pkg.axi_mst_wr_driver(C_AXI_ADDR_WIDTH=40,C_AXI_WDATA_WIDTH=128,C_AXI_RDATA_WIDTH=128,C_AXI_WID_WIDTH=16,C_AXI_RID_WIDTH=16,C_AXI_AWUSER_WIDTH=16,C_AXI_ARUSER_WIDTH=16)::service_done_q.SERVICE_DONE_Q) 345000 : SERVICE_DONE_Q: XIL_AXI_WRITE (8) A:0x0000000000000020 ID:0x00000000 len:0x00 XIL_AXI_SIZE_16BYTE XIL_AXI_BURST_TYPE_INCR C:0b0000 L:XIL_AXI_ALOCK_NOLOCK P:0b000
INFO: [Master VIP_wr_driver] (axi_vip_pkg.axi_mst_wr_driver(C_AXI_ADDR_WIDTH=40,C_AXI_WDATA_WIDTH=128,C_AXI_RDATA_WIDTH=128,C_AXI_WID_WIDTH=16,C_AXI_RID_WIDTH=16,C_AXI_AWUSER_WIDTH=16,C_AXI_ARUSER_WIDTH=16)::get_and_drive.GET_AND_DRIVE) 365000 : Sending transaction: 
INFO: [Master VIP_wr_driver] (axi_vip_pkg.axi_mst_wr_driver(C_AXI_ADDR_WIDTH=40,C_AXI_WDATA_WIDTH=128,C_AXI_RDATA_WIDTH=128,C_AXI_WID_WIDTH=16,C_AXI_RID_WIDTH=16,C_AXI_AWUSER_WIDTH=16,C_AXI_ARUSER_WIDTH=16)::get_and_drive.GET_AND_DRIVE) 365000 : ---------------------------------------------------------------------------------------------
  Name                         Value
---------------------------------------------------------------------------------------------
  CMD                          XIL_AXI_WRITE
  ADDR                         0x0000000000000030 
  WID                          0x00000000
  LEN                          0x00
  SIZE                         0x100
  BURST                        0x01
  CACHE                        0x0000
  LOCK                         0x00
  PROT                         0x000
  REGION                       0x0000
  QOS                          0x0000
  AWUSER                       0x0000
  BRESP                        XIL_AXI_RESP_OKAY
  DRIVER_RETURN_ITEM           XIL_AXI_PAYLOAD_RETURN 
  CREATION_TIME                365000
  SUBMIT_TIME                  0
  PAYLOAD                      16
    BEAT[          0]          0x00000000000000030000000000000060 (strb : 0b1111111111111111) :beat_delay:         0
--------------------------------------------------------------------------------------------
INFO: [Master VIP_wr_driver] (axi_vip_pkg.axi_mst_wr_driver(C_AXI_ADDR_WIDTH=40,C_AXI_WDATA_WIDTH=128,C_AXI_RDATA_WIDTH=128,C_AXI_WID_WIDTH=16,C_AXI_RID_WIDTH=16,C_AXI_AWUSER_WIDTH=16,C_AXI_ARUSER_WIDTH=16)::w_channel.W_CHANNEL.Block10274_1477.Block10274_1478) 445000 : WREADY+WLAST (         0) id=0x00000000
INFO: [Master VIP_wr_driver] (axi_vip_pkg.axi_mst_wr_driver(C_AXI_ADDR_WIDTH=40,C_AXI_WDATA_WIDTH=128,C_AXI_RDATA_WIDTH=128,C_AXI_WID_WIDTH=16,C_AXI_RID_WIDTH=16,C_AXI_AWUSER_WIDTH=16,C_AXI_ARUSER_WIDTH=16)::service_done_q.SERVICE_DONE_Q) 455000 : SERVICE_DONE_Q: XIL_AXI_WRITE (12) A:0x0000000000000030 ID:0x00000000 len:0x00 XIL_AXI_SIZE_16BYTE XIL_AXI_BURST_TYPE_INCR C:0b0000 L:XIL_AXI_ALOCK_NOLOCK P:0b000
INFO: [Master VIP_rd_driver] (axi_vip_pkg.axi_mst_rd_driver(C_AXI_ADDR_WIDTH=40,C_AXI_WDATA_WIDTH=128,C_AXI_RDATA_WIDTH=128,C_AXI_WID_WIDTH=16,C_AXI_RID_WIDTH=16,C_AXI_AWUSER_WIDTH=16,C_AXI_ARUSER_WIDTH=16)::ar_channel.AR_CHANNEL) 535001 : ARVALID id=0x000001ad
INFO: [Master VIP_rd_driver] (axi_vip_pkg.axi_mst_rd_driver(C_AXI_ADDR_WIDTH=40,C_AXI_WDATA_WIDTH=128,C_AXI_RDATA_WIDTH=128,C_AXI_WID_WIDTH=16,C_AXI_RID_WIDTH=16,C_AXI_AWUSER_WIDTH=16,C_AXI_ARUSER_WIDTH=16)::ar_channel.AR_CHANNEL) 535001 : ARVALID id=0x0000018d
INFO: [Master VIP_rd_driver] (axi_vip_pkg.axi_mst_rd_driver(C_AXI_ADDR_WIDTH=40,C_AXI_WDATA_WIDTH=128,C_AXI_RDATA_WIDTH=128,C_AXI_WID_WIDTH=16,C_AXI_RID_WIDTH=16,C_AXI_AWUSER_WIDTH=16,C_AXI_ARUSER_WIDTH=16)::ar_channel.AR_CHANNEL) 555001 : ARVALID id=0x000001ad
INFO: [Master VIP_rd_driver] (axi_vip_pkg.axi_mst_rd_driver(C_AXI_ADDR_WIDTH=40,C_AXI_WDATA_WIDTH=128,C_AXI_RDATA_WIDTH=128,C_AXI_WID_WIDTH=16,C_AXI_RID_WIDTH=16,C_AXI_AWUSER_WIDTH=16,C_AXI_ARUSER_WIDTH=16)::ar_channel.AR_CHANNEL) 555001 : ARVALID id=0x0000018d
INFO: [Master VIP_rd_driver] (axi_vip_pkg.axi_mst_rd_driver(C_AXI_ADDR_WIDTH=40,C_AXI_WDATA_WIDTH=128,C_AXI_RDATA_WIDTH=128,C_AXI_WID_WIDTH=16,C_AXI_RID_WIDTH=16,C_AXI_AWUSER_WIDTH=16,C_AXI_ARUSER_WIDTH=16)::ar_channel.AR_CHANNEL) 585001 : ARVALID id=0x0000018d
INFO: [Master VIP_rd_driver] (axi_vip_pkg.axi_mst_rd_driver(C_AXI_ADDR_WIDTH=40,C_AXI_WDATA_WIDTH=128,C_AXI_RDATA_WIDTH=128,C_AXI_WID_WIDTH=16,C_AXI_RID_WIDTH=16,C_AXI_AWUSER_WIDTH=16,C_AXI_ARUSER_WIDTH=16)::ar_channel.AR_CHANNEL) 585001 : ARVALID id=0x000001ad
INFO: [Master VIP_rd_driver] (axi_vip_pkg.axi_mst_rd_driver(C_AXI_ADDR_WIDTH=40,C_AXI_WDATA_WIDTH=128,C_AXI_RDATA_WIDTH=128,C_AXI_WID_WIDTH=16,C_AXI_RID_WIDTH=16,C_AXI_AWUSER_WIDTH=16,C_AXI_ARUSER_WIDTH=16)::ar_channel.AR_CHANNEL) 615001 : ARVALID id=0x000001ad
INFO: [Master VIP_rd_driver] (axi_vip_pkg.axi_mst_rd_driver(C_AXI_ADDR_WIDTH=40,C_AXI_WDATA_WIDTH=128,C_AXI_RDATA_WIDTH=128,C_AXI_WID_WIDTH=16,C_AXI_RID_WIDTH=16,C_AXI_AWUSER_WIDTH=16,C_AXI_ARUSER_WIDTH=16)::ar_channel.AR_CHANNEL) 615001 : ARVALID id=0x0000018d
Warning: [AXI_RMON13_54] (axi_vip_pkg.axi_transaction::set_cache) 635000 : Attempted to send CACHE(0x0001) when SUPPORTS_NARROW is low. According to UG1037,AxCACHE[1] has to be 1 to ensure that any downstream upsizer can fully pack data up to wider widths
Time: 635 ns  Iteration: 0  Process: /axi_vip_pkg/axi_monitor(C_AXI_ADDR_WIDTH=40,C_AXI_WDATA_WIDTH=128,C_AXI_RDATA_WIDTH=128,C_AXI_WID_WIDTH=6,C_AXI_RID_WIDTH=6,C_AXI_AWUSER_WIDTH=1,C_AXI_ARUSER_WIDTH=1,C_AXI_SUPPORTS_NARROW=0,C_AXI_HAS_REGION=0)::ar_channel/AR_LOOP  File: /wrk/2017.4/nightly/2017_12_15_2086221/prep/rdi/vivado/data/xilinx_vip/hdl/axi_vip_pkg.sv
Warning: [AR_REACTIVE_13] (axi_vip_pkg.axi_transaction::set_cache) 635000 : Attempted to send CACHE(0x0001) when SUPPORTS_NARROW is low. According to UG1037,AxCACHE[1] has to be 1 to ensure that any downstream upsizer can fully pack data up to wider widths
Time: 635 ns  Iteration: 0  Process: /axi_vip_pkg/axi_slv_rd_driver(C_AXI_ADDR_WIDTH=40,C_AXI_WDATA_WIDTH=128,C_AXI_RDATA_WIDTH=128,C_AXI_WID_WIDTH=6,C_AXI_RID_WIDTH=6,C_AXI_AWUSER_WIDTH=1,C_AXI_ARUSER_WIDTH=1,C_AXI_SUPPORTS_NARROW=0,C_AXI_HAS_REGION=0)::get_rd_reactive  File: /wrk/2017.4/nightly/2017_12_15_2086221/prep/rdi/vivado/data/xilinx_vip/hdl/axi_vip_pkg.sv
INFO: [Slave VIP_rd_driver] (axi_vip_pkg.axi_slv_rd_driver(C_AXI_ADDR_WIDTH=40,C_AXI_WDATA_WIDTH=128,C_AXI_RDATA_WIDTH=128,C_AXI_WID_WIDTH=6,C_AXI_RID_WIDTH=6,C_AXI_AWUSER_WIDTH=1,C_AXI_ARUSER_WIDTH=1,C_AXI_SUPPORTS_NARROW=0,C_AXI_HAS_REGION=0)::get_rd_reactive) 635000 : ARVALID >>>
XIL_AXI_READ (55) A:0x0000000800000000 ID:0x0000000d len:0x03 XIL_AXI_SIZE_16BYTE XIL_AXI_BURST_TYPE_INCR C:0b0001 L:XIL_AXI_ALOCK_NOLOCK P:0b101<<<
Warning: [AR_REACTIVE_13] (axi_vip_pkg.axi_transaction::set_cache) 635000 : Attempted to send CACHE(0x0001) when SUPPORTS_NARROW is low. According to UG1037,AxCACHE[1] has to be 1 to ensure that any downstream upsizer can fully pack data up to wider widths
Time: 635 ns  Iteration: 0  Process: /axi_vip_pkg/axi_slv_rd_driver(C_AXI_ADDR_WIDTH=40,C_AXI_WDATA_WIDTH=128,C_AXI_RDATA_WIDTH=128,C_AXI_WID_WIDTH=6,C_AXI_RID_WIDTH=6,C_AXI_AWUSER_WIDTH=1,C_AXI_ARUSER_WIDTH=1,C_AXI_SUPPORTS_NARROW=0,C_AXI_HAS_REGION=0)::get_and_drive/GET_AND_DRIVE  File: /wrk/2017.4/nightly/2017_12_15_2086221/prep/rdi/vivado/data/xilinx_vip/hdl/axi_vip_pkg.sv
INFO: [Slave VIP_rd_driver] (axi_vip_pkg.axi_slv_rd_driver(C_AXI_ADDR_WIDTH=40,C_AXI_WDATA_WIDTH=128,C_AXI_RDATA_WIDTH=128,C_AXI_WID_WIDTH=6,C_AXI_RID_WIDTH=6,C_AXI_AWUSER_WIDTH=1,C_AXI_ARUSER_WIDTH=1,C_AXI_SUPPORTS_NARROW=0,C_AXI_HAS_REGION=0)::get_and_drive.GET_AND_DRIVE) 635000 : GNI : XIL_AXI_READ (55) A:0x0000000800000000 ID:0x0000000d len:0x03 XIL_AXI_SIZE_16BYTE XIL_AXI_BURST_TYPE_INCR C:0b0001 L:XIL_AXI_ALOCK_NOLOCK P:0b101
INFO: [Master VIP_rd_driver] (axi_vip_pkg.axi_mst_rd_driver(C_AXI_ADDR_WIDTH=40,C_AXI_WDATA_WIDTH=128,C_AXI_RDATA_WIDTH=128,C_AXI_WID_WIDTH=16,C_AXI_RID_WIDTH=16,C_AXI_AWUSER_WIDTH=16,C_AXI_ARUSER_WIDTH=16)::ar_channel.AR_CHANNEL) 645001 : ARVALID id=0x0000018d
INFO: [Master VIP_rd_driver] (axi_vip_pkg.axi_mst_rd_driver(C_AXI_ADDR_WIDTH=40,C_AXI_WDATA_WIDTH=128,C_AXI_RDATA_WIDTH=128,C_AXI_WID_WIDTH=16,C_AXI_RID_WIDTH=16,C_AXI_AWUSER_WIDTH=16,C_AXI_ARUSER_WIDTH=16)::ar_channel.AR_CHANNEL) 645001 : ARVALID id=0x000001ad
              675000 : TB_MemorEDF.DUT.design_1_i.axi_vip_1.inst.genblk1.PC.REP : BIT(         89) : WARNING : XILINX_AR_SUPPORTS_NARROW_CACHE. AR Non-modifiable burst issued from MASTER. Connection has been declared to NOT support narrow bursts.
INFO: [Master VIP_rd_driver] (axi_vip_pkg.axi_mst_rd_driver(C_AXI_ADDR_WIDTH=40,C_AXI_WDATA_WIDTH=128,C_AXI_RDATA_WIDTH=128,C_AXI_WID_WIDTH=16,C_AXI_RID_WIDTH=16,C_AXI_AWUSER_WIDTH=16,C_AXI_ARUSER_WIDTH=16)::ar_channel.AR_CHANNEL) 675001 : ARVALID id=0x000001ad
INFO: [Master VIP_rd_driver] (axi_vip_pkg.axi_mst_rd_driver(C_AXI_ADDR_WIDTH=40,C_AXI_WDATA_WIDTH=128,C_AXI_RDATA_WIDTH=128,C_AXI_WID_WIDTH=16,C_AXI_RID_WIDTH=16,C_AXI_AWUSER_WIDTH=16,C_AXI_ARUSER_WIDTH=16)::ar_channel.AR_CHANNEL) 675001 : ARVALID id=0x0000018d
INFO: [Slave VIP_rd_driver] (axi_vip_pkg.axi_slv_rd_driver(C_AXI_ADDR_WIDTH=40,C_AXI_WDATA_WIDTH=128,C_AXI_RDATA_WIDTH=128,C_AXI_WID_WIDTH=6,C_AXI_RID_WIDTH=6,C_AXI_AWUSER_WIDTH=1,C_AXI_ARUSER_WIDTH=1,C_AXI_SUPPORTS_NARROW=0,C_AXI_HAS_REGION=0)::drive_r_channel) 685001 : RVALID (4294967295) id=0x0000000d, len   3
INFO: [Slave VIP_rd_driver] (axi_vip_pkg.axi_slv_rd_driver(C_AXI_ADDR_WIDTH=40,C_AXI_WDATA_WIDTH=128,C_AXI_RDATA_WIDTH=128,C_AXI_WID_WIDTH=6,C_AXI_RID_WIDTH=6,C_AXI_AWUSER_WIDTH=1,C_AXI_ARUSER_WIDTH=1,C_AXI_SUPPORTS_NARROW=0,C_AXI_HAS_REGION=0)::get_rd_reactive) 695000 : ARVALID >>>
XIL_AXI_READ (62) A:0x0000000000000000 ID:0x0000000c len:0x03 XIL_AXI_SIZE_16BYTE XIL_AXI_BURST_TYPE_INCR C:0b0010 L:XIL_AXI_ALOCK_NOLOCK P:0b001<<<
INFO: [Slave VIP_rd_driver] (axi_vip_pkg.axi_slv_rd_driver(C_AXI_ADDR_WIDTH=40,C_AXI_WDATA_WIDTH=128,C_AXI_RDATA_WIDTH=128,C_AXI_WID_WIDTH=6,C_AXI_RID_WIDTH=6,C_AXI_AWUSER_WIDTH=1,C_AXI_ARUSER_WIDTH=1,C_AXI_SUPPORTS_NARROW=0,C_AXI_HAS_REGION=0)::get_and_drive.GET_AND_DRIVE) 695000 : GNI : XIL_AXI_READ (62) A:0x0000000000000000 ID:0x0000000c len:0x03 XIL_AXI_SIZE_16BYTE XIL_AXI_BURST_TYPE_INCR C:0b0010 L:XIL_AXI_ALOCK_NOLOCK P:0b001
INFO: [Slave VIP_rd_driver] (axi_vip_pkg.axi_slv_rd_driver(C_AXI_ADDR_WIDTH=40,C_AXI_WDATA_WIDTH=128,C_AXI_RDATA_WIDTH=128,C_AXI_WID_WIDTH=6,C_AXI_RID_WIDTH=6,C_AXI_AWUSER_WIDTH=1,C_AXI_ARUSER_WIDTH=1,C_AXI_SUPPORTS_NARROW=0,C_AXI_HAS_REGION=0)::drive_r_channel) 695001 : RVALID (         0) id=0x0000000d, len   3
INFO: [Slave VIP_rd_driver] (axi_vip_pkg.axi_slv_rd_driver(C_AXI_ADDR_WIDTH=40,C_AXI_WDATA_WIDTH=128,C_AXI_RDATA_WIDTH=128,C_AXI_WID_WIDTH=6,C_AXI_RID_WIDTH=6,C_AXI_AWUSER_WIDTH=1,C_AXI_ARUSER_WIDTH=1,C_AXI_SUPPORTS_NARROW=0,C_AXI_HAS_REGION=0)::drive_r_channel) 705001 : RVALID (         1) id=0x0000000d, len   3
INFO: [Master VIP_rd_driver] (axi_vip_pkg.axi_mst_rd_driver(C_AXI_ADDR_WIDTH=40,C_AXI_WDATA_WIDTH=128,C_AXI_RDATA_WIDTH=128,C_AXI_WID_WIDTH=16,C_AXI_RID_WIDTH=16,C_AXI_AWUSER_WIDTH=16,C_AXI_ARUSER_WIDTH=16)::ar_channel.AR_CHANNEL) 705001 : ARVALID id=0x0000018d
INFO: [Master VIP_rd_driver] (axi_vip_pkg.axi_mst_rd_driver(C_AXI_ADDR_WIDTH=40,C_AXI_WDATA_WIDTH=128,C_AXI_RDATA_WIDTH=128,C_AXI_WID_WIDTH=16,C_AXI_RID_WIDTH=16,C_AXI_AWUSER_WIDTH=16,C_AXI_ARUSER_WIDTH=16)::ar_channel.AR_CHANNEL) 705001 : ARVALID id=0x000001ad
INFO: [Slave VIP_rd_driver] (axi_vip_pkg.axi_slv_rd_driver(C_AXI_ADDR_WIDTH=40,C_AXI_WDATA_WIDTH=128,C_AXI_RDATA_WIDTH=128,C_AXI_WID_WIDTH=6,C_AXI_RID_WIDTH=6,C_AXI_AWUSER_WIDTH=1,C_AXI_ARUSER_WIDTH=1,C_AXI_SUPPORTS_NARROW=0,C_AXI_HAS_REGION=0)::drive_r_channel) 715001 : RVALID (         2) id=0x0000000d, len   3
INFO: [Master VIP_rd_driver] (axi_vip_pkg.axi_mst_rd_driver(C_AXI_ADDR_WIDTH=40,C_AXI_WDATA_WIDTH=128,C_AXI_RDATA_WIDTH=128,C_AXI_WID_WIDTH=16,C_AXI_RID_WIDTH=16,C_AXI_AWUSER_WIDTH=16,C_AXI_ARUSER_WIDTH=16)::ar_channel.AR_CHANNEL) 735001 : ARVALID id=0x0000018d
INFO: [Slave VIP_rd_driver] (axi_vip_pkg.axi_slv_rd_driver(C_AXI_ADDR_WIDTH=40,C_AXI_WDATA_WIDTH=128,C_AXI_RDATA_WIDTH=128,C_AXI_WID_WIDTH=6,C_AXI_RID_WIDTH=6,C_AXI_AWUSER_WIDTH=1,C_AXI_ARUSER_WIDTH=1,C_AXI_SUPPORTS_NARROW=0,C_AXI_HAS_REGION=0)::drive_r_channel) 745001 : RVALID (4294967295) id=0x0000000c, len   3
INFO: [Master VIP_rd_driver] (axi_vip_pkg.axi_mst_rd_driver(C_AXI_ADDR_WIDTH=40,C_AXI_WDATA_WIDTH=128,C_AXI_RDATA_WIDTH=128,C_AXI_WID_WIDTH=16,C_AXI_RID_WIDTH=16,C_AXI_AWUSER_WIDTH=16,C_AXI_ARUSER_WIDTH=16)::ar_channel.AR_CHANNEL) 745001 : ARVALID id=0x000001ad
INFO: [Slave VIP_rd_driver] (axi_vip_pkg.axi_slv_rd_driver(C_AXI_ADDR_WIDTH=40,C_AXI_WDATA_WIDTH=128,C_AXI_RDATA_WIDTH=128,C_AXI_WID_WIDTH=6,C_AXI_RID_WIDTH=6,C_AXI_AWUSER_WIDTH=1,C_AXI_ARUSER_WIDTH=1,C_AXI_SUPPORTS_NARROW=0,C_AXI_HAS_REGION=0)::drive_r_channel) 755001 : RVALID (         0) id=0x0000000c, len   3
INFO: [Slave VIP_rd_driver] (axi_vip_pkg.axi_slv_rd_driver(C_AXI_ADDR_WIDTH=40,C_AXI_WDATA_WIDTH=128,C_AXI_RDATA_WIDTH=128,C_AXI_WID_WIDTH=6,C_AXI_RID_WIDTH=6,C_AXI_AWUSER_WIDTH=1,C_AXI_ARUSER_WIDTH=1,C_AXI_SUPPORTS_NARROW=0,C_AXI_HAS_REGION=0)::drive_r_channel) 765001 : RVALID (         1) id=0x0000000c, len   3
INFO: [Slave VIP_rd_driver] (axi_vip_pkg.axi_slv_rd_driver(C_AXI_ADDR_WIDTH=40,C_AXI_WDATA_WIDTH=128,C_AXI_RDATA_WIDTH=128,C_AXI_WID_WIDTH=6,C_AXI_RID_WIDTH=6,C_AXI_AWUSER_WIDTH=1,C_AXI_ARUSER_WIDTH=1,C_AXI_SUPPORTS_NARROW=0,C_AXI_HAS_REGION=0)::drive_r_channel) 775001 : RVALID (         2) id=0x0000000c, len   3
INFO: [Slave VIP_rd_driver] (axi_vip_pkg.axi_slv_rd_driver(C_AXI_ADDR_WIDTH=40,C_AXI_WDATA_WIDTH=128,C_AXI_RDATA_WIDTH=128,C_AXI_WID_WIDTH=6,C_AXI_RID_WIDTH=6,C_AXI_AWUSER_WIDTH=1,C_AXI_ARUSER_WIDTH=1,C_AXI_SUPPORTS_NARROW=0,C_AXI_HAS_REGION=0)::get_rd_reactive) 795000 : ARVALID >>>
XIL_AXI_READ (71) A:0x0000000800000040 ID:0x0000000d len:0x03 XIL_AXI_SIZE_16BYTE XIL_AXI_BURST_TYPE_INCR C:0b1111 L:XIL_AXI_ALOCK_NOLOCK P:0b001<<<
INFO: [Slave VIP_rd_driver] (axi_vip_pkg.axi_slv_rd_driver(C_AXI_ADDR_WIDTH=40,C_AXI_WDATA_WIDTH=128,C_AXI_RDATA_WIDTH=128,C_AXI_WID_WIDTH=6,C_AXI_RID_WIDTH=6,C_AXI_AWUSER_WIDTH=1,C_AXI_ARUSER_WIDTH=1,C_AXI_SUPPORTS_NARROW=0,C_AXI_HAS_REGION=0)::get_and_drive.GET_AND_DRIVE) 795000 : GNI : XIL_AXI_READ (71) A:0x0000000800000040 ID:0x0000000d len:0x03 XIL_AXI_SIZE_16BYTE XIL_AXI_BURST_TYPE_INCR C:0b1111 L:XIL_AXI_ALOCK_NOLOCK P:0b001
INFO: [Slave VIP_rd_driver] (axi_vip_pkg.axi_slv_rd_driver(C_AXI_ADDR_WIDTH=40,C_AXI_WDATA_WIDTH=128,C_AXI_RDATA_WIDTH=128,C_AXI_WID_WIDTH=6,C_AXI_RID_WIDTH=6,C_AXI_AWUSER_WIDTH=1,C_AXI_ARUSER_WIDTH=1,C_AXI_SUPPORTS_NARROW=0,C_AXI_HAS_REGION=0)::drive_r_channel) 845001 : RVALID (4294967295) id=0x0000000d, len   3
INFO: [Slave VIP_rd_driver] (axi_vip_pkg.axi_slv_rd_driver(C_AXI_ADDR_WIDTH=40,C_AXI_WDATA_WIDTH=128,C_AXI_RDATA_WIDTH=128,C_AXI_WID_WIDTH=6,C_AXI_RID_WIDTH=6,C_AXI_AWUSER_WIDTH=1,C_AXI_ARUSER_WIDTH=1,C_AXI_SUPPORTS_NARROW=0,C_AXI_HAS_REGION=0)::get_rd_reactive) 855000 : ARVALID >>>
XIL_AXI_READ (74) A:0x0000000000000040 ID:0x0000000c len:0x03 XIL_AXI_SIZE_16BYTE XIL_AXI_BURST_TYPE_INCR C:0b1011 L:XIL_AXI_ALOCK_NOLOCK P:0b011<<<
INFO: [Slave VIP_rd_driver] (axi_vip_pkg.axi_slv_rd_driver(C_AXI_ADDR_WIDTH=40,C_AXI_WDATA_WIDTH=128,C_AXI_RDATA_WIDTH=128,C_AXI_WID_WIDTH=6,C_AXI_RID_WIDTH=6,C_AXI_AWUSER_WIDTH=1,C_AXI_ARUSER_WIDTH=1,C_AXI_SUPPORTS_NARROW=0,C_AXI_HAS_REGION=0)::get_and_drive.GET_AND_DRIVE) 855000 : GNI : XIL_AXI_READ (74) A:0x0000000000000040 ID:0x0000000c len:0x03 XIL_AXI_SIZE_16BYTE XIL_AXI_BURST_TYPE_INCR C:0b1011 L:XIL_AXI_ALOCK_NOLOCK P:0b011
INFO: [Slave VIP_rd_driver] (axi_vip_pkg.axi_slv_rd_driver(C_AXI_ADDR_WIDTH=40,C_AXI_WDATA_WIDTH=128,C_AXI_RDATA_WIDTH=128,C_AXI_WID_WIDTH=6,C_AXI_RID_WIDTH=6,C_AXI_AWUSER_WIDTH=1,C_AXI_ARUSER_WIDTH=1,C_AXI_SUPPORTS_NARROW=0,C_AXI_HAS_REGION=0)::drive_r_channel) 855001 : RVALID (         0) id=0x0000000d, len   3
INFO: [Slave VIP_rd_driver] (axi_vip_pkg.axi_slv_rd_driver(C_AXI_ADDR_WIDTH=40,C_AXI_WDATA_WIDTH=128,C_AXI_RDATA_WIDTH=128,C_AXI_WID_WIDTH=6,C_AXI_RID_WIDTH=6,C_AXI_AWUSER_WIDTH=1,C_AXI_ARUSER_WIDTH=1,C_AXI_SUPPORTS_NARROW=0,C_AXI_HAS_REGION=0)::drive_r_channel) 865001 : RVALID (         1) id=0x0000000d, len   3
INFO: [Slave VIP_rd_driver] (axi_vip_pkg.axi_slv_rd_driver(C_AXI_ADDR_WIDTH=40,C_AXI_WDATA_WIDTH=128,C_AXI_RDATA_WIDTH=128,C_AXI_WID_WIDTH=6,C_AXI_RID_WIDTH=6,C_AXI_AWUSER_WIDTH=1,C_AXI_ARUSER_WIDTH=1,C_AXI_SUPPORTS_NARROW=0,C_AXI_HAS_REGION=0)::drive_r_channel) 875001 : RVALID (         2) id=0x0000000d, len   3
INFO: [Slave VIP_rd_driver] (axi_vip_pkg.axi_slv_rd_driver(C_AXI_ADDR_WIDTH=40,C_AXI_WDATA_WIDTH=128,C_AXI_RDATA_WIDTH=128,C_AXI_WID_WIDTH=6,C_AXI_RID_WIDTH=6,C_AXI_AWUSER_WIDTH=1,C_AXI_ARUSER_WIDTH=1,C_AXI_SUPPORTS_NARROW=0,C_AXI_HAS_REGION=0)::drive_r_channel) 905001 : RVALID (4294967295) id=0x0000000c, len   3
INFO: [Slave VIP_rd_driver] (axi_vip_pkg.axi_slv_rd_driver(C_AXI_ADDR_WIDTH=40,C_AXI_WDATA_WIDTH=128,C_AXI_RDATA_WIDTH=128,C_AXI_WID_WIDTH=6,C_AXI_RID_WIDTH=6,C_AXI_AWUSER_WIDTH=1,C_AXI_ARUSER_WIDTH=1,C_AXI_SUPPORTS_NARROW=0,C_AXI_HAS_REGION=0)::drive_r_channel) 915001 : RVALID (         0) id=0x0000000c, len   3
INFO: [Slave VIP_rd_driver] (axi_vip_pkg.axi_slv_rd_driver(C_AXI_ADDR_WIDTH=40,C_AXI_WDATA_WIDTH=128,C_AXI_RDATA_WIDTH=128,C_AXI_WID_WIDTH=6,C_AXI_RID_WIDTH=6,C_AXI_AWUSER_WIDTH=1,C_AXI_ARUSER_WIDTH=1,C_AXI_SUPPORTS_NARROW=0,C_AXI_HAS_REGION=0)::drive_r_channel) 925001 : RVALID (         1) id=0x0000000c, len   3
INFO: [Slave VIP_rd_driver] (axi_vip_pkg.axi_slv_rd_driver(C_AXI_ADDR_WIDTH=40,C_AXI_WDATA_WIDTH=128,C_AXI_RDATA_WIDTH=128,C_AXI_WID_WIDTH=6,C_AXI_RID_WIDTH=6,C_AXI_AWUSER_WIDTH=1,C_AXI_ARUSER_WIDTH=1,C_AXI_SUPPORTS_NARROW=0,C_AXI_HAS_REGION=0)::drive_r_channel) 935001 : RVALID (         2) id=0x0000000c, len   3
INFO: [Slave VIP_rd_driver] (axi_vip_pkg.axi_slv_rd_driver(C_AXI_ADDR_WIDTH=40,C_AXI_WDATA_WIDTH=128,C_AXI_RDATA_WIDTH=128,C_AXI_WID_WIDTH=6,C_AXI_RID_WIDTH=6,C_AXI_AWUSER_WIDTH=1,C_AXI_ARUSER_WIDTH=1,C_AXI_SUPPORTS_NARROW=0,C_AXI_HAS_REGION=0)::get_rd_reactive) 955000 : ARVALID >>>
XIL_AXI_READ (77) A:0x0000000800000080 ID:0x0000000d len:0x03 XIL_AXI_SIZE_16BYTE XIL_AXI_BURST_TYPE_INCR C:0b0010 L:XIL_AXI_ALOCK_NOLOCK P:0b111<<<
INFO: [Slave VIP_rd_driver] (axi_vip_pkg.axi_slv_rd_driver(C_AXI_ADDR_WIDTH=40,C_AXI_WDATA_WIDTH=128,C_AXI_RDATA_WIDTH=128,C_AXI_WID_WIDTH=6,C_AXI_RID_WIDTH=6,C_AXI_AWUSER_WIDTH=1,C_AXI_ARUSER_WIDTH=1,C_AXI_SUPPORTS_NARROW=0,C_AXI_HAS_REGION=0)::get_and_drive.GET_AND_DRIVE) 955000 : GNI : XIL_AXI_READ (77) A:0x0000000800000080 ID:0x0000000d len:0x03 XIL_AXI_SIZE_16BYTE XIL_AXI_BURST_TYPE_INCR C:0b0010 L:XIL_AXI_ALOCK_NOLOCK P:0b111
INFO: [Slave VIP_rd_driver] (axi_vip_pkg.axi_slv_rd_driver(C_AXI_ADDR_WIDTH=40,C_AXI_WDATA_WIDTH=128,C_AXI_RDATA_WIDTH=128,C_AXI_WID_WIDTH=6,C_AXI_RID_WIDTH=6,C_AXI_AWUSER_WIDTH=1,C_AXI_ARUSER_WIDTH=1,C_AXI_SUPPORTS_NARROW=0,C_AXI_HAS_REGION=0)::drive_r_channel) 1005001 : RVALID (4294967295) id=0x0000000d, len   3
Warning: [AXI_RMON12_79] (axi_vip_pkg.axi_transaction::set_cache) 1015000 : Attempted to send CACHE(0x0000) when SUPPORTS_NARROW is low. According to UG1037,AxCACHE[1] has to be 1 to ensure that any downstream upsizer can fully pack data up to wider widths
Time: 1015 ns  Iteration: 0  Process: /axi_vip_pkg/axi_monitor(C_AXI_ADDR_WIDTH=40,C_AXI_WDATA_WIDTH=128,C_AXI_RDATA_WIDTH=128,C_AXI_WID_WIDTH=6,C_AXI_RID_WIDTH=6,C_AXI_AWUSER_WIDTH=1,C_AXI_ARUSER_WIDTH=1,C_AXI_SUPPORTS_NARROW=0,C_AXI_HAS_REGION=0)::ar_channel/AR_LOOP  File: /wrk/2017.4/nightly/2017_12_15_2086221/prep/rdi/vivado/data/xilinx_vip/hdl/axi_vip_pkg.sv
Warning: [AR_REACTIVE_12] (axi_vip_pkg.axi_transaction::set_cache) 1015000 : Attempted to send CACHE(0x0000) when SUPPORTS_NARROW is low. According to UG1037,AxCACHE[1] has to be 1 to ensure that any downstream upsizer can fully pack data up to wider widths
Time: 1015 ns  Iteration: 0  Process: /axi_vip_pkg/axi_slv_rd_driver(C_AXI_ADDR_WIDTH=40,C_AXI_WDATA_WIDTH=128,C_AXI_RDATA_WIDTH=128,C_AXI_WID_WIDTH=6,C_AXI_RID_WIDTH=6,C_AXI_AWUSER_WIDTH=1,C_AXI_ARUSER_WIDTH=1,C_AXI_SUPPORTS_NARROW=0,C_AXI_HAS_REGION=0)::get_rd_reactive  File: /wrk/2017.4/nightly/2017_12_15_2086221/prep/rdi/vivado/data/xilinx_vip/hdl/axi_vip_pkg.sv
INFO: [Slave VIP_rd_driver] (axi_vip_pkg.axi_slv_rd_driver(C_AXI_ADDR_WIDTH=40,C_AXI_WDATA_WIDTH=128,C_AXI_RDATA_WIDTH=128,C_AXI_WID_WIDTH=6,C_AXI_RID_WIDTH=6,C_AXI_AWUSER_WIDTH=1,C_AXI_ARUSER_WIDTH=1,C_AXI_SUPPORTS_NARROW=0,C_AXI_HAS_REGION=0)::get_rd_reactive) 1015000 : ARVALID >>>
XIL_AXI_READ (80) A:0x0000000000000080 ID:0x0000000c len:0x03 XIL_AXI_SIZE_16BYTE XIL_AXI_BURST_TYPE_INCR C:0b0000 L:XIL_AXI_ALOCK_NOLOCK P:0b011<<<
Warning: [AR_REACTIVE_12] (axi_vip_pkg.axi_transaction::set_cache) 1015000 : Attempted to send CACHE(0x0000) when SUPPORTS_NARROW is low. According to UG1037,AxCACHE[1] has to be 1 to ensure that any downstream upsizer can fully pack data up to wider widths
Time: 1015 ns  Iteration: 0  Process: /axi_vip_pkg/axi_slv_rd_driver(C_AXI_ADDR_WIDTH=40,C_AXI_WDATA_WIDTH=128,C_AXI_RDATA_WIDTH=128,C_AXI_WID_WIDTH=6,C_AXI_RID_WIDTH=6,C_AXI_AWUSER_WIDTH=1,C_AXI_ARUSER_WIDTH=1,C_AXI_SUPPORTS_NARROW=0,C_AXI_HAS_REGION=0)::get_and_drive/GET_AND_DRIVE  File: /wrk/2017.4/nightly/2017_12_15_2086221/prep/rdi/vivado/data/xilinx_vip/hdl/axi_vip_pkg.sv
INFO: [Slave VIP_rd_driver] (axi_vip_pkg.axi_slv_rd_driver(C_AXI_ADDR_WIDTH=40,C_AXI_WDATA_WIDTH=128,C_AXI_RDATA_WIDTH=128,C_AXI_WID_WIDTH=6,C_AXI_RID_WIDTH=6,C_AXI_AWUSER_WIDTH=1,C_AXI_ARUSER_WIDTH=1,C_AXI_SUPPORTS_NARROW=0,C_AXI_HAS_REGION=0)::get_and_drive.GET_AND_DRIVE) 1015000 : GNI : XIL_AXI_READ (80) A:0x0000000000000080 ID:0x0000000c len:0x03 XIL_AXI_SIZE_16BYTE XIL_AXI_BURST_TYPE_INCR C:0b0000 L:XIL_AXI_ALOCK_NOLOCK P:0b011
INFO: [Slave VIP_rd_driver] (axi_vip_pkg.axi_slv_rd_driver(C_AXI_ADDR_WIDTH=40,C_AXI_WDATA_WIDTH=128,C_AXI_RDATA_WIDTH=128,C_AXI_WID_WIDTH=6,C_AXI_RID_WIDTH=6,C_AXI_AWUSER_WIDTH=1,C_AXI_ARUSER_WIDTH=1,C_AXI_SUPPORTS_NARROW=0,C_AXI_HAS_REGION=0)::drive_r_channel) 1015001 : RVALID (         0) id=0x0000000d, len   3
INFO: [Slave VIP_rd_driver] (axi_vip_pkg.axi_slv_rd_driver(C_AXI_ADDR_WIDTH=40,C_AXI_WDATA_WIDTH=128,C_AXI_RDATA_WIDTH=128,C_AXI_WID_WIDTH=6,C_AXI_RID_WIDTH=6,C_AXI_AWUSER_WIDTH=1,C_AXI_ARUSER_WIDTH=1,C_AXI_SUPPORTS_NARROW=0,C_AXI_HAS_REGION=0)::drive_r_channel) 1025001 : RVALID (         1) id=0x0000000d, len   3
INFO: [Slave VIP_rd_driver] (axi_vip_pkg.axi_slv_rd_driver(C_AXI_ADDR_WIDTH=40,C_AXI_WDATA_WIDTH=128,C_AXI_RDATA_WIDTH=128,C_AXI_WID_WIDTH=6,C_AXI_RID_WIDTH=6,C_AXI_AWUSER_WIDTH=1,C_AXI_ARUSER_WIDTH=1,C_AXI_SUPPORTS_NARROW=0,C_AXI_HAS_REGION=0)::drive_r_channel) 1035001 : RVALID (         2) id=0x0000000d, len   3
INFO: [Slave VIP_rd_driver] (axi_vip_pkg.axi_slv_rd_driver(C_AXI_ADDR_WIDTH=40,C_AXI_WDATA_WIDTH=128,C_AXI_RDATA_WIDTH=128,C_AXI_WID_WIDTH=6,C_AXI_RID_WIDTH=6,C_AXI_AWUSER_WIDTH=1,C_AXI_ARUSER_WIDTH=1,C_AXI_SUPPORTS_NARROW=0,C_AXI_HAS_REGION=0)::drive_r_channel) 1065001 : RVALID (4294967295) id=0x0000000c, len   3
INFO: [Slave VIP_rd_driver] (axi_vip_pkg.axi_slv_rd_driver(C_AXI_ADDR_WIDTH=40,C_AXI_WDATA_WIDTH=128,C_AXI_RDATA_WIDTH=128,C_AXI_WID_WIDTH=6,C_AXI_RID_WIDTH=6,C_AXI_AWUSER_WIDTH=1,C_AXI_ARUSER_WIDTH=1,C_AXI_SUPPORTS_NARROW=0,C_AXI_HAS_REGION=0)::drive_r_channel) 1075001 : RVALID (         0) id=0x0000000c, len   3
INFO: [Slave VIP_rd_driver] (axi_vip_pkg.axi_slv_rd_driver(C_AXI_ADDR_WIDTH=40,C_AXI_WDATA_WIDTH=128,C_AXI_RDATA_WIDTH=128,C_AXI_WID_WIDTH=6,C_AXI_RID_WIDTH=6,C_AXI_AWUSER_WIDTH=1,C_AXI_ARUSER_WIDTH=1,C_AXI_SUPPORTS_NARROW=0,C_AXI_HAS_REGION=0)::drive_r_channel) 1085001 : RVALID (         1) id=0x0000000c, len   3
INFO: [Slave VIP_rd_driver] (axi_vip_pkg.axi_slv_rd_driver(C_AXI_ADDR_WIDTH=40,C_AXI_WDATA_WIDTH=128,C_AXI_RDATA_WIDTH=128,C_AXI_WID_WIDTH=6,C_AXI_RID_WIDTH=6,C_AXI_AWUSER_WIDTH=1,C_AXI_ARUSER_WIDTH=1,C_AXI_SUPPORTS_NARROW=0,C_AXI_HAS_REGION=0)::drive_r_channel) 1095001 : RVALID (         2) id=0x0000000c, len   3
Warning: [AXI_RMON13_82] (axi_vip_pkg.axi_transaction::set_cache) 1115000 : Attempted to send CACHE(0x0000) when SUPPORTS_NARROW is low. According to UG1037,AxCACHE[1] has to be 1 to ensure that any downstream upsizer can fully pack data up to wider widths
Time: 1115 ns  Iteration: 0  Process: /axi_vip_pkg/axi_monitor(C_AXI_ADDR_WIDTH=40,C_AXI_WDATA_WIDTH=128,C_AXI_RDATA_WIDTH=128,C_AXI_WID_WIDTH=6,C_AXI_RID_WIDTH=6,C_AXI_AWUSER_WIDTH=1,C_AXI_ARUSER_WIDTH=1,C_AXI_SUPPORTS_NARROW=0,C_AXI_HAS_REGION=0)::ar_channel/AR_LOOP  File: /wrk/2017.4/nightly/2017_12_15_2086221/prep/rdi/vivado/data/xilinx_vip/hdl/axi_vip_pkg.sv
Warning: [AR_REACTIVE_13] (axi_vip_pkg.axi_transaction::set_cache) 1115000 : Attempted to send CACHE(0x0000) when SUPPORTS_NARROW is low. According to UG1037,AxCACHE[1] has to be 1 to ensure that any downstream upsizer can fully pack data up to wider widths
Time: 1115 ns  Iteration: 0  Process: /axi_vip_pkg/axi_slv_rd_driver(C_AXI_ADDR_WIDTH=40,C_AXI_WDATA_WIDTH=128,C_AXI_RDATA_WIDTH=128,C_AXI_WID_WIDTH=6,C_AXI_RID_WIDTH=6,C_AXI_AWUSER_WIDTH=1,C_AXI_ARUSER_WIDTH=1,C_AXI_SUPPORTS_NARROW=0,C_AXI_HAS_REGION=0)::get_rd_reactive  File: /wrk/2017.4/nightly/2017_12_15_2086221/prep/rdi/vivado/data/xilinx_vip/hdl/axi_vip_pkg.sv
INFO: [Slave VIP_rd_driver] (axi_vip_pkg.axi_slv_rd_driver(C_AXI_ADDR_WIDTH=40,C_AXI_WDATA_WIDTH=128,C_AXI_RDATA_WIDTH=128,C_AXI_WID_WIDTH=6,C_AXI_RID_WIDTH=6,C_AXI_AWUSER_WIDTH=1,C_AXI_ARUSER_WIDTH=1,C_AXI_SUPPORTS_NARROW=0,C_AXI_HAS_REGION=0)::get_rd_reactive) 1115000 : ARVALID >>>
XIL_AXI_READ (83) A:0x00000008000000c0 ID:0x0000000d len:0x03 XIL_AXI_SIZE_16BYTE XIL_AXI_BURST_TYPE_INCR C:0b0000 L:XIL_AXI_ALOCK_NOLOCK P:0b010<<<
Warning: [AR_REACTIVE_13] (axi_vip_pkg.axi_transaction::set_cache) 1115000 : Attempted to send CACHE(0x0000) when SUPPORTS_NARROW is low. According to UG1037,AxCACHE[1] has to be 1 to ensure that any downstream upsizer can fully pack data up to wider widths
Time: 1115 ns  Iteration: 0  Process: /axi_vip_pkg/axi_slv_rd_driver(C_AXI_ADDR_WIDTH=40,C_AXI_WDATA_WIDTH=128,C_AXI_RDATA_WIDTH=128,C_AXI_WID_WIDTH=6,C_AXI_RID_WIDTH=6,C_AXI_AWUSER_WIDTH=1,C_AXI_ARUSER_WIDTH=1,C_AXI_SUPPORTS_NARROW=0,C_AXI_HAS_REGION=0)::get_and_drive/GET_AND_DRIVE  File: /wrk/2017.4/nightly/2017_12_15_2086221/prep/rdi/vivado/data/xilinx_vip/hdl/axi_vip_pkg.sv
INFO: [Slave VIP_rd_driver] (axi_vip_pkg.axi_slv_rd_driver(C_AXI_ADDR_WIDTH=40,C_AXI_WDATA_WIDTH=128,C_AXI_RDATA_WIDTH=128,C_AXI_WID_WIDTH=6,C_AXI_RID_WIDTH=6,C_AXI_AWUSER_WIDTH=1,C_AXI_ARUSER_WIDTH=1,C_AXI_SUPPORTS_NARROW=0,C_AXI_HAS_REGION=0)::get_and_drive.GET_AND_DRIVE) 1115000 : GNI : XIL_AXI_READ (83) A:0x00000008000000c0 ID:0x0000000d len:0x03 XIL_AXI_SIZE_16BYTE XIL_AXI_BURST_TYPE_INCR C:0b0000 L:XIL_AXI_ALOCK_NOLOCK P:0b010
INFO: [Slave VIP_rd_driver] (axi_vip_pkg.axi_slv_rd_driver(C_AXI_ADDR_WIDTH=40,C_AXI_WDATA_WIDTH=128,C_AXI_RDATA_WIDTH=128,C_AXI_WID_WIDTH=6,C_AXI_RID_WIDTH=6,C_AXI_AWUSER_WIDTH=1,C_AXI_ARUSER_WIDTH=1,C_AXI_SUPPORTS_NARROW=0,C_AXI_HAS_REGION=0)::drive_r_channel) 1165001 : RVALID (4294967295) id=0x0000000d, len   3
INFO: [Slave VIP_rd_driver] (axi_vip_pkg.axi_slv_rd_driver(C_AXI_ADDR_WIDTH=40,C_AXI_WDATA_WIDTH=128,C_AXI_RDATA_WIDTH=128,C_AXI_WID_WIDTH=6,C_AXI_RID_WIDTH=6,C_AXI_AWUSER_WIDTH=1,C_AXI_ARUSER_WIDTH=1,C_AXI_SUPPORTS_NARROW=0,C_AXI_HAS_REGION=0)::get_rd_reactive) 1175000 : ARVALID >>>
XIL_AXI_READ (86) A:0x00000000000000c0 ID:0x0000000c len:0x03 XIL_AXI_SIZE_16BYTE XIL_AXI_BURST_TYPE_INCR C:0b1111 L:XIL_AXI_ALOCK_NOLOCK P:0b111<<<
INFO: [Slave VIP_rd_driver] (axi_vip_pkg.axi_slv_rd_driver(C_AXI_ADDR_WIDTH=40,C_AXI_WDATA_WIDTH=128,C_AXI_RDATA_WIDTH=128,C_AXI_WID_WIDTH=6,C_AXI_RID_WIDTH=6,C_AXI_AWUSER_WIDTH=1,C_AXI_ARUSER_WIDTH=1,C_AXI_SUPPORTS_NARROW=0,C_AXI_HAS_REGION=0)::get_and_drive.GET_AND_DRIVE) 1175000 : GNI : XIL_AXI_READ (86) A:0x00000000000000c0 ID:0x0000000c len:0x03 XIL_AXI_SIZE_16BYTE XIL_AXI_BURST_TYPE_INCR C:0b1111 L:XIL_AXI_ALOCK_NOLOCK P:0b111
INFO: [Slave VIP_rd_driver] (axi_vip_pkg.axi_slv_rd_driver(C_AXI_ADDR_WIDTH=40,C_AXI_WDATA_WIDTH=128,C_AXI_RDATA_WIDTH=128,C_AXI_WID_WIDTH=6,C_AXI_RID_WIDTH=6,C_AXI_AWUSER_WIDTH=1,C_AXI_ARUSER_WIDTH=1,C_AXI_SUPPORTS_NARROW=0,C_AXI_HAS_REGION=0)::drive_r_channel) 1175001 : RVALID (         0) id=0x0000000d, len   3
INFO: [Slave VIP_rd_driver] (axi_vip_pkg.axi_slv_rd_driver(C_AXI_ADDR_WIDTH=40,C_AXI_WDATA_WIDTH=128,C_AXI_RDATA_WIDTH=128,C_AXI_WID_WIDTH=6,C_AXI_RID_WIDTH=6,C_AXI_AWUSER_WIDTH=1,C_AXI_ARUSER_WIDTH=1,C_AXI_SUPPORTS_NARROW=0,C_AXI_HAS_REGION=0)::drive_r_channel) 1185001 : RVALID (         1) id=0x0000000d, len   3
INFO: [Slave VIP_rd_driver] (axi_vip_pkg.axi_slv_rd_driver(C_AXI_ADDR_WIDTH=40,C_AXI_WDATA_WIDTH=128,C_AXI_RDATA_WIDTH=128,C_AXI_WID_WIDTH=6,C_AXI_RID_WIDTH=6,C_AXI_AWUSER_WIDTH=1,C_AXI_ARUSER_WIDTH=1,C_AXI_SUPPORTS_NARROW=0,C_AXI_HAS_REGION=0)::drive_r_channel) 1195001 : RVALID (         2) id=0x0000000d, len   3
INFO: [Slave VIP_rd_driver] (axi_vip_pkg.axi_slv_rd_driver(C_AXI_ADDR_WIDTH=40,C_AXI_WDATA_WIDTH=128,C_AXI_RDATA_WIDTH=128,C_AXI_WID_WIDTH=6,C_AXI_RID_WIDTH=6,C_AXI_AWUSER_WIDTH=1,C_AXI_ARUSER_WIDTH=1,C_AXI_SUPPORTS_NARROW=0,C_AXI_HAS_REGION=0)::drive_r_channel) 1225001 : RVALID (4294967295) id=0x0000000c, len   3
INFO: [Slave VIP_rd_driver] (axi_vip_pkg.axi_slv_rd_driver(C_AXI_ADDR_WIDTH=40,C_AXI_WDATA_WIDTH=128,C_AXI_RDATA_WIDTH=128,C_AXI_WID_WIDTH=6,C_AXI_RID_WIDTH=6,C_AXI_AWUSER_WIDTH=1,C_AXI_ARUSER_WIDTH=1,C_AXI_SUPPORTS_NARROW=0,C_AXI_HAS_REGION=0)::drive_r_channel) 1235001 : RVALID (         0) id=0x0000000c, len   3
INFO: [Slave VIP_rd_driver] (axi_vip_pkg.axi_slv_rd_driver(C_AXI_ADDR_WIDTH=40,C_AXI_WDATA_WIDTH=128,C_AXI_RDATA_WIDTH=128,C_AXI_WID_WIDTH=6,C_AXI_RID_WIDTH=6,C_AXI_AWUSER_WIDTH=1,C_AXI_ARUSER_WIDTH=1,C_AXI_SUPPORTS_NARROW=0,C_AXI_HAS_REGION=0)::drive_r_channel) 1245001 : RVALID (         1) id=0x0000000c, len   3
INFO: [Slave VIP_rd_driver] (axi_vip_pkg.axi_slv_rd_driver(C_AXI_ADDR_WIDTH=40,C_AXI_WDATA_WIDTH=128,C_AXI_RDATA_WIDTH=128,C_AXI_WID_WIDTH=6,C_AXI_RID_WIDTH=6,C_AXI_AWUSER_WIDTH=1,C_AXI_ARUSER_WIDTH=1,C_AXI_SUPPORTS_NARROW=0,C_AXI_HAS_REGION=0)::drive_r_channel) 1255001 : RVALID (         2) id=0x0000000c, len   3
INFO: [Slave VIP_rd_driver] (axi_vip_pkg.axi_slv_rd_driver(C_AXI_ADDR_WIDTH=40,C_AXI_WDATA_WIDTH=128,C_AXI_RDATA_WIDTH=128,C_AXI_WID_WIDTH=6,C_AXI_RID_WIDTH=6,C_AXI_AWUSER_WIDTH=1,C_AXI_ARUSER_WIDTH=1,C_AXI_SUPPORTS_NARROW=0,C_AXI_HAS_REGION=0)::get_rd_reactive) 1275000 : ARVALID >>>
XIL_AXI_READ (89) A:0x0000000800000100 ID:0x0000000d len:0x03 XIL_AXI_SIZE_16BYTE XIL_AXI_BURST_TYPE_INCR C:0b1110 L:XIL_AXI_ALOCK_NOLOCK P:0b100<<<
INFO: [Slave VIP_rd_driver] (axi_vip_pkg.axi_slv_rd_driver(C_AXI_ADDR_WIDTH=40,C_AXI_WDATA_WIDTH=128,C_AXI_RDATA_WIDTH=128,C_AXI_WID_WIDTH=6,C_AXI_RID_WIDTH=6,C_AXI_AWUSER_WIDTH=1,C_AXI_ARUSER_WIDTH=1,C_AXI_SUPPORTS_NARROW=0,C_AXI_HAS_REGION=0)::get_and_drive.GET_AND_DRIVE) 1275000 : GNI : XIL_AXI_READ (89) A:0x0000000800000100 ID:0x0000000d len:0x03 XIL_AXI_SIZE_16BYTE XIL_AXI_BURST_TYPE_INCR C:0b1110 L:XIL_AXI_ALOCK_NOLOCK P:0b100
INFO: [Slave VIP_rd_driver] (axi_vip_pkg.axi_slv_rd_driver(C_AXI_ADDR_WIDTH=40,C_AXI_WDATA_WIDTH=128,C_AXI_RDATA_WIDTH=128,C_AXI_WID_WIDTH=6,C_AXI_RID_WIDTH=6,C_AXI_AWUSER_WIDTH=1,C_AXI_ARUSER_WIDTH=1,C_AXI_SUPPORTS_NARROW=0,C_AXI_HAS_REGION=0)::drive_r_channel) 1325001 : RVALID (4294967295) id=0x0000000d, len   3
INFO: [Slave VIP_rd_driver] (axi_vip_pkg.axi_slv_rd_driver(C_AXI_ADDR_WIDTH=40,C_AXI_WDATA_WIDTH=128,C_AXI_RDATA_WIDTH=128,C_AXI_WID_WIDTH=6,C_AXI_RID_WIDTH=6,C_AXI_AWUSER_WIDTH=1,C_AXI_ARUSER_WIDTH=1,C_AXI_SUPPORTS_NARROW=0,C_AXI_HAS_REGION=0)::get_rd_reactive) 1335000 : ARVALID >>>
XIL_AXI_READ (92) A:0x0000000000000100 ID:0x0000000c len:0x03 XIL_AXI_SIZE_16BYTE XIL_AXI_BURST_TYPE_INCR C:0b1010 L:XIL_AXI_ALOCK_NOLOCK P:0b110<<<
INFO: [Slave VIP_rd_driver] (axi_vip_pkg.axi_slv_rd_driver(C_AXI_ADDR_WIDTH=40,C_AXI_WDATA_WIDTH=128,C_AXI_RDATA_WIDTH=128,C_AXI_WID_WIDTH=6,C_AXI_RID_WIDTH=6,C_AXI_AWUSER_WIDTH=1,C_AXI_ARUSER_WIDTH=1,C_AXI_SUPPORTS_NARROW=0,C_AXI_HAS_REGION=0)::get_and_drive.GET_AND_DRIVE) 1335000 : GNI : XIL_AXI_READ (92) A:0x0000000000000100 ID:0x0000000c len:0x03 XIL_AXI_SIZE_16BYTE XIL_AXI_BURST_TYPE_INCR C:0b1010 L:XIL_AXI_ALOCK_NOLOCK P:0b110
INFO: [Slave VIP_rd_driver] (axi_vip_pkg.axi_slv_rd_driver(C_AXI_ADDR_WIDTH=40,C_AXI_WDATA_WIDTH=128,C_AXI_RDATA_WIDTH=128,C_AXI_WID_WIDTH=6,C_AXI_RID_WIDTH=6,C_AXI_AWUSER_WIDTH=1,C_AXI_ARUSER_WIDTH=1,C_AXI_SUPPORTS_NARROW=0,C_AXI_HAS_REGION=0)::drive_r_channel) 1335001 : RVALID (         0) id=0x0000000d, len   3
INFO: [Slave VIP_rd_driver] (axi_vip_pkg.axi_slv_rd_driver(C_AXI_ADDR_WIDTH=40,C_AXI_WDATA_WIDTH=128,C_AXI_RDATA_WIDTH=128,C_AXI_WID_WIDTH=6,C_AXI_RID_WIDTH=6,C_AXI_AWUSER_WIDTH=1,C_AXI_ARUSER_WIDTH=1,C_AXI_SUPPORTS_NARROW=0,C_AXI_HAS_REGION=0)::drive_r_channel) 1345001 : RVALID (         1) id=0x0000000d, len   3
INFO: [Slave VIP_rd_driver] (axi_vip_pkg.axi_slv_rd_driver(C_AXI_ADDR_WIDTH=40,C_AXI_WDATA_WIDTH=128,C_AXI_RDATA_WIDTH=128,C_AXI_WID_WIDTH=6,C_AXI_RID_WIDTH=6,C_AXI_AWUSER_WIDTH=1,C_AXI_ARUSER_WIDTH=1,C_AXI_SUPPORTS_NARROW=0,C_AXI_HAS_REGION=0)::drive_r_channel) 1355001 : RVALID (         2) id=0x0000000d, len   3
INFO: [Slave VIP_rd_driver] (axi_vip_pkg.axi_slv_rd_driver(C_AXI_ADDR_WIDTH=40,C_AXI_WDATA_WIDTH=128,C_AXI_RDATA_WIDTH=128,C_AXI_WID_WIDTH=6,C_AXI_RID_WIDTH=6,C_AXI_AWUSER_WIDTH=1,C_AXI_ARUSER_WIDTH=1,C_AXI_SUPPORTS_NARROW=0,C_AXI_HAS_REGION=0)::drive_r_channel) 1385001 : RVALID (4294967295) id=0x0000000c, len   3
INFO: [Slave VIP_rd_driver] (axi_vip_pkg.axi_slv_rd_driver(C_AXI_ADDR_WIDTH=40,C_AXI_WDATA_WIDTH=128,C_AXI_RDATA_WIDTH=128,C_AXI_WID_WIDTH=6,C_AXI_RID_WIDTH=6,C_AXI_AWUSER_WIDTH=1,C_AXI_ARUSER_WIDTH=1,C_AXI_SUPPORTS_NARROW=0,C_AXI_HAS_REGION=0)::drive_r_channel) 1395001 : RVALID (         0) id=0x0000000c, len   3
INFO: [Slave VIP_rd_driver] (axi_vip_pkg.axi_slv_rd_driver(C_AXI_ADDR_WIDTH=40,C_AXI_WDATA_WIDTH=128,C_AXI_RDATA_WIDTH=128,C_AXI_WID_WIDTH=6,C_AXI_RID_WIDTH=6,C_AXI_AWUSER_WIDTH=1,C_AXI_ARUSER_WIDTH=1,C_AXI_SUPPORTS_NARROW=0,C_AXI_HAS_REGION=0)::drive_r_channel) 1405001 : RVALID (         1) id=0x0000000c, len   3
INFO: [Slave VIP_rd_driver] (axi_vip_pkg.axi_slv_rd_driver(C_AXI_ADDR_WIDTH=40,C_AXI_WDATA_WIDTH=128,C_AXI_RDATA_WIDTH=128,C_AXI_WID_WIDTH=6,C_AXI_RID_WIDTH=6,C_AXI_AWUSER_WIDTH=1,C_AXI_ARUSER_WIDTH=1,C_AXI_SUPPORTS_NARROW=0,C_AXI_HAS_REGION=0)::drive_r_channel) 1415001 : RVALID (         2) id=0x0000000c, len   3
INFO: [Slave VIP_rd_driver] (axi_vip_pkg.axi_slv_rd_driver(C_AXI_ADDR_WIDTH=40,C_AXI_WDATA_WIDTH=128,C_AXI_RDATA_WIDTH=128,C_AXI_WID_WIDTH=6,C_AXI_RID_WIDTH=6,C_AXI_AWUSER_WIDTH=1,C_AXI_ARUSER_WIDTH=1,C_AXI_SUPPORTS_NARROW=0,C_AXI_HAS_REGION=0)::get_rd_reactive) 1435000 : ARVALID >>>
XIL_AXI_READ (95) A:0x0000000800000140 ID:0x0000000d len:0x03 XIL_AXI_SIZE_16BYTE XIL_AXI_BURST_TYPE_INCR C:0b1010 L:XIL_AXI_ALOCK_NOLOCK P:0b110<<<
INFO: [Slave VIP_rd_driver] (axi_vip_pkg.axi_slv_rd_driver(C_AXI_ADDR_WIDTH=40,C_AXI_WDATA_WIDTH=128,C_AXI_RDATA_WIDTH=128,C_AXI_WID_WIDTH=6,C_AXI_RID_WIDTH=6,C_AXI_AWUSER_WIDTH=1,C_AXI_ARUSER_WIDTH=1,C_AXI_SUPPORTS_NARROW=0,C_AXI_HAS_REGION=0)::get_and_drive.GET_AND_DRIVE) 1435000 : GNI : XIL_AXI_READ (95) A:0x0000000800000140 ID:0x0000000d len:0x03 XIL_AXI_SIZE_16BYTE XIL_AXI_BURST_TYPE_INCR C:0b1010 L:XIL_AXI_ALOCK_NOLOCK P:0b110
INFO: [Slave VIP_rd_driver] (axi_vip_pkg.axi_slv_rd_driver(C_AXI_ADDR_WIDTH=40,C_AXI_WDATA_WIDTH=128,C_AXI_RDATA_WIDTH=128,C_AXI_WID_WIDTH=6,C_AXI_RID_WIDTH=6,C_AXI_AWUSER_WIDTH=1,C_AXI_ARUSER_WIDTH=1,C_AXI_SUPPORTS_NARROW=0,C_AXI_HAS_REGION=0)::drive_r_channel) 1485001 : RVALID (4294967295) id=0x0000000d, len   3
INFO: [Slave VIP_rd_driver] (axi_vip_pkg.axi_slv_rd_driver(C_AXI_ADDR_WIDTH=40,C_AXI_WDATA_WIDTH=128,C_AXI_RDATA_WIDTH=128,C_AXI_WID_WIDTH=6,C_AXI_RID_WIDTH=6,C_AXI_AWUSER_WIDTH=1,C_AXI_ARUSER_WIDTH=1,C_AXI_SUPPORTS_NARROW=0,C_AXI_HAS_REGION=0)::get_rd_reactive) 1495000 : ARVALID >>>
XIL_AXI_READ (98) A:0x0000000000000140 ID:0x0000000c len:0x03 XIL_AXI_SIZE_16BYTE XIL_AXI_BURST_TYPE_INCR C:0b0010 L:XIL_AXI_ALOCK_NOLOCK P:0b000<<<
INFO: [Slave VIP_rd_driver] (axi_vip_pkg.axi_slv_rd_driver(C_AXI_ADDR_WIDTH=40,C_AXI_WDATA_WIDTH=128,C_AXI_RDATA_WIDTH=128,C_AXI_WID_WIDTH=6,C_AXI_RID_WIDTH=6,C_AXI_AWUSER_WIDTH=1,C_AXI_ARUSER_WIDTH=1,C_AXI_SUPPORTS_NARROW=0,C_AXI_HAS_REGION=0)::get_and_drive.GET_AND_DRIVE) 1495000 : GNI : XIL_AXI_READ (98) A:0x0000000000000140 ID:0x0000000c len:0x03 XIL_AXI_SIZE_16BYTE XIL_AXI_BURST_TYPE_INCR C:0b0010 L:XIL_AXI_ALOCK_NOLOCK P:0b000
INFO: [Slave VIP_rd_driver] (axi_vip_pkg.axi_slv_rd_driver(C_AXI_ADDR_WIDTH=40,C_AXI_WDATA_WIDTH=128,C_AXI_RDATA_WIDTH=128,C_AXI_WID_WIDTH=6,C_AXI_RID_WIDTH=6,C_AXI_AWUSER_WIDTH=1,C_AXI_ARUSER_WIDTH=1,C_AXI_SUPPORTS_NARROW=0,C_AXI_HAS_REGION=0)::drive_r_channel) 1495001 : RVALID (         0) id=0x0000000d, len   3
INFO: [Slave VIP_rd_driver] (axi_vip_pkg.axi_slv_rd_driver(C_AXI_ADDR_WIDTH=40,C_AXI_WDATA_WIDTH=128,C_AXI_RDATA_WIDTH=128,C_AXI_WID_WIDTH=6,C_AXI_RID_WIDTH=6,C_AXI_AWUSER_WIDTH=1,C_AXI_ARUSER_WIDTH=1,C_AXI_SUPPORTS_NARROW=0,C_AXI_HAS_REGION=0)::drive_r_channel) 1505001 : RVALID (         1) id=0x0000000d, len   3
INFO: [Slave VIP_rd_driver] (axi_vip_pkg.axi_slv_rd_driver(C_AXI_ADDR_WIDTH=40,C_AXI_WDATA_WIDTH=128,C_AXI_RDATA_WIDTH=128,C_AXI_WID_WIDTH=6,C_AXI_RID_WIDTH=6,C_AXI_AWUSER_WIDTH=1,C_AXI_ARUSER_WIDTH=1,C_AXI_SUPPORTS_NARROW=0,C_AXI_HAS_REGION=0)::drive_r_channel) 1515001 : RVALID (         2) id=0x0000000d, len   3
INFO: [Slave VIP_rd_driver] (axi_vip_pkg.axi_slv_rd_driver(C_AXI_ADDR_WIDTH=40,C_AXI_WDATA_WIDTH=128,C_AXI_RDATA_WIDTH=128,C_AXI_WID_WIDTH=6,C_AXI_RID_WIDTH=6,C_AXI_AWUSER_WIDTH=1,C_AXI_ARUSER_WIDTH=1,C_AXI_SUPPORTS_NARROW=0,C_AXI_HAS_REGION=0)::drive_r_channel) 1545001 : RVALID (4294967295) id=0x0000000c, len   3
INFO: [Slave VIP_rd_driver] (axi_vip_pkg.axi_slv_rd_driver(C_AXI_ADDR_WIDTH=40,C_AXI_WDATA_WIDTH=128,C_AXI_RDATA_WIDTH=128,C_AXI_WID_WIDTH=6,C_AXI_RID_WIDTH=6,C_AXI_AWUSER_WIDTH=1,C_AXI_ARUSER_WIDTH=1,C_AXI_SUPPORTS_NARROW=0,C_AXI_HAS_REGION=0)::drive_r_channel) 1555001 : RVALID (         0) id=0x0000000c, len   3
INFO: [Slave VIP_rd_driver] (axi_vip_pkg.axi_slv_rd_driver(C_AXI_ADDR_WIDTH=40,C_AXI_WDATA_WIDTH=128,C_AXI_RDATA_WIDTH=128,C_AXI_WID_WIDTH=6,C_AXI_RID_WIDTH=6,C_AXI_AWUSER_WIDTH=1,C_AXI_ARUSER_WIDTH=1,C_AXI_SUPPORTS_NARROW=0,C_AXI_HAS_REGION=0)::drive_r_channel) 1565001 : RVALID (         1) id=0x0000000c, len   3
INFO: [Slave VIP_rd_driver] (axi_vip_pkg.axi_slv_rd_driver(C_AXI_ADDR_WIDTH=40,C_AXI_WDATA_WIDTH=128,C_AXI_RDATA_WIDTH=128,C_AXI_WID_WIDTH=6,C_AXI_RID_WIDTH=6,C_AXI_AWUSER_WIDTH=1,C_AXI_ARUSER_WIDTH=1,C_AXI_SUPPORTS_NARROW=0,C_AXI_HAS_REGION=0)::drive_r_channel) 1575001 : RVALID (         2) id=0x0000000c, len   3
INFO: [Slave VIP_rd_driver] (axi_vip_pkg.axi_slv_rd_driver(C_AXI_ADDR_WIDTH=40,C_AXI_WDATA_WIDTH=128,C_AXI_RDATA_WIDTH=128,C_AXI_WID_WIDTH=6,C_AXI_RID_WIDTH=6,C_AXI_AWUSER_WIDTH=1,C_AXI_ARUSER_WIDTH=1,C_AXI_SUPPORTS_NARROW=0,C_AXI_HAS_REGION=0)::get_rd_reactive) 1595000 : ARVALID >>>
XIL_AXI_READ (101) A:0x0000000800000180 ID:0x0000000d len:0x03 XIL_AXI_SIZE_16BYTE XIL_AXI_BURST_TYPE_INCR C:0b0011 L:XIL_AXI_ALOCK_NOLOCK P:0b101<<<
INFO: [Slave VIP_rd_driver] (axi_vip_pkg.axi_slv_rd_driver(C_AXI_ADDR_WIDTH=40,C_AXI_WDATA_WIDTH=128,C_AXI_RDATA_WIDTH=128,C_AXI_WID_WIDTH=6,C_AXI_RID_WIDTH=6,C_AXI_AWUSER_WIDTH=1,C_AXI_ARUSER_WIDTH=1,C_AXI_SUPPORTS_NARROW=0,C_AXI_HAS_REGION=0)::get_and_drive.GET_AND_DRIVE) 1595000 : GNI : XIL_AXI_READ (101) A:0x0000000800000180 ID:0x0000000d len:0x03 XIL_AXI_SIZE_16BYTE XIL_AXI_BURST_TYPE_INCR C:0b0011 L:XIL_AXI_ALOCK_NOLOCK P:0b101
INFO: [Slave VIP_rd_driver] (axi_vip_pkg.axi_slv_rd_driver(C_AXI_ADDR_WIDTH=40,C_AXI_WDATA_WIDTH=128,C_AXI_RDATA_WIDTH=128,C_AXI_WID_WIDTH=6,C_AXI_RID_WIDTH=6,C_AXI_AWUSER_WIDTH=1,C_AXI_ARUSER_WIDTH=1,C_AXI_SUPPORTS_NARROW=0,C_AXI_HAS_REGION=0)::drive_r_channel) 1645001 : RVALID (4294967295) id=0x0000000d, len   3
INFO: [Slave VIP_rd_driver] (axi_vip_pkg.axi_slv_rd_driver(C_AXI_ADDR_WIDTH=40,C_AXI_WDATA_WIDTH=128,C_AXI_RDATA_WIDTH=128,C_AXI_WID_WIDTH=6,C_AXI_RID_WIDTH=6,C_AXI_AWUSER_WIDTH=1,C_AXI_ARUSER_WIDTH=1,C_AXI_SUPPORTS_NARROW=0,C_AXI_HAS_REGION=0)::get_rd_reactive) 1655000 : ARVALID >>>
XIL_AXI_READ (104) A:0x0000000000000180 ID:0x0000000c len:0x03 XIL_AXI_SIZE_16BYTE XIL_AXI_BURST_TYPE_INCR C:0b0011 L:XIL_AXI_ALOCK_NOLOCK P:0b110<<<
INFO: [Slave VIP_rd_driver] (axi_vip_pkg.axi_slv_rd_driver(C_AXI_ADDR_WIDTH=40,C_AXI_WDATA_WIDTH=128,C_AXI_RDATA_WIDTH=128,C_AXI_WID_WIDTH=6,C_AXI_RID_WIDTH=6,C_AXI_AWUSER_WIDTH=1,C_AXI_ARUSER_WIDTH=1,C_AXI_SUPPORTS_NARROW=0,C_AXI_HAS_REGION=0)::get_and_drive.GET_AND_DRIVE) 1655000 : GNI : XIL_AXI_READ (104) A:0x0000000000000180 ID:0x0000000c len:0x03 XIL_AXI_SIZE_16BYTE XIL_AXI_BURST_TYPE_INCR C:0b0011 L:XIL_AXI_ALOCK_NOLOCK P:0b110
INFO: [Slave VIP_rd_driver] (axi_vip_pkg.axi_slv_rd_driver(C_AXI_ADDR_WIDTH=40,C_AXI_WDATA_WIDTH=128,C_AXI_RDATA_WIDTH=128,C_AXI_WID_WIDTH=6,C_AXI_RID_WIDTH=6,C_AXI_AWUSER_WIDTH=1,C_AXI_ARUSER_WIDTH=1,C_AXI_SUPPORTS_NARROW=0,C_AXI_HAS_REGION=0)::drive_r_channel) 1655001 : RVALID (         0) id=0x0000000d, len   3
INFO: [Slave VIP_rd_driver] (axi_vip_pkg.axi_slv_rd_driver(C_AXI_ADDR_WIDTH=40,C_AXI_WDATA_WIDTH=128,C_AXI_RDATA_WIDTH=128,C_AXI_WID_WIDTH=6,C_AXI_RID_WIDTH=6,C_AXI_AWUSER_WIDTH=1,C_AXI_ARUSER_WIDTH=1,C_AXI_SUPPORTS_NARROW=0,C_AXI_HAS_REGION=0)::drive_r_channel) 1665001 : RVALID (         1) id=0x0000000d, len   3
INFO: [Slave VIP_rd_driver] (axi_vip_pkg.axi_slv_rd_driver(C_AXI_ADDR_WIDTH=40,C_AXI_WDATA_WIDTH=128,C_AXI_RDATA_WIDTH=128,C_AXI_WID_WIDTH=6,C_AXI_RID_WIDTH=6,C_AXI_AWUSER_WIDTH=1,C_AXI_ARUSER_WIDTH=1,C_AXI_SUPPORTS_NARROW=0,C_AXI_HAS_REGION=0)::drive_r_channel) 1675001 : RVALID (         2) id=0x0000000d, len   3
INFO: [Slave VIP_rd_driver] (axi_vip_pkg.axi_slv_rd_driver(C_AXI_ADDR_WIDTH=40,C_AXI_WDATA_WIDTH=128,C_AXI_RDATA_WIDTH=128,C_AXI_WID_WIDTH=6,C_AXI_RID_WIDTH=6,C_AXI_AWUSER_WIDTH=1,C_AXI_ARUSER_WIDTH=1,C_AXI_SUPPORTS_NARROW=0,C_AXI_HAS_REGION=0)::drive_r_channel) 1705001 : RVALID (4294967295) id=0x0000000c, len   3
INFO: [Slave VIP_rd_driver] (axi_vip_pkg.axi_slv_rd_driver(C_AXI_ADDR_WIDTH=40,C_AXI_WDATA_WIDTH=128,C_AXI_RDATA_WIDTH=128,C_AXI_WID_WIDTH=6,C_AXI_RID_WIDTH=6,C_AXI_AWUSER_WIDTH=1,C_AXI_ARUSER_WIDTH=1,C_AXI_SUPPORTS_NARROW=0,C_AXI_HAS_REGION=0)::drive_r_channel) 1715001 : RVALID (         0) id=0x0000000c, len   3
INFO: [Slave VIP_rd_driver] (axi_vip_pkg.axi_slv_rd_driver(C_AXI_ADDR_WIDTH=40,C_AXI_WDATA_WIDTH=128,C_AXI_RDATA_WIDTH=128,C_AXI_WID_WIDTH=6,C_AXI_RID_WIDTH=6,C_AXI_AWUSER_WIDTH=1,C_AXI_ARUSER_WIDTH=1,C_AXI_SUPPORTS_NARROW=0,C_AXI_HAS_REGION=0)::drive_r_channel) 1725001 : RVALID (         1) id=0x0000000c, len   3
INFO: [Slave VIP_rd_driver] (axi_vip_pkg.axi_slv_rd_driver(C_AXI_ADDR_WIDTH=40,C_AXI_WDATA_WIDTH=128,C_AXI_RDATA_WIDTH=128,C_AXI_WID_WIDTH=6,C_AXI_RID_WIDTH=6,C_AXI_AWUSER_WIDTH=1,C_AXI_ARUSER_WIDTH=1,C_AXI_SUPPORTS_NARROW=0,C_AXI_HAS_REGION=0)::drive_r_channel) 1735001 : RVALID (         2) id=0x0000000c, len   3
Warning: [AXI_RMON13_106] (axi_vip_pkg.axi_transaction::set_cache) 1755000 : Attempted to send CACHE(0x0000) when SUPPORTS_NARROW is low. According to UG1037,AxCACHE[1] has to be 1 to ensure that any downstream upsizer can fully pack data up to wider widths
Time: 1755 ns  Iteration: 0  Process: /axi_vip_pkg/axi_monitor(C_AXI_ADDR_WIDTH=40,C_AXI_WDATA_WIDTH=128,C_AXI_RDATA_WIDTH=128,C_AXI_WID_WIDTH=6,C_AXI_RID_WIDTH=6,C_AXI_AWUSER_WIDTH=1,C_AXI_ARUSER_WIDTH=1,C_AXI_SUPPORTS_NARROW=0,C_AXI_HAS_REGION=0)::ar_channel/AR_LOOP  File: /wrk/2017.4/nightly/2017_12_15_2086221/prep/rdi/vivado/data/xilinx_vip/hdl/axi_vip_pkg.sv
Warning: [AR_REACTIVE_13] (axi_vip_pkg.axi_transaction::set_cache) 1755000 : Attempted to send CACHE(0x0000) when SUPPORTS_NARROW is low. According to UG1037,AxCACHE[1] has to be 1 to ensure that any downstream upsizer can fully pack data up to wider widths
Time: 1755 ns  Iteration: 0  Process: /axi_vip_pkg/axi_slv_rd_driver(C_AXI_ADDR_WIDTH=40,C_AXI_WDATA_WIDTH=128,C_AXI_RDATA_WIDTH=128,C_AXI_WID_WIDTH=6,C_AXI_RID_WIDTH=6,C_AXI_AWUSER_WIDTH=1,C_AXI_ARUSER_WIDTH=1,C_AXI_SUPPORTS_NARROW=0,C_AXI_HAS_REGION=0)::get_rd_reactive  File: /wrk/2017.4/nightly/2017_12_15_2086221/prep/rdi/vivado/data/xilinx_vip/hdl/axi_vip_pkg.sv
INFO: [Slave VIP_rd_driver] (axi_vip_pkg.axi_slv_rd_driver(C_AXI_ADDR_WIDTH=40,C_AXI_WDATA_WIDTH=128,C_AXI_RDATA_WIDTH=128,C_AXI_WID_WIDTH=6,C_AXI_RID_WIDTH=6,C_AXI_AWUSER_WIDTH=1,C_AXI_ARUSER_WIDTH=1,C_AXI_SUPPORTS_NARROW=0,C_AXI_HAS_REGION=0)::get_rd_reactive) 1755000 : ARVALID >>>
XIL_AXI_READ (107) A:0x00000008000001c0 ID:0x0000000d len:0x03 XIL_AXI_SIZE_16BYTE XIL_AXI_BURST_TYPE_INCR C:0b0000 L:XIL_AXI_ALOCK_NOLOCK P:0b111<<<
Warning: [AR_REACTIVE_13] (axi_vip_pkg.axi_transaction::set_cache) 1755000 : Attempted to send CACHE(0x0000) when SUPPORTS_NARROW is low. According to UG1037,AxCACHE[1] has to be 1 to ensure that any downstream upsizer can fully pack data up to wider widths
Time: 1755 ns  Iteration: 0  Process: /axi_vip_pkg/axi_slv_rd_driver(C_AXI_ADDR_WIDTH=40,C_AXI_WDATA_WIDTH=128,C_AXI_RDATA_WIDTH=128,C_AXI_WID_WIDTH=6,C_AXI_RID_WIDTH=6,C_AXI_AWUSER_WIDTH=1,C_AXI_ARUSER_WIDTH=1,C_AXI_SUPPORTS_NARROW=0,C_AXI_HAS_REGION=0)::get_and_drive/GET_AND_DRIVE  File: /wrk/2017.4/nightly/2017_12_15_2086221/prep/rdi/vivado/data/xilinx_vip/hdl/axi_vip_pkg.sv
INFO: [Slave VIP_rd_driver] (axi_vip_pkg.axi_slv_rd_driver(C_AXI_ADDR_WIDTH=40,C_AXI_WDATA_WIDTH=128,C_AXI_RDATA_WIDTH=128,C_AXI_WID_WIDTH=6,C_AXI_RID_WIDTH=6,C_AXI_AWUSER_WIDTH=1,C_AXI_ARUSER_WIDTH=1,C_AXI_SUPPORTS_NARROW=0,C_AXI_HAS_REGION=0)::get_and_drive.GET_AND_DRIVE) 1755000 : GNI : XIL_AXI_READ (107) A:0x00000008000001c0 ID:0x0000000d len:0x03 XIL_AXI_SIZE_16BYTE XIL_AXI_BURST_TYPE_INCR C:0b0000 L:XIL_AXI_ALOCK_NOLOCK P:0b111
INFO: [Slave VIP_rd_driver] (axi_vip_pkg.axi_slv_rd_driver(C_AXI_ADDR_WIDTH=40,C_AXI_WDATA_WIDTH=128,C_AXI_RDATA_WIDTH=128,C_AXI_WID_WIDTH=6,C_AXI_RID_WIDTH=6,C_AXI_AWUSER_WIDTH=1,C_AXI_ARUSER_WIDTH=1,C_AXI_SUPPORTS_NARROW=0,C_AXI_HAS_REGION=0)::drive_r_channel) 1805001 : RVALID (4294967295) id=0x0000000d, len   3
Warning: [AXI_RMON12_109] (axi_vip_pkg.axi_transaction::set_cache) 1815000 : Attempted to send CACHE(0x0000) when SUPPORTS_NARROW is low. According to UG1037,AxCACHE[1] has to be 1 to ensure that any downstream upsizer can fully pack data up to wider widths
Time: 1815 ns  Iteration: 0  Process: /axi_vip_pkg/axi_monitor(C_AXI_ADDR_WIDTH=40,C_AXI_WDATA_WIDTH=128,C_AXI_RDATA_WIDTH=128,C_AXI_WID_WIDTH=6,C_AXI_RID_WIDTH=6,C_AXI_AWUSER_WIDTH=1,C_AXI_ARUSER_WIDTH=1,C_AXI_SUPPORTS_NARROW=0,C_AXI_HAS_REGION=0)::ar_channel/AR_LOOP  File: /wrk/2017.4/nightly/2017_12_15_2086221/prep/rdi/vivado/data/xilinx_vip/hdl/axi_vip_pkg.sv
Warning: [AR_REACTIVE_12] (axi_vip_pkg.axi_transaction::set_cache) 1815000 : Attempted to send CACHE(0x0000) when SUPPORTS_NARROW is low. According to UG1037,AxCACHE[1] has to be 1 to ensure that any downstream upsizer can fully pack data up to wider widths
Time: 1815 ns  Iteration: 0  Process: /axi_vip_pkg/axi_slv_rd_driver(C_AXI_ADDR_WIDTH=40,C_AXI_WDATA_WIDTH=128,C_AXI_RDATA_WIDTH=128,C_AXI_WID_WIDTH=6,C_AXI_RID_WIDTH=6,C_AXI_AWUSER_WIDTH=1,C_AXI_ARUSER_WIDTH=1,C_AXI_SUPPORTS_NARROW=0,C_AXI_HAS_REGION=0)::get_rd_reactive  File: /wrk/2017.4/nightly/2017_12_15_2086221/prep/rdi/vivado/data/xilinx_vip/hdl/axi_vip_pkg.sv
INFO: [Slave VIP_rd_driver] (axi_vip_pkg.axi_slv_rd_driver(C_AXI_ADDR_WIDTH=40,C_AXI_WDATA_WIDTH=128,C_AXI_RDATA_WIDTH=128,C_AXI_WID_WIDTH=6,C_AXI_RID_WIDTH=6,C_AXI_AWUSER_WIDTH=1,C_AXI_ARUSER_WIDTH=1,C_AXI_SUPPORTS_NARROW=0,C_AXI_HAS_REGION=0)::get_rd_reactive) 1815000 : ARVALID >>>
XIL_AXI_READ (110) A:0x00000000000001c0 ID:0x0000000c len:0x03 XIL_AXI_SIZE_16BYTE XIL_AXI_BURST_TYPE_INCR C:0b0000 L:XIL_AXI_ALOCK_NOLOCK P:0b001<<<
Warning: [AR_REACTIVE_12] (axi_vip_pkg.axi_transaction::set_cache) 1815000 : Attempted to send CACHE(0x0000) when SUPPORTS_NARROW is low. According to UG1037,AxCACHE[1] has to be 1 to ensure that any downstream upsizer can fully pack data up to wider widths
Time: 1815 ns  Iteration: 0  Process: /axi_vip_pkg/axi_slv_rd_driver(C_AXI_ADDR_WIDTH=40,C_AXI_WDATA_WIDTH=128,C_AXI_RDATA_WIDTH=128,C_AXI_WID_WIDTH=6,C_AXI_RID_WIDTH=6,C_AXI_AWUSER_WIDTH=1,C_AXI_ARUSER_WIDTH=1,C_AXI_SUPPORTS_NARROW=0,C_AXI_HAS_REGION=0)::get_and_drive/GET_AND_DRIVE  File: /wrk/2017.4/nightly/2017_12_15_2086221/prep/rdi/vivado/data/xilinx_vip/hdl/axi_vip_pkg.sv
INFO: [Slave VIP_rd_driver] (axi_vip_pkg.axi_slv_rd_driver(C_AXI_ADDR_WIDTH=40,C_AXI_WDATA_WIDTH=128,C_AXI_RDATA_WIDTH=128,C_AXI_WID_WIDTH=6,C_AXI_RID_WIDTH=6,C_AXI_AWUSER_WIDTH=1,C_AXI_ARUSER_WIDTH=1,C_AXI_SUPPORTS_NARROW=0,C_AXI_HAS_REGION=0)::get_and_drive.GET_AND_DRIVE) 1815000 : GNI : XIL_AXI_READ (110) A:0x00000000000001c0 ID:0x0000000c len:0x03 XIL_AXI_SIZE_16BYTE XIL_AXI_BURST_TYPE_INCR C:0b0000 L:XIL_AXI_ALOCK_NOLOCK P:0b001
INFO: [Slave VIP_rd_driver] (axi_vip_pkg.axi_slv_rd_driver(C_AXI_ADDR_WIDTH=40,C_AXI_WDATA_WIDTH=128,C_AXI_RDATA_WIDTH=128,C_AXI_WID_WIDTH=6,C_AXI_RID_WIDTH=6,C_AXI_AWUSER_WIDTH=1,C_AXI_ARUSER_WIDTH=1,C_AXI_SUPPORTS_NARROW=0,C_AXI_HAS_REGION=0)::drive_r_channel) 1815001 : RVALID (         0) id=0x0000000d, len   3
INFO: [Slave VIP_rd_driver] (axi_vip_pkg.axi_slv_rd_driver(C_AXI_ADDR_WIDTH=40,C_AXI_WDATA_WIDTH=128,C_AXI_RDATA_WIDTH=128,C_AXI_WID_WIDTH=6,C_AXI_RID_WIDTH=6,C_AXI_AWUSER_WIDTH=1,C_AXI_ARUSER_WIDTH=1,C_AXI_SUPPORTS_NARROW=0,C_AXI_HAS_REGION=0)::drive_r_channel) 1825001 : RVALID (         1) id=0x0000000d, len   3
INFO: [Slave VIP_rd_driver] (axi_vip_pkg.axi_slv_rd_driver(C_AXI_ADDR_WIDTH=40,C_AXI_WDATA_WIDTH=128,C_AXI_RDATA_WIDTH=128,C_AXI_WID_WIDTH=6,C_AXI_RID_WIDTH=6,C_AXI_AWUSER_WIDTH=1,C_AXI_ARUSER_WIDTH=1,C_AXI_SUPPORTS_NARROW=0,C_AXI_HAS_REGION=0)::drive_r_channel) 1835001 : RVALID (         2) id=0x0000000d, len   3
INFO: [Slave VIP_rd_driver] (axi_vip_pkg.axi_slv_rd_driver(C_AXI_ADDR_WIDTH=40,C_AXI_WDATA_WIDTH=128,C_AXI_RDATA_WIDTH=128,C_AXI_WID_WIDTH=6,C_AXI_RID_WIDTH=6,C_AXI_AWUSER_WIDTH=1,C_AXI_ARUSER_WIDTH=1,C_AXI_SUPPORTS_NARROW=0,C_AXI_HAS_REGION=0)::drive_r_channel) 1865001 : RVALID (4294967295) id=0x0000000c, len   3
INFO: [Slave VIP_rd_driver] (axi_vip_pkg.axi_slv_rd_driver(C_AXI_ADDR_WIDTH=40,C_AXI_WDATA_WIDTH=128,C_AXI_RDATA_WIDTH=128,C_AXI_WID_WIDTH=6,C_AXI_RID_WIDTH=6,C_AXI_AWUSER_WIDTH=1,C_AXI_ARUSER_WIDTH=1,C_AXI_SUPPORTS_NARROW=0,C_AXI_HAS_REGION=0)::drive_r_channel) 1875001 : RVALID (         0) id=0x0000000c, len   3
INFO: [Slave VIP_rd_driver] (axi_vip_pkg.axi_slv_rd_driver(C_AXI_ADDR_WIDTH=40,C_AXI_WDATA_WIDTH=128,C_AXI_RDATA_WIDTH=128,C_AXI_WID_WIDTH=6,C_AXI_RID_WIDTH=6,C_AXI_AWUSER_WIDTH=1,C_AXI_ARUSER_WIDTH=1,C_AXI_SUPPORTS_NARROW=0,C_AXI_HAS_REGION=0)::drive_r_channel) 1885001 : RVALID (         1) id=0x0000000c, len   3
$finish called at time : 1895 ns : File "/home/denis/github/MemorEDF/rtl/MemorEDF/MemorEDF.srcs/sim_1/new/TB_MemorEDF.sv" Line 167
