Vivado Simulator 2017.4
Time resolution is 1 ps
INFO: ID width is 16 bigger than 16, AXI protocol Checker will not be instantiated in this case 
XilinxAXIVIP: Found at Path: TB_MemorEDF.DUT.design_1_i.axi_vip_0.inst
XilinxAXIVIP: Found at Path: TB_MemorEDF.DUT.design_1_i.axi_vip_1.inst
INFO: ID width is 16 bigger than 16, AXI protocol Checker will not be instantiated in this case 
XilinxAXIVIP: Found at Path: TB_MemorEDF.DUT.design_1_i.axi_vip_2.inst
INFO: ID width is 16 bigger than 16, AXI protocol Checker will not be instantiated in this case 
XilinxAXIVIP: Found at Path: TB_MemorEDF.DUT.design_1_i.axi_vip_3.inst
b master depth 00000000000000000000000000001000
b master depth 00000000000000000000000000001000
c master depth 00000000000000000000000000001000
c master depth 00000000000000000000000000001000
INFO: [Master VIP_rd_driver] (.axi_vip_pkg.axi_mst_rd_driver(C_AXI_ADDR_WIDTH=40,C_AXI_WDATA_WIDTH=128,C_AXI_RDATA_WIDTH=128,C_AXI_WID_WIDTH=16,C_AXI_RID_WIDTH=16,C_AXI_AWUSER_WIDTH=16,C_AXI_ARUSER_WIDTH=16)::run_phase.Block10873_1490.) 25001 : run()
INFO: [Master VIP_wr_driver] (.axi_vip_pkg.axi_mst_wr_driver(C_AXI_ADDR_WIDTH=40,C_AXI_WDATA_WIDTH=128,C_AXI_RDATA_WIDTH=128,C_AXI_WID_WIDTH=16,C_AXI_RID_WIDTH=16,C_AXI_AWUSER_WIDTH=16,C_AXI_ARUSER_WIDTH=16)::run_phase.Block9793_1444.) 25001 : run()
INFO: [Master VIP_monitor] (.axi_vip_pkg.axi_monitor(C_AXI_ADDR_WIDTH=40,C_AXI_WDATA_WIDTH=128,C_AXI_RDATA_WIDTH=128,C_AXI_WID_WIDTH=16,C_AXI_RID_WIDTH=16,C_AXI_AWUSER_WIDTH=16,C_AXI_ARUSER_WIDTH=16)::run_phase.Block8620_1411.) 25001 : run()
INFO: [Slave VIP_rd_driver] (.axi_vip_pkg.axi_slv_rd_driver(C_AXI_ADDR_WIDTH=40,C_AXI_WDATA_WIDTH=128,C_AXI_RDATA_WIDTH=128,C_AXI_WID_WIDTH=6,C_AXI_RID_WIDTH=6,C_AXI_AWUSER_WIDTH=1,C_AXI_ARUSER_WIDTH=1,C_AXI_SUPPORTS_NARROW=0,C_AXI_HAS_REGION=0)::run_phase.Block14104_1588.) 25001 : run()
INFO: [Slave VIP_wr_driver] (.axi_vip_pkg.axi_slv_wr_driver(C_AXI_ADDR_WIDTH=40,C_AXI_WDATA_WIDTH=128,C_AXI_RDATA_WIDTH=128,C_AXI_WID_WIDTH=6,C_AXI_RID_WIDTH=6,C_AXI_AWUSER_WIDTH=1,C_AXI_ARUSER_WIDTH=1,C_AXI_SUPPORTS_NARROW=0,C_AXI_HAS_REGION=0)::run_phase.Block12612_1537.) 25001 : run()
INFO: [Slave VIP_monitor] (.axi_vip_pkg.axi_monitor(C_AXI_ADDR_WIDTH=40,C_AXI_WDATA_WIDTH=128,C_AXI_RDATA_WIDTH=128,C_AXI_WID_WIDTH=6,C_AXI_RID_WIDTH=6,C_AXI_AWUSER_WIDTH=1,C_AXI_ARUSER_WIDTH=1,C_AXI_SUPPORTS_NARROW=0,C_AXI_HAS_REGION=0)::run_phase.Block8620_1428.) 25001 : run()
INFO: [Master VIP_rd_driver] (.axi_vip_pkg.axi_mst_rd_driver(C_AXI_ADDR_WIDTH=40,C_AXI_WDATA_WIDTH=128,C_AXI_RDATA_WIDTH=128,C_AXI_WID_WIDTH=16,C_AXI_RID_WIDTH=16,C_AXI_AWUSER_WIDTH=16,C_AXI_ARUSER_WIDTH=16)::run_phase.Block10873_1490.) 25001 : run()
INFO: [Master VIP_wr_driver] (.axi_vip_pkg.axi_mst_wr_driver(C_AXI_ADDR_WIDTH=40,C_AXI_WDATA_WIDTH=128,C_AXI_RDATA_WIDTH=128,C_AXI_WID_WIDTH=16,C_AXI_RID_WIDTH=16,C_AXI_AWUSER_WIDTH=16,C_AXI_ARUSER_WIDTH=16)::run_phase.Block9793_1444.) 25001 : run()
INFO: [Master VIP_monitor] (.axi_vip_pkg.axi_monitor(C_AXI_ADDR_WIDTH=40,C_AXI_WDATA_WIDTH=128,C_AXI_RDATA_WIDTH=128,C_AXI_WID_WIDTH=16,C_AXI_RID_WIDTH=16,C_AXI_AWUSER_WIDTH=16,C_AXI_ARUSER_WIDTH=16)::run_phase.Block8620_1411.) 25001 : run()
INFO: [Master VIP_rd_driver] (.axi_vip_pkg.axi_mst_rd_driver(C_AXI_ADDR_WIDTH=40,C_AXI_WDATA_WIDTH=128,C_AXI_RDATA_WIDTH=128,C_AXI_WID_WIDTH=16,C_AXI_RID_WIDTH=16,C_AXI_AWUSER_WIDTH=16,C_AXI_ARUSER_WIDTH=16)::run_phase.Block10873_1490.) 25001 : run()
INFO: [Master VIP_wr_driver] (.axi_vip_pkg.axi_mst_wr_driver(C_AXI_ADDR_WIDTH=40,C_AXI_WDATA_WIDTH=128,C_AXI_RDATA_WIDTH=128,C_AXI_WID_WIDTH=16,C_AXI_RID_WIDTH=16,C_AXI_AWUSER_WIDTH=16,C_AXI_ARUSER_WIDTH=16)::run_phase.Block9793_1444.) 25001 : run()
INFO: [Master VIP_monitor] (.axi_vip_pkg.axi_monitor(C_AXI_ADDR_WIDTH=40,C_AXI_WDATA_WIDTH=128,C_AXI_RDATA_WIDTH=128,C_AXI_WID_WIDTH=16,C_AXI_RID_WIDTH=16,C_AXI_AWUSER_WIDTH=16,C_AXI_ARUSER_WIDTH=16)::run_phase.Block8620_1411.) 25001 : run()
INFO: [Master VIP_wr_driver] (axi_vip_pkg.axi_mst_wr_driver(C_AXI_ADDR_WIDTH=40,C_AXI_WDATA_WIDTH=128,C_AXI_RDATA_WIDTH=128,C_AXI_WID_WIDTH=16,C_AXI_RID_WIDTH=16,C_AXI_AWUSER_WIDTH=16,C_AXI_ARUSER_WIDTH=16)::get_and_drive.GET_AND_DRIVE) 40000 : Sending transaction: 
INFO: [Master VIP_wr_driver] (axi_vip_pkg.axi_mst_wr_driver(C_AXI_ADDR_WIDTH=40,C_AXI_WDATA_WIDTH=128,C_AXI_RDATA_WIDTH=128,C_AXI_WID_WIDTH=16,C_AXI_RID_WIDTH=16,C_AXI_AWUSER_WIDTH=16,C_AXI_ARUSER_WIDTH=16)::get_and_drive.GET_AND_DRIVE) 40000 : ---------------------------------------------------------------------------------------------
  Name                         Value
---------------------------------------------------------------------------------------------
  CMD                          XIL_AXI_WRITE
  ADDR                         0x0000000000000000 
  WID                          0x00000000
  LEN                          0x00
  SIZE                         0x100
  BURST                        0x01
  CACHE                        0x0000
  LOCK                         0x00
  PROT                         0x000
  REGION                       0x0000
  QOS                          0x0000
  AWUSER                       0x0000
  BRESP                        XIL_AXI_RESP_OKAY
  DRIVER_RETURN_ITEM           XIL_AXI_PAYLOAD_RETURN 
  CREATION_TIME                40000
  SUBMIT_TIME                  0
  PAYLOAD                      16
    BEAT[          0]          0x00000020000000200000002000000020 (strb : 0b1111111111111111) :beat_delay:         0
--------------------------------------------------------------------------------------------
INFO: [Master VIP_wr_driver] (axi_vip_pkg.axi_mst_wr_driver(C_AXI_ADDR_WIDTH=40,C_AXI_WDATA_WIDTH=128,C_AXI_RDATA_WIDTH=128,C_AXI_WID_WIDTH=16,C_AXI_RID_WIDTH=16,C_AXI_AWUSER_WIDTH=16,C_AXI_ARUSER_WIDTH=16)::w_channel.W_CHANNEL.Block10274_1476.Block10274_1477) 115000 : WREADY+WLAST (         0) id=0x00000000
INFO: [Master VIP_wr_driver] (axi_vip_pkg.axi_mst_wr_driver(C_AXI_ADDR_WIDTH=40,C_AXI_WDATA_WIDTH=128,C_AXI_RDATA_WIDTH=128,C_AXI_WID_WIDTH=16,C_AXI_RID_WIDTH=16,C_AXI_AWUSER_WIDTH=16,C_AXI_ARUSER_WIDTH=16)::service_done_q.SERVICE_DONE_Q) 125000 : SERVICE_DONE_Q: XIL_AXI_WRITE (0) A:0x0000000000000000 ID:0x00000000 len:0x00 XIL_AXI_SIZE_16BYTE XIL_AXI_BURST_TYPE_INCR C:0b0000 L:XIL_AXI_ALOCK_NOLOCK P:0b000
INFO: [Master VIP_wr_driver] (axi_vip_pkg.axi_mst_wr_driver(C_AXI_ADDR_WIDTH=40,C_AXI_WDATA_WIDTH=128,C_AXI_RDATA_WIDTH=128,C_AXI_WID_WIDTH=16,C_AXI_RID_WIDTH=16,C_AXI_AWUSER_WIDTH=16,C_AXI_ARUSER_WIDTH=16)::get_and_drive.GET_AND_DRIVE) 145000 : Sending transaction: 
INFO: [Master VIP_wr_driver] (axi_vip_pkg.axi_mst_wr_driver(C_AXI_ADDR_WIDTH=40,C_AXI_WDATA_WIDTH=128,C_AXI_RDATA_WIDTH=128,C_AXI_WID_WIDTH=16,C_AXI_RID_WIDTH=16,C_AXI_AWUSER_WIDTH=16,C_AXI_ARUSER_WIDTH=16)::get_and_drive.GET_AND_DRIVE) 145000 : ---------------------------------------------------------------------------------------------
  Name                         Value
---------------------------------------------------------------------------------------------
  CMD                          XIL_AXI_WRITE
  ADDR                         0x0000000000000010 
  WID                          0x00000000
  LEN                          0x00
  SIZE                         0x100
  BURST                        0x01
  CACHE                        0x0000
  LOCK                         0x00
  PROT                         0x000
  REGION                       0x0000
  QOS                          0x0000
  AWUSER                       0x0000
  BRESP                        XIL_AXI_RESP_OKAY
  DRIVER_RETURN_ITEM           XIL_AXI_PAYLOAD_RETURN 
  CREATION_TIME                145000
  SUBMIT_TIME                  0
  PAYLOAD                      16
    BEAT[          0]          0x00000007000000070000000700000007 (strb : 0b1111111111111111) :beat_delay:         0
--------------------------------------------------------------------------------------------
INFO: [Master VIP_wr_driver] (axi_vip_pkg.axi_mst_wr_driver(C_AXI_ADDR_WIDTH=40,C_AXI_WDATA_WIDTH=128,C_AXI_RDATA_WIDTH=128,C_AXI_WID_WIDTH=16,C_AXI_RID_WIDTH=16,C_AXI_AWUSER_WIDTH=16,C_AXI_ARUSER_WIDTH=16)::w_channel.W_CHANNEL.Block10274_1476.Block10274_1477) 225000 : WREADY+WLAST (         0) id=0x00000000
INFO: [Master VIP_wr_driver] (axi_vip_pkg.axi_mst_wr_driver(C_AXI_ADDR_WIDTH=40,C_AXI_WDATA_WIDTH=128,C_AXI_RDATA_WIDTH=128,C_AXI_WID_WIDTH=16,C_AXI_RID_WIDTH=16,C_AXI_AWUSER_WIDTH=16,C_AXI_ARUSER_WIDTH=16)::service_done_q.SERVICE_DONE_Q) 235000 : SERVICE_DONE_Q: XIL_AXI_WRITE (4) A:0x0000000000000010 ID:0x00000000 len:0x00 XIL_AXI_SIZE_16BYTE XIL_AXI_BURST_TYPE_INCR C:0b0000 L:XIL_AXI_ALOCK_NOLOCK P:0b000
INFO: [Master VIP_wr_driver] (axi_vip_pkg.axi_mst_wr_driver(C_AXI_ADDR_WIDTH=40,C_AXI_WDATA_WIDTH=128,C_AXI_RDATA_WIDTH=128,C_AXI_WID_WIDTH=16,C_AXI_RID_WIDTH=16,C_AXI_AWUSER_WIDTH=16,C_AXI_ARUSER_WIDTH=16)::get_and_drive.GET_AND_DRIVE) 255000 : Sending transaction: 
INFO: [Master VIP_wr_driver] (axi_vip_pkg.axi_mst_wr_driver(C_AXI_ADDR_WIDTH=40,C_AXI_WDATA_WIDTH=128,C_AXI_RDATA_WIDTH=128,C_AXI_WID_WIDTH=16,C_AXI_RID_WIDTH=16,C_AXI_AWUSER_WIDTH=16,C_AXI_ARUSER_WIDTH=16)::get_and_drive.GET_AND_DRIVE) 255000 : ---------------------------------------------------------------------------------------------
  Name                         Value
---------------------------------------------------------------------------------------------
  CMD                          XIL_AXI_WRITE
  ADDR                         0x0000000000000020 
  WID                          0x00000000
  LEN                          0x00
  SIZE                         0x100
  BURST                        0x01
  CACHE                        0x0000
  LOCK                         0x00
  PROT                         0x000
  REGION                       0x0000
  QOS                          0x0000
  AWUSER                       0x0000
  BRESP                        XIL_AXI_RESP_OKAY
  DRIVER_RETURN_ITEM           XIL_AXI_PAYLOAD_RETURN 
  CREATION_TIME                255000
  SUBMIT_TIME                  0
  PAYLOAD                      16
    BEAT[          0]          0x0000000b00000020000000080f0e0d0c (strb : 0b1111111111111111) :beat_delay:         0
--------------------------------------------------------------------------------------------
INFO: [Master VIP_wr_driver] (axi_vip_pkg.axi_mst_wr_driver(C_AXI_ADDR_WIDTH=40,C_AXI_WDATA_WIDTH=128,C_AXI_RDATA_WIDTH=128,C_AXI_WID_WIDTH=16,C_AXI_RID_WIDTH=16,C_AXI_AWUSER_WIDTH=16,C_AXI_ARUSER_WIDTH=16)::w_channel.W_CHANNEL.Block10274_1476.Block10274_1477) 335000 : WREADY+WLAST (         0) id=0x00000000
INFO: [Master VIP_wr_driver] (axi_vip_pkg.axi_mst_wr_driver(C_AXI_ADDR_WIDTH=40,C_AXI_WDATA_WIDTH=128,C_AXI_RDATA_WIDTH=128,C_AXI_WID_WIDTH=16,C_AXI_RID_WIDTH=16,C_AXI_AWUSER_WIDTH=16,C_AXI_ARUSER_WIDTH=16)::service_done_q.SERVICE_DONE_Q) 345000 : SERVICE_DONE_Q: XIL_AXI_WRITE (8) A:0x0000000000000020 ID:0x00000000 len:0x00 XIL_AXI_SIZE_16BYTE XIL_AXI_BURST_TYPE_INCR C:0b0000 L:XIL_AXI_ALOCK_NOLOCK P:0b000
INFO: [Master VIP_wr_driver] (axi_vip_pkg.axi_mst_wr_driver(C_AXI_ADDR_WIDTH=40,C_AXI_WDATA_WIDTH=128,C_AXI_RDATA_WIDTH=128,C_AXI_WID_WIDTH=16,C_AXI_RID_WIDTH=16,C_AXI_AWUSER_WIDTH=16,C_AXI_ARUSER_WIDTH=16)::get_and_drive.GET_AND_DRIVE) 365000 : Sending transaction: 
INFO: [Master VIP_wr_driver] (axi_vip_pkg.axi_mst_wr_driver(C_AXI_ADDR_WIDTH=40,C_AXI_WDATA_WIDTH=128,C_AXI_RDATA_WIDTH=128,C_AXI_WID_WIDTH=16,C_AXI_RID_WIDTH=16,C_AXI_AWUSER_WIDTH=16,C_AXI_ARUSER_WIDTH=16)::get_and_drive.GET_AND_DRIVE) 365000 : ---------------------------------------------------------------------------------------------
  Name                         Value
---------------------------------------------------------------------------------------------
  CMD                          XIL_AXI_WRITE
  ADDR                         0x0000000000000030 
  WID                          0x00000000
  LEN                          0x00
  SIZE                         0x100
  BURST                        0x01
  CACHE                        0x0000
  LOCK                         0x00
  PROT                         0x000
  REGION                       0x0000
  QOS                          0x0000
  AWUSER                       0x0000
  BRESP                        XIL_AXI_RESP_OKAY
  DRIVER_RETURN_ITEM           XIL_AXI_PAYLOAD_RETURN 
  CREATION_TIME                365000
  SUBMIT_TIME                  0
  PAYLOAD                      16
    BEAT[          0]          0x00000000000000030000000000000060 (strb : 0b1111111111111111) :beat_delay:         0
--------------------------------------------------------------------------------------------
INFO: [Master VIP_wr_driver] (axi_vip_pkg.axi_mst_wr_driver(C_AXI_ADDR_WIDTH=40,C_AXI_WDATA_WIDTH=128,C_AXI_RDATA_WIDTH=128,C_AXI_WID_WIDTH=16,C_AXI_RID_WIDTH=16,C_AXI_AWUSER_WIDTH=16,C_AXI_ARUSER_WIDTH=16)::w_channel.W_CHANNEL.Block10274_1476.Block10274_1477) 445000 : WREADY+WLAST (         0) id=0x00000000
INFO: [Master VIP_wr_driver] (axi_vip_pkg.axi_mst_wr_driver(C_AXI_ADDR_WIDTH=40,C_AXI_WDATA_WIDTH=128,C_AXI_RDATA_WIDTH=128,C_AXI_WID_WIDTH=16,C_AXI_RID_WIDTH=16,C_AXI_AWUSER_WIDTH=16,C_AXI_ARUSER_WIDTH=16)::service_done_q.SERVICE_DONE_Q) 455000 : SERVICE_DONE_Q: XIL_AXI_WRITE (12) A:0x0000000000000030 ID:0x00000000 len:0x00 XIL_AXI_SIZE_16BYTE XIL_AXI_BURST_TYPE_INCR C:0b0000 L:XIL_AXI_ALOCK_NOLOCK P:0b000
INFO: [Master VIP_rd_driver] (axi_vip_pkg.axi_mst_rd_driver(C_AXI_ADDR_WIDTH=40,C_AXI_WDATA_WIDTH=128,C_AXI_RDATA_WIDTH=128,C_AXI_WID_WIDTH=16,C_AXI_RID_WIDTH=16,C_AXI_AWUSER_WIDTH=16,C_AXI_ARUSER_WIDTH=16)::ar_channel.AR_CHANNEL) 535001 : ARVALID id=0x0000070d
Warning: [AXI_RMON56_19] (axi_vip_pkg.axi_transaction::set_cache) 635000 : Attempted to send CACHE(0x0000) when SUPPORTS_NARROW is low. According to UG1037,AxCACHE[1] has to be 1 to ensure that any downstream upsizer can fully pack data up to wider widths
Time: 635 ns  Iteration: 0  Process: /axi_vip_pkg/axi_monitor(C_AXI_ADDR_WIDTH=40,C_AXI_WDATA_WIDTH=128,C_AXI_RDATA_WIDTH=128,C_AXI_WID_WIDTH=6,C_AXI_RID_WIDTH=6,C_AXI_AWUSER_WIDTH=1,C_AXI_ARUSER_WIDTH=1,C_AXI_SUPPORTS_NARROW=0,C_AXI_HAS_REGION=0)::ar_channel/AR_LOOP  File: /wrk/2017.4/nightly/2017_12_15_2086221/prep/rdi/vivado/data/xilinx_vip/hdl/axi_vip_pkg.sv
Warning: [AR_REACTIVE_56] (axi_vip_pkg.axi_transaction::set_cache) 635000 : Attempted to send CACHE(0x0000) when SUPPORTS_NARROW is low. According to UG1037,AxCACHE[1] has to be 1 to ensure that any downstream upsizer can fully pack data up to wider widths
Time: 635 ns  Iteration: 0  Process: /axi_vip_pkg/axi_slv_rd_driver(C_AXI_ADDR_WIDTH=40,C_AXI_WDATA_WIDTH=128,C_AXI_RDATA_WIDTH=128,C_AXI_WID_WIDTH=6,C_AXI_RID_WIDTH=6,C_AXI_AWUSER_WIDTH=1,C_AXI_ARUSER_WIDTH=1,C_AXI_SUPPORTS_NARROW=0,C_AXI_HAS_REGION=0)::get_rd_reactive  File: /wrk/2017.4/nightly/2017_12_15_2086221/prep/rdi/vivado/data/xilinx_vip/hdl/axi_vip_pkg.sv
INFO: [Slave VIP_rd_driver] (axi_vip_pkg.axi_slv_rd_driver(C_AXI_ADDR_WIDTH=40,C_AXI_WDATA_WIDTH=128,C_AXI_RDATA_WIDTH=128,C_AXI_WID_WIDTH=6,C_AXI_RID_WIDTH=6,C_AXI_AWUSER_WIDTH=1,C_AXI_ARUSER_WIDTH=1,C_AXI_SUPPORTS_NARROW=0,C_AXI_HAS_REGION=0)::get_rd_reactive) 635000 : ARVALID >>>
XIL_AXI_READ (20) A:0x0000000004143000 ID:0x00000038 len:0x03 XIL_AXI_SIZE_16BYTE XIL_AXI_BURST_TYPE_INCR C:0b0000 L:XIL_AXI_ALOCK_NOLOCK P:0b000<<<
Warning: [AR_REACTIVE_56] (axi_vip_pkg.axi_transaction::set_cache) 635000 : Attempted to send CACHE(0x0000) when SUPPORTS_NARROW is low. According to UG1037,AxCACHE[1] has to be 1 to ensure that any downstream upsizer can fully pack data up to wider widths
Time: 635 ns  Iteration: 0  Process: /axi_vip_pkg/axi_slv_rd_driver(C_AXI_ADDR_WIDTH=40,C_AXI_WDATA_WIDTH=128,C_AXI_RDATA_WIDTH=128,C_AXI_WID_WIDTH=6,C_AXI_RID_WIDTH=6,C_AXI_AWUSER_WIDTH=1,C_AXI_ARUSER_WIDTH=1,C_AXI_SUPPORTS_NARROW=0,C_AXI_HAS_REGION=0)::get_and_drive/GET_AND_DRIVE  File: /wrk/2017.4/nightly/2017_12_15_2086221/prep/rdi/vivado/data/xilinx_vip/hdl/axi_vip_pkg.sv
INFO: [Slave VIP_rd_driver] (axi_vip_pkg.axi_slv_rd_driver(C_AXI_ADDR_WIDTH=40,C_AXI_WDATA_WIDTH=128,C_AXI_RDATA_WIDTH=128,C_AXI_WID_WIDTH=6,C_AXI_RID_WIDTH=6,C_AXI_AWUSER_WIDTH=1,C_AXI_ARUSER_WIDTH=1,C_AXI_SUPPORTS_NARROW=0,C_AXI_HAS_REGION=0)::get_and_drive.GET_AND_DRIVE) 635000 : GNI : XIL_AXI_READ (20) A:0x0000000004143000 ID:0x00000038 len:0x03 XIL_AXI_SIZE_16BYTE XIL_AXI_BURST_TYPE_INCR C:0b0000 L:XIL_AXI_ALOCK_NOLOCK P:0b000
              675000 : TB_MemorEDF.DUT.design_1_i.axi_vip_1.inst.genblk1.PC.REP : BIT(         89) : WARNING : XILINX_AR_SUPPORTS_NARROW_CACHE. AR Non-modifiable burst issued from MASTER. Connection has been declared to NOT support narrow bursts.
INFO: [Slave VIP_rd_driver] (axi_vip_pkg.axi_slv_rd_driver(C_AXI_ADDR_WIDTH=40,C_AXI_WDATA_WIDTH=128,C_AXI_RDATA_WIDTH=128,C_AXI_WID_WIDTH=6,C_AXI_RID_WIDTH=6,C_AXI_AWUSER_WIDTH=1,C_AXI_ARUSER_WIDTH=1,C_AXI_SUPPORTS_NARROW=0,C_AXI_HAS_REGION=0)::drive_r_channel) 685001 : RVALID (4294967295) id=0x00000038, len   3
INFO: [Slave VIP_rd_driver] (axi_vip_pkg.axi_slv_rd_driver(C_AXI_ADDR_WIDTH=40,C_AXI_WDATA_WIDTH=128,C_AXI_RDATA_WIDTH=128,C_AXI_WID_WIDTH=6,C_AXI_RID_WIDTH=6,C_AXI_AWUSER_WIDTH=1,C_AXI_ARUSER_WIDTH=1,C_AXI_SUPPORTS_NARROW=0,C_AXI_HAS_REGION=0)::drive_r_channel) 695001 : RVALID (         0) id=0x00000038, len   3
INFO: [Slave VIP_rd_driver] (axi_vip_pkg.axi_slv_rd_driver(C_AXI_ADDR_WIDTH=40,C_AXI_WDATA_WIDTH=128,C_AXI_RDATA_WIDTH=128,C_AXI_WID_WIDTH=6,C_AXI_RID_WIDTH=6,C_AXI_AWUSER_WIDTH=1,C_AXI_ARUSER_WIDTH=1,C_AXI_SUPPORTS_NARROW=0,C_AXI_HAS_REGION=0)::drive_r_channel) 725001 : RVALID (         1) id=0x00000038, len   3
INFO: [Slave VIP_rd_driver] (axi_vip_pkg.axi_slv_rd_driver(C_AXI_ADDR_WIDTH=40,C_AXI_WDATA_WIDTH=128,C_AXI_RDATA_WIDTH=128,C_AXI_WID_WIDTH=6,C_AXI_RID_WIDTH=6,C_AXI_AWUSER_WIDTH=1,C_AXI_ARUSER_WIDTH=1,C_AXI_SUPPORTS_NARROW=0,C_AXI_HAS_REGION=0)::drive_r_channel) 755001 : RVALID (         2) id=0x00000038, len   3
INFO: [Master VIP_rd_driver] (axi_vip_pkg.axi_mst_rd_driver(C_AXI_ADDR_WIDTH=40,C_AXI_WDATA_WIDTH=128,C_AXI_RDATA_WIDTH=128,C_AXI_WID_WIDTH=16,C_AXI_RID_WIDTH=16,C_AXI_AWUSER_WIDTH=16,C_AXI_ARUSER_WIDTH=16)::ar_channel.AR_CHANNEL) 815001 : ARVALID id=0x000007ad
Warning: [AXI_RMON61_26] (axi_vip_pkg.axi_transaction::set_cache) 915000 : Attempted to send CACHE(0x0000) when SUPPORTS_NARROW is low. According to UG1037,AxCACHE[1] has to be 1 to ensure that any downstream upsizer can fully pack data up to wider widths
Time: 915 ns  Iteration: 0  Process: /axi_vip_pkg/axi_monitor(C_AXI_ADDR_WIDTH=40,C_AXI_WDATA_WIDTH=128,C_AXI_RDATA_WIDTH=128,C_AXI_WID_WIDTH=6,C_AXI_RID_WIDTH=6,C_AXI_AWUSER_WIDTH=1,C_AXI_ARUSER_WIDTH=1,C_AXI_SUPPORTS_NARROW=0,C_AXI_HAS_REGION=0)::ar_channel/AR_LOOP  File: /wrk/2017.4/nightly/2017_12_15_2086221/prep/rdi/vivado/data/xilinx_vip/hdl/axi_vip_pkg.sv
Warning: [AR_REACTIVE_61] (axi_vip_pkg.axi_transaction::set_cache) 915000 : Attempted to send CACHE(0x0000) when SUPPORTS_NARROW is low. According to UG1037,AxCACHE[1] has to be 1 to ensure that any downstream upsizer can fully pack data up to wider widths
Time: 915 ns  Iteration: 0  Process: /axi_vip_pkg/axi_slv_rd_driver(C_AXI_ADDR_WIDTH=40,C_AXI_WDATA_WIDTH=128,C_AXI_RDATA_WIDTH=128,C_AXI_WID_WIDTH=6,C_AXI_RID_WIDTH=6,C_AXI_AWUSER_WIDTH=1,C_AXI_ARUSER_WIDTH=1,C_AXI_SUPPORTS_NARROW=0,C_AXI_HAS_REGION=0)::get_rd_reactive  File: /wrk/2017.4/nightly/2017_12_15_2086221/prep/rdi/vivado/data/xilinx_vip/hdl/axi_vip_pkg.sv
INFO: [Slave VIP_rd_driver] (axi_vip_pkg.axi_slv_rd_driver(C_AXI_ADDR_WIDTH=40,C_AXI_WDATA_WIDTH=128,C_AXI_RDATA_WIDTH=128,C_AXI_WID_WIDTH=6,C_AXI_RID_WIDTH=6,C_AXI_AWUSER_WIDTH=1,C_AXI_ARUSER_WIDTH=1,C_AXI_SUPPORTS_NARROW=0,C_AXI_HAS_REGION=0)::get_rd_reactive) 915000 : ARVALID >>>
XIL_AXI_READ (27) A:0x000000083fffffff ID:0x0000003d len:0x03 XIL_AXI_SIZE_16BYTE XIL_AXI_BURST_TYPE_INCR C:0b0000 L:XIL_AXI_ALOCK_NOLOCK P:0b000<<<
Warning: [AR_REACTIVE_61] (axi_vip_pkg.axi_transaction::set_cache) 915000 : Attempted to send CACHE(0x0000) when SUPPORTS_NARROW is low. According to UG1037,AxCACHE[1] has to be 1 to ensure that any downstream upsizer can fully pack data up to wider widths
Time: 915 ns  Iteration: 0  Process: /axi_vip_pkg/axi_slv_rd_driver(C_AXI_ADDR_WIDTH=40,C_AXI_WDATA_WIDTH=128,C_AXI_RDATA_WIDTH=128,C_AXI_WID_WIDTH=6,C_AXI_RID_WIDTH=6,C_AXI_AWUSER_WIDTH=1,C_AXI_ARUSER_WIDTH=1,C_AXI_SUPPORTS_NARROW=0,C_AXI_HAS_REGION=0)::get_and_drive/GET_AND_DRIVE  File: /wrk/2017.4/nightly/2017_12_15_2086221/prep/rdi/vivado/data/xilinx_vip/hdl/axi_vip_pkg.sv
INFO: [Slave VIP_rd_driver] (axi_vip_pkg.axi_slv_rd_driver(C_AXI_ADDR_WIDTH=40,C_AXI_WDATA_WIDTH=128,C_AXI_RDATA_WIDTH=128,C_AXI_WID_WIDTH=6,C_AXI_RID_WIDTH=6,C_AXI_AWUSER_WIDTH=1,C_AXI_ARUSER_WIDTH=1,C_AXI_SUPPORTS_NARROW=0,C_AXI_HAS_REGION=0)::get_and_drive.GET_AND_DRIVE) 915000 : GNI : XIL_AXI_READ (27) A:0x000000083fffffff ID:0x0000003d len:0x03 XIL_AXI_SIZE_16BYTE XIL_AXI_BURST_TYPE_INCR C:0b0000 L:XIL_AXI_ALOCK_NOLOCK P:0b000
              965000 : TB_MemorEDF.DUT.design_1_i.axi_vip_1.inst.genblk1.PC.REP : BIT(         37) :   ERROR : AXI_ERRM_ARADDR_BOUNDARY: A burst must not cross a 4kbyte boundary. Spec: section A3.4.1.
INFO: [Slave VIP_rd_driver] (axi_vip_pkg.axi_slv_rd_driver(C_AXI_ADDR_WIDTH=40,C_AXI_WDATA_WIDTH=128,C_AXI_RDATA_WIDTH=128,C_AXI_WID_WIDTH=6,C_AXI_RID_WIDTH=6,C_AXI_AWUSER_WIDTH=1,C_AXI_ARUSER_WIDTH=1,C_AXI_SUPPORTS_NARROW=0,C_AXI_HAS_REGION=0)::drive_r_channel) 965001 : RVALID (4294967295) id=0x0000003d, len   3
INFO: [Slave VIP_rd_driver] (axi_vip_pkg.axi_slv_rd_driver(C_AXI_ADDR_WIDTH=40,C_AXI_WDATA_WIDTH=128,C_AXI_RDATA_WIDTH=128,C_AXI_WID_WIDTH=6,C_AXI_RID_WIDTH=6,C_AXI_AWUSER_WIDTH=1,C_AXI_ARUSER_WIDTH=1,C_AXI_SUPPORTS_NARROW=0,C_AXI_HAS_REGION=0)::drive_r_channel) 975001 : RVALID (         0) id=0x0000003d, len   3
INFO: [Slave VIP_rd_driver] (axi_vip_pkg.axi_slv_rd_driver(C_AXI_ADDR_WIDTH=40,C_AXI_WDATA_WIDTH=128,C_AXI_RDATA_WIDTH=128,C_AXI_WID_WIDTH=6,C_AXI_RID_WIDTH=6,C_AXI_AWUSER_WIDTH=1,C_AXI_ARUSER_WIDTH=1,C_AXI_SUPPORTS_NARROW=0,C_AXI_HAS_REGION=0)::drive_r_channel) 1005001 : RVALID (         1) id=0x0000003d, len   3
INFO: [Slave VIP_rd_driver] (axi_vip_pkg.axi_slv_rd_driver(C_AXI_ADDR_WIDTH=40,C_AXI_WDATA_WIDTH=128,C_AXI_RDATA_WIDTH=128,C_AXI_WID_WIDTH=6,C_AXI_RID_WIDTH=6,C_AXI_AWUSER_WIDTH=1,C_AXI_ARUSER_WIDTH=1,C_AXI_SUPPORTS_NARROW=0,C_AXI_HAS_REGION=0)::drive_r_channel) 1035001 : RVALID (         2) id=0x0000003d, len   3
INFO: [Master VIP_wr_driver] (axi_vip_pkg.axi_mst_wr_driver(C_AXI_ADDR_WIDTH=40,C_AXI_WDATA_WIDTH=128,C_AXI_RDATA_WIDTH=128,C_AXI_WID_WIDTH=16,C_AXI_RID_WIDTH=16,C_AXI_AWUSER_WIDTH=16,C_AXI_ARUSER_WIDTH=16)::get_and_drive.GET_AND_DRIVE) 1085000 : Sending transaction: 
INFO: [Master VIP_wr_driver] (axi_vip_pkg.axi_mst_wr_driver(C_AXI_ADDR_WIDTH=40,C_AXI_WDATA_WIDTH=128,C_AXI_RDATA_WIDTH=128,C_AXI_WID_WIDTH=16,C_AXI_RID_WIDTH=16,C_AXI_AWUSER_WIDTH=16,C_AXI_ARUSER_WIDTH=16)::get_and_drive.GET_AND_DRIVE) 1085000 : ---------------------------------------------------------------------------------------------
  Name                         Value
---------------------------------------------------------------------------------------------
  CMD                          XIL_AXI_WRITE
  ADDR                         0x0000001010503000 
  WID                          0x0000040d
  LEN                          0x03
  SIZE                         0x100
  BURST                        0x01
  CACHE                        0x0000
  LOCK                         0x00
  PROT                         0x000
  REGION                       0x0000
  QOS                          0x0000
  AWUSER                       0x0000
  BRESP                        XIL_AXI_RESP_OKAY
  DRIVER_RETURN_ITEM           XIL_AXI_PAYLOAD_RETURN 
  CREATION_TIME                1085000
  SUBMIT_TIME                  0
  PAYLOAD                      64
    BEAT[          0]          0x47ecdb8f8932d612bbd2727772aff7e5 (strb : 0b1111111111111111) :beat_delay:         0
    BEAT[          1]          0xe2ca4ec5f4007ae8e77696ce793069f2 (strb : 0b1111111111111111) :beat_delay:         0
    BEAT[          2]          0xb2a7266596ab582dde8e28bd2e58495c (strb : 0b1111111111111111) :beat_delay:         0
    BEAT[          3]          0x10642120c03b22800573870ab1ef6263 (strb : 0b1111111111111111) :beat_delay:         0
--------------------------------------------------------------------------------------------
INFO: [Master VIP_wr_driver] (axi_vip_pkg.axi_mst_wr_driver(C_AXI_ADDR_WIDTH=40,C_AXI_WDATA_WIDTH=128,C_AXI_RDATA_WIDTH=128,C_AXI_WID_WIDTH=16,C_AXI_RID_WIDTH=16,C_AXI_AWUSER_WIDTH=16,C_AXI_ARUSER_WIDTH=16)::w_channel.W_CHANNEL.Block10274_1476.Block10274_1477) 1165000 : WREADY (         0) id=0x0000040d
INFO: [Master VIP_wr_driver] (axi_vip_pkg.axi_mst_wr_driver(C_AXI_ADDR_WIDTH=40,C_AXI_WDATA_WIDTH=128,C_AXI_RDATA_WIDTH=128,C_AXI_WID_WIDTH=16,C_AXI_RID_WIDTH=16,C_AXI_AWUSER_WIDTH=16,C_AXI_ARUSER_WIDTH=16)::w_channel.W_CHANNEL.Block10274_1476.Block10274_1477) 1175000 : WREADY (         1) id=0x0000040d
INFO: [Master VIP_wr_driver] (axi_vip_pkg.axi_mst_wr_driver(C_AXI_ADDR_WIDTH=40,C_AXI_WDATA_WIDTH=128,C_AXI_RDATA_WIDTH=128,C_AXI_WID_WIDTH=16,C_AXI_RID_WIDTH=16,C_AXI_AWUSER_WIDTH=16,C_AXI_ARUSER_WIDTH=16)::w_channel.W_CHANNEL.Block10274_1476.Block10274_1477) 1185000 : WREADY (         2) id=0x0000040d
INFO: [Master VIP_wr_driver] (axi_vip_pkg.axi_mst_wr_driver(C_AXI_ADDR_WIDTH=40,C_AXI_WDATA_WIDTH=128,C_AXI_RDATA_WIDTH=128,C_AXI_WID_WIDTH=16,C_AXI_RID_WIDTH=16,C_AXI_AWUSER_WIDTH=16,C_AXI_ARUSER_WIDTH=16)::w_channel.W_CHANNEL.Block10274_1476.Block10274_1477) 1195000 : WREADY+WLAST (         3) id=0x0000040d
Warning: [AXI_WMON32_33] (axi_vip_pkg.axi_transaction::set_cache) 1275000 : Attempted to send CACHE(0x0000) when SUPPORTS_NARROW is low. According to UG1037,AxCACHE[1] has to be 1 to ensure that any downstream upsizer can fully pack data up to wider widths
Time: 1275 ns  Iteration: 0  Process: /axi_vip_pkg/axi_monitor(C_AXI_ADDR_WIDTH=40,C_AXI_WDATA_WIDTH=128,C_AXI_RDATA_WIDTH=128,C_AXI_WID_WIDTH=6,C_AXI_RID_WIDTH=6,C_AXI_AWUSER_WIDTH=1,C_AXI_ARUSER_WIDTH=1,C_AXI_SUPPORTS_NARROW=0,C_AXI_HAS_REGION=0)::aw_channel/AW_LOOP  File: /wrk/2017.4/nightly/2017_12_15_2086221/prep/rdi/vivado/data/xilinx_vip/hdl/axi_vip_pkg.sv
Warning: [AW_REACTIVE_32] (axi_vip_pkg.axi_transaction::set_cache) 1275000 : Attempted to send CACHE(0x0000) when SUPPORTS_NARROW is low. According to UG1037,AxCACHE[1] has to be 1 to ensure that any downstream upsizer can fully pack data up to wider widths
Time: 1275 ns  Iteration: 0  Process: /axi_vip_pkg/axi_slv_wr_driver(C_AXI_ADDR_WIDTH=40,C_AXI_WDATA_WIDTH=128,C_AXI_RDATA_WIDTH=128,C_AXI_WID_WIDTH=6,C_AXI_RID_WIDTH=6,C_AXI_AWUSER_WIDTH=1,C_AXI_ARUSER_WIDTH=1,C_AXI_SUPPORTS_NARROW=0,C_AXI_HAS_REGION=0)::aw_channel/AW_CHANNEL  File: /wrk/2017.4/nightly/2017_12_15_2086221/prep/rdi/vivado/data/xilinx_vip/hdl/axi_vip_pkg.sv
INFO: [Slave VIP_wr_driver] (axi_vip_pkg.axi_slv_wr_driver(C_AXI_ADDR_WIDTH=40,C_AXI_WDATA_WIDTH=128,C_AXI_RDATA_WIDTH=128,C_AXI_WID_WIDTH=6,C_AXI_RID_WIDTH=6,C_AXI_AWUSER_WIDTH=1,C_AXI_ARUSER_WIDTH=1,C_AXI_SUPPORTS_NARROW=0,C_AXI_HAS_REGION=0)::aw_channel.AW_CHANNEL) 1275000 : AWVALID >>>
XIL_AXI_WRITE (34) A:0x0000000004143000 ID:0x00000020 len:0x03 XIL_AXI_SIZE_16BYTE XIL_AXI_BURST_TYPE_INCR C:0b0000 L:XIL_AXI_ALOCK_NOLOCK P:0b000<<<
INFO: [Slave VIP_wr_driver] (axi_vip_pkg.axi_slv_wr_driver(C_AXI_ADDR_WIDTH=40,C_AXI_WDATA_WIDTH=128,C_AXI_RDATA_WIDTH=128,C_AXI_WID_WIDTH=6,C_AXI_RID_WIDTH=6,C_AXI_AWUSER_WIDTH=1,C_AXI_ARUSER_WIDTH=1,C_AXI_SUPPORTS_NARROW=0,C_AXI_HAS_REGION=0)::w_channel.W_CHANNEL) 1285000 : W BEAT -- write_beat     Last:0 D:0x47ecdb8f8932d612bbd2727772aff7e5 BE:0b1111111111111111 
INFO: [Slave VIP_wr_driver] (axi_vip_pkg.axi_slv_wr_driver(C_AXI_ADDR_WIDTH=40,C_AXI_WDATA_WIDTH=128,C_AXI_RDATA_WIDTH=128,C_AXI_WID_WIDTH=6,C_AXI_RID_WIDTH=6,C_AXI_AWUSER_WIDTH=1,C_AXI_ARUSER_WIDTH=1,C_AXI_SUPPORTS_NARROW=0,C_AXI_HAS_REGION=0)::w_channel.W_CHANNEL) 1315000 : W BEAT -- write_beat     Last:0 D:0xe2ca4ec5f4007ae8e77696ce793069f2 BE:0b1111111111111111 
             1315000 : TB_MemorEDF.DUT.design_1_i.axi_vip_1.inst.genblk1.PC.REP : BIT(         88) : WARNING : XILINX_AW_SUPPORTS_NARROW_CACHE. AW Non-modifiable burst issued from MASTER. Connection has been declared to NOT support narrow bursts.
INFO: [Slave VIP_wr_driver] (axi_vip_pkg.axi_slv_wr_driver(C_AXI_ADDR_WIDTH=40,C_AXI_WDATA_WIDTH=128,C_AXI_RDATA_WIDTH=128,C_AXI_WID_WIDTH=6,C_AXI_RID_WIDTH=6,C_AXI_AWUSER_WIDTH=1,C_AXI_ARUSER_WIDTH=1,C_AXI_SUPPORTS_NARROW=0,C_AXI_HAS_REGION=0)::w_channel.W_CHANNEL) 1345000 : W BEAT -- write_beat     Last:0 D:0xb2a7266596ab582dde8e28bd2e58495c BE:0b1111111111111111 
INFO: [Slave VIP_wr_driver] (axi_vip_pkg.axi_slv_wr_driver(C_AXI_ADDR_WIDTH=40,C_AXI_WDATA_WIDTH=128,C_AXI_RDATA_WIDTH=128,C_AXI_WID_WIDTH=6,C_AXI_RID_WIDTH=6,C_AXI_AWUSER_WIDTH=1,C_AXI_ARUSER_WIDTH=1,C_AXI_SUPPORTS_NARROW=0,C_AXI_HAS_REGION=0)::w_channel.W_CHANNEL) 1375000 : W LAST -- write_beat     Last:1 D:0x10642120c03b22800573870ab1ef6263 BE:0b1111111111111111 
INFO: [Slave VIP_wr_driver] (axi_vip_pkg.axi_slv_wr_driver(C_AXI_ADDR_WIDTH=40,C_AXI_WDATA_WIDTH=128,C_AXI_RDATA_WIDTH=128,C_AXI_WID_WIDTH=6,C_AXI_RID_WIDTH=6,C_AXI_AWUSER_WIDTH=1,C_AXI_ARUSER_WIDTH=1,C_AXI_SUPPORTS_NARROW=0,C_AXI_HAS_REGION=0)::push_reactive_q) 1375000 : PUSH_REACTIVE_Q: PUSH (         0) >>> XIL_AXI_WRITE (34) A:0x0000000004143000 ID:0x00000020 len:0x03 XIL_AXI_SIZE_16BYTE XIL_AXI_BURST_TYPE_INCR C:0b0000 L:XIL_AXI_ALOCK_NOLOCK P:0b000 <<<
INFO: [Slave VIP_wr_driver] (axi_vip_pkg.axi_slv_wr_driver(C_AXI_ADDR_WIDTH=40,C_AXI_WDATA_WIDTH=128,C_AXI_RDATA_WIDTH=128,C_AXI_WID_WIDTH=6,C_AXI_RID_WIDTH=6,C_AXI_AWUSER_WIDTH=1,C_AXI_ARUSER_WIDTH=1,C_AXI_SUPPORTS_NARROW=0,C_AXI_HAS_REGION=0)::pop_reactive_q) 1375000 : POP_REACTIVE_Q: (         1) >>> XIL_AXI_WRITE (34) A:0x0000000004143000 ID:0x00000020 len:0x03 XIL_AXI_SIZE_16BYTE XIL_AXI_BURST_TYPE_INCR C:0b0000 L:XIL_AXI_ALOCK_NOLOCK P:0b000 <<<
Warning: [AW_REACTIVE_32] (axi_vip_pkg.axi_transaction::set_cache) 1375000 : Attempted to send CACHE(0x0000) when SUPPORTS_NARROW is low. According to UG1037,AxCACHE[1] has to be 1 to ensure that any downstream upsizer can fully pack data up to wider widths
Time: 1375 ns  Iteration: 0  Process: /axi_vip_pkg/axi_slv_wr_driver(C_AXI_ADDR_WIDTH=40,C_AXI_WDATA_WIDTH=128,C_AXI_RDATA_WIDTH=128,C_AXI_WID_WIDTH=6,C_AXI_RID_WIDTH=6,C_AXI_AWUSER_WIDTH=1,C_AXI_ARUSER_WIDTH=1,C_AXI_SUPPORTS_NARROW=0,C_AXI_HAS_REGION=0)::get_and_drive/GET_AND_DRIVE  File: /wrk/2017.4/nightly/2017_12_15_2086221/prep/rdi/vivado/data/xilinx_vip/hdl/axi_vip_pkg.sv
INFO: [Slave VIP_wr_driver] (axi_vip_pkg.axi_slv_wr_driver(C_AXI_ADDR_WIDTH=40,C_AXI_WDATA_WIDTH=128,C_AXI_RDATA_WIDTH=128,C_AXI_WID_WIDTH=6,C_AXI_RID_WIDTH=6,C_AXI_AWUSER_WIDTH=1,C_AXI_ARUSER_WIDTH=1,C_AXI_SUPPORTS_NARROW=0,C_AXI_HAS_REGION=0)::get_and_drive.GET_AND_DRIVE) 1375000 : GNI : XIL_AXI_WRITE (34) A:0x0000000004143000 ID:0x00000020 len:0x03 XIL_AXI_SIZE_16BYTE XIL_AXI_BURST_TYPE_INCR C:0b0000 L:XIL_AXI_ALOCK_NOLOCK P:0b000
INFO: [Slave VIP_wr_driver] (axi_vip_pkg.axi_slv_wr_driver(C_AXI_ADDR_WIDTH=40,C_AXI_WDATA_WIDTH=128,C_AXI_RDATA_WIDTH=128,C_AXI_WID_WIDTH=6,C_AXI_RID_WIDTH=6,C_AXI_AWUSER_WIDTH=1,C_AXI_ARUSER_WIDTH=1,C_AXI_SUPPORTS_NARROW=0,C_AXI_HAS_REGION=0)::push_b_q) 1375000 : B PUSH (         0)
INFO: [Slave VIP_wr_driver] (axi_vip_pkg.axi_slv_wr_driver(C_AXI_ADDR_WIDTH=40,C_AXI_WDATA_WIDTH=128,C_AXI_RDATA_WIDTH=128,C_AXI_WID_WIDTH=6,C_AXI_RID_WIDTH=6,C_AXI_AWUSER_WIDTH=1,C_AXI_ARUSER_WIDTH=1,C_AXI_SUPPORTS_NARROW=0,C_AXI_HAS_REGION=0)::push_b_q) 1375000 : ID=0x00000020 - State 0b0111
Entries in BQ : NumEntries:         0 >>> 
 <<<
Command       : XIL_AXI_WRITE (34) A:0x0000000004143000 ID:0x00000020 len:0x03 XIL_AXI_SIZE_16BYTE XIL_AXI_BURST_TYPE_INCR C:0b0000 L:XIL_AXI_ALOCK_NOLOCK P:0b000
INFO: [Master VIP_wr_driver] (axi_vip_pkg.axi_mst_wr_driver(C_AXI_ADDR_WIDTH=40,C_AXI_WDATA_WIDTH=128,C_AXI_RDATA_WIDTH=128,C_AXI_WID_WIDTH=16,C_AXI_RID_WIDTH=16,C_AXI_AWUSER_WIDTH=16,C_AXI_ARUSER_WIDTH=16)::service_done_q.SERVICE_DONE_Q) 1385000 : SERVICE_DONE_Q: XIL_AXI_WRITE (30) A:0x0000001010503000 ID:0x0000040d len:0x03 XIL_AXI_SIZE_16BYTE XIL_AXI_BURST_TYPE_INCR C:0b0000 L:XIL_AXI_ALOCK_NOLOCK P:0b000
INFO: [Slave VIP_wr_driver] (axi_vip_pkg.axi_slv_wr_driver(C_AXI_ADDR_WIDTH=40,C_AXI_WDATA_WIDTH=128,C_AXI_RDATA_WIDTH=128,C_AXI_WID_WIDTH=6,C_AXI_RID_WIDTH=6,C_AXI_AWUSER_WIDTH=1,C_AXI_ARUSER_WIDTH=1,C_AXI_SUPPORTS_NARROW=0,C_AXI_HAS_REGION=0)::service_done_q.SERVICE_DONE_Q) 1385000 : SERVICE_DONE_Q: XIL_AXI_WRITE (34) A:0x0000000004143000 ID:0x00000020 len:0x03 XIL_AXI_SIZE_16BYTE XIL_AXI_BURST_TYPE_INCR C:0b0000 L:XIL_AXI_ALOCK_NOLOCK P:0b000
INFO: [Master VIP_wr_driver] (axi_vip_pkg.axi_mst_wr_driver(C_AXI_ADDR_WIDTH=40,C_AXI_WDATA_WIDTH=128,C_AXI_RDATA_WIDTH=128,C_AXI_WID_WIDTH=16,C_AXI_RID_WIDTH=16,C_AXI_AWUSER_WIDTH=16,C_AXI_ARUSER_WIDTH=16)::get_and_drive.GET_AND_DRIVE) 1405000 : Sending transaction: 
INFO: [Master VIP_wr_driver] (axi_vip_pkg.axi_mst_wr_driver(C_AXI_ADDR_WIDTH=40,C_AXI_WDATA_WIDTH=128,C_AXI_RDATA_WIDTH=128,C_AXI_WID_WIDTH=16,C_AXI_RID_WIDTH=16,C_AXI_AWUSER_WIDTH=16,C_AXI_ARUSER_WIDTH=16)::get_and_drive.GET_AND_DRIVE) 1405000 : ---------------------------------------------------------------------------------------------
  Name                         Value
---------------------------------------------------------------------------------------------
  CMD                          XIL_AXI_WRITE
  ADDR                         0x0000004800000000 
  WID                          0x0000042d
  LEN                          0x03
  SIZE                         0x100
  BURST                        0x01
  CACHE                        0x0000
  LOCK                         0x00
  PROT                         0x000
  REGION                       0x0000
  QOS                          0x0000
  AWUSER                       0x0000
  BRESP                        XIL_AXI_RESP_OKAY
  DRIVER_RETURN_ITEM           XIL_AXI_PAYLOAD_RETURN 
  CREATION_TIME                1405000
  SUBMIT_TIME                  0
  PAYLOAD                      64
    BEAT[          0]          0x47ecdb8f8932d612bbd2727772aff7e5 (strb : 0b1111111111111111) :beat_delay:         0
    BEAT[          1]          0xe2ca4ec5f4007ae8e77696ce793069f2 (strb : 0b1111111111111111) :beat_delay:         0
    BEAT[          2]          0xb2a7266596ab582dde8e28bd2e58495c (strb : 0b1111111111111111) :beat_delay:         0
    BEAT[          3]          0x10642120c03b22800573870ab1ef6263 (strb : 0b1111111111111111) :beat_delay:         0
--------------------------------------------------------------------------------------------
INFO: [Master VIP_wr_driver] (axi_vip_pkg.axi_mst_wr_driver(C_AXI_ADDR_WIDTH=40,C_AXI_WDATA_WIDTH=128,C_AXI_RDATA_WIDTH=128,C_AXI_WID_WIDTH=16,C_AXI_RID_WIDTH=16,C_AXI_AWUSER_WIDTH=16,C_AXI_ARUSER_WIDTH=16)::w_channel.W_CHANNEL.Block10274_1476.Block10274_1477) 1485000 : WREADY (         0) id=0x0000042d
INFO: [Master VIP_wr_driver] (axi_vip_pkg.axi_mst_wr_driver(C_AXI_ADDR_WIDTH=40,C_AXI_WDATA_WIDTH=128,C_AXI_RDATA_WIDTH=128,C_AXI_WID_WIDTH=16,C_AXI_RID_WIDTH=16,C_AXI_AWUSER_WIDTH=16,C_AXI_ARUSER_WIDTH=16)::w_channel.W_CHANNEL.Block10274_1476.Block10274_1477) 1495000 : WREADY (         1) id=0x0000042d
INFO: [Master VIP_wr_driver] (axi_vip_pkg.axi_mst_wr_driver(C_AXI_ADDR_WIDTH=40,C_AXI_WDATA_WIDTH=128,C_AXI_RDATA_WIDTH=128,C_AXI_WID_WIDTH=16,C_AXI_RID_WIDTH=16,C_AXI_AWUSER_WIDTH=16,C_AXI_ARUSER_WIDTH=16)::w_channel.W_CHANNEL.Block10274_1476.Block10274_1477) 1505000 : WREADY (         2) id=0x0000042d
INFO: [Master VIP_wr_driver] (axi_vip_pkg.axi_mst_wr_driver(C_AXI_ADDR_WIDTH=40,C_AXI_WDATA_WIDTH=128,C_AXI_RDATA_WIDTH=128,C_AXI_WID_WIDTH=16,C_AXI_RID_WIDTH=16,C_AXI_AWUSER_WIDTH=16,C_AXI_ARUSER_WIDTH=16)::w_channel.W_CHANNEL.Block10274_1476.Block10274_1477) 1515000 : WREADY+WLAST (         3) id=0x0000042d
Warning: [AXI_WMON33_41] (axi_vip_pkg.axi_transaction::set_cache) 1595000 : Attempted to send CACHE(0x0000) when SUPPORTS_NARROW is low. According to UG1037,AxCACHE[1] has to be 1 to ensure that any downstream upsizer can fully pack data up to wider widths
Time: 1595 ns  Iteration: 0  Process: /axi_vip_pkg/axi_monitor(C_AXI_ADDR_WIDTH=40,C_AXI_WDATA_WIDTH=128,C_AXI_RDATA_WIDTH=128,C_AXI_WID_WIDTH=6,C_AXI_RID_WIDTH=6,C_AXI_AWUSER_WIDTH=1,C_AXI_ARUSER_WIDTH=1,C_AXI_SUPPORTS_NARROW=0,C_AXI_HAS_REGION=0)::aw_channel/AW_LOOP  File: /wrk/2017.4/nightly/2017_12_15_2086221/prep/rdi/vivado/data/xilinx_vip/hdl/axi_vip_pkg.sv
Warning: [AW_REACTIVE_33] (axi_vip_pkg.axi_transaction::set_cache) 1595000 : Attempted to send CACHE(0x0000) when SUPPORTS_NARROW is low. According to UG1037,AxCACHE[1] has to be 1 to ensure that any downstream upsizer can fully pack data up to wider widths
Time: 1595 ns  Iteration: 0  Process: /axi_vip_pkg/axi_slv_wr_driver(C_AXI_ADDR_WIDTH=40,C_AXI_WDATA_WIDTH=128,C_AXI_RDATA_WIDTH=128,C_AXI_WID_WIDTH=6,C_AXI_RID_WIDTH=6,C_AXI_AWUSER_WIDTH=1,C_AXI_ARUSER_WIDTH=1,C_AXI_SUPPORTS_NARROW=0,C_AXI_HAS_REGION=0)::aw_channel/AW_CHANNEL  File: /wrk/2017.4/nightly/2017_12_15_2086221/prep/rdi/vivado/data/xilinx_vip/hdl/axi_vip_pkg.sv
INFO: [Slave VIP_wr_driver] (axi_vip_pkg.axi_slv_wr_driver(C_AXI_ADDR_WIDTH=40,C_AXI_WDATA_WIDTH=128,C_AXI_RDATA_WIDTH=128,C_AXI_WID_WIDTH=6,C_AXI_RID_WIDTH=6,C_AXI_AWUSER_WIDTH=1,C_AXI_ARUSER_WIDTH=1,C_AXI_SUPPORTS_NARROW=0,C_AXI_HAS_REGION=0)::aw_channel.AW_CHANNEL) 1595000 : AWVALID >>>
XIL_AXI_WRITE (42) A:0x0000000800000000 ID:0x00000021 len:0x03 XIL_AXI_SIZE_16BYTE XIL_AXI_BURST_TYPE_INCR C:0b0000 L:XIL_AXI_ALOCK_NOLOCK P:0b000<<<
INFO: [Slave VIP_wr_driver] (axi_vip_pkg.axi_slv_wr_driver(C_AXI_ADDR_WIDTH=40,C_AXI_WDATA_WIDTH=128,C_AXI_RDATA_WIDTH=128,C_AXI_WID_WIDTH=6,C_AXI_RID_WIDTH=6,C_AXI_AWUSER_WIDTH=1,C_AXI_ARUSER_WIDTH=1,C_AXI_SUPPORTS_NARROW=0,C_AXI_HAS_REGION=0)::w_channel.W_CHANNEL) 1605000 : W BEAT -- write_beat     Last:0 D:0x47ecdb8f8932d612bbd2727772aff7e5 BE:0b1111111111111111 
INFO: [Slave VIP_wr_driver] (axi_vip_pkg.axi_slv_wr_driver(C_AXI_ADDR_WIDTH=40,C_AXI_WDATA_WIDTH=128,C_AXI_RDATA_WIDTH=128,C_AXI_WID_WIDTH=6,C_AXI_RID_WIDTH=6,C_AXI_AWUSER_WIDTH=1,C_AXI_ARUSER_WIDTH=1,C_AXI_SUPPORTS_NARROW=0,C_AXI_HAS_REGION=0)::w_channel.W_CHANNEL) 1635000 : W BEAT -- write_beat     Last:0 D:0xe2ca4ec5f4007ae8e77696ce793069f2 BE:0b1111111111111111 
INFO: [Slave VIP_wr_driver] (axi_vip_pkg.axi_slv_wr_driver(C_AXI_ADDR_WIDTH=40,C_AXI_WDATA_WIDTH=128,C_AXI_RDATA_WIDTH=128,C_AXI_WID_WIDTH=6,C_AXI_RID_WIDTH=6,C_AXI_AWUSER_WIDTH=1,C_AXI_ARUSER_WIDTH=1,C_AXI_SUPPORTS_NARROW=0,C_AXI_HAS_REGION=0)::w_channel.W_CHANNEL) 1665000 : W BEAT -- write_beat     Last:0 D:0xb2a7266596ab582dde8e28bd2e58495c BE:0b1111111111111111 
INFO: [Slave VIP_wr_driver] (axi_vip_pkg.axi_slv_wr_driver(C_AXI_ADDR_WIDTH=40,C_AXI_WDATA_WIDTH=128,C_AXI_RDATA_WIDTH=128,C_AXI_WID_WIDTH=6,C_AXI_RID_WIDTH=6,C_AXI_AWUSER_WIDTH=1,C_AXI_ARUSER_WIDTH=1,C_AXI_SUPPORTS_NARROW=0,C_AXI_HAS_REGION=0)::w_channel.W_CHANNEL) 1695000 : W LAST -- write_beat     Last:1 D:0x10642120c03b22800573870ab1ef6263 BE:0b1111111111111111 
INFO: [Slave VIP_wr_driver] (axi_vip_pkg.axi_slv_wr_driver(C_AXI_ADDR_WIDTH=40,C_AXI_WDATA_WIDTH=128,C_AXI_RDATA_WIDTH=128,C_AXI_WID_WIDTH=6,C_AXI_RID_WIDTH=6,C_AXI_AWUSER_WIDTH=1,C_AXI_ARUSER_WIDTH=1,C_AXI_SUPPORTS_NARROW=0,C_AXI_HAS_REGION=0)::push_reactive_q) 1695000 : PUSH_REACTIVE_Q: PUSH (         0) >>> XIL_AXI_WRITE (42) A:0x0000000800000000 ID:0x00000021 len:0x03 XIL_AXI_SIZE_16BYTE XIL_AXI_BURST_TYPE_INCR C:0b0000 L:XIL_AXI_ALOCK_NOLOCK P:0b000 <<<
INFO: [Slave VIP_wr_driver] (axi_vip_pkg.axi_slv_wr_driver(C_AXI_ADDR_WIDTH=40,C_AXI_WDATA_WIDTH=128,C_AXI_RDATA_WIDTH=128,C_AXI_WID_WIDTH=6,C_AXI_RID_WIDTH=6,C_AXI_AWUSER_WIDTH=1,C_AXI_ARUSER_WIDTH=1,C_AXI_SUPPORTS_NARROW=0,C_AXI_HAS_REGION=0)::pop_reactive_q) 1695000 : POP_REACTIVE_Q: (         1) >>> XIL_AXI_WRITE (42) A:0x0000000800000000 ID:0x00000021 len:0x03 XIL_AXI_SIZE_16BYTE XIL_AXI_BURST_TYPE_INCR C:0b0000 L:XIL_AXI_ALOCK_NOLOCK P:0b000 <<<
Warning: [AW_REACTIVE_33] (axi_vip_pkg.axi_transaction::set_cache) 1695000 : Attempted to send CACHE(0x0000) when SUPPORTS_NARROW is low. According to UG1037,AxCACHE[1] has to be 1 to ensure that any downstream upsizer can fully pack data up to wider widths
Time: 1695 ns  Iteration: 0  Process: /axi_vip_pkg/axi_slv_wr_driver(C_AXI_ADDR_WIDTH=40,C_AXI_WDATA_WIDTH=128,C_AXI_RDATA_WIDTH=128,C_AXI_WID_WIDTH=6,C_AXI_RID_WIDTH=6,C_AXI_AWUSER_WIDTH=1,C_AXI_ARUSER_WIDTH=1,C_AXI_SUPPORTS_NARROW=0,C_AXI_HAS_REGION=0)::get_and_drive/GET_AND_DRIVE  File: /wrk/2017.4/nightly/2017_12_15_2086221/prep/rdi/vivado/data/xilinx_vip/hdl/axi_vip_pkg.sv
INFO: [Slave VIP_wr_driver] (axi_vip_pkg.axi_slv_wr_driver(C_AXI_ADDR_WIDTH=40,C_AXI_WDATA_WIDTH=128,C_AXI_RDATA_WIDTH=128,C_AXI_WID_WIDTH=6,C_AXI_RID_WIDTH=6,C_AXI_AWUSER_WIDTH=1,C_AXI_ARUSER_WIDTH=1,C_AXI_SUPPORTS_NARROW=0,C_AXI_HAS_REGION=0)::get_and_drive.GET_AND_DRIVE) 1695000 : GNI : XIL_AXI_WRITE (42) A:0x0000000800000000 ID:0x00000021 len:0x03 XIL_AXI_SIZE_16BYTE XIL_AXI_BURST_TYPE_INCR C:0b0000 L:XIL_AXI_ALOCK_NOLOCK P:0b000
INFO: [Slave VIP_wr_driver] (axi_vip_pkg.axi_slv_wr_driver(C_AXI_ADDR_WIDTH=40,C_AXI_WDATA_WIDTH=128,C_AXI_RDATA_WIDTH=128,C_AXI_WID_WIDTH=6,C_AXI_RID_WIDTH=6,C_AXI_AWUSER_WIDTH=1,C_AXI_ARUSER_WIDTH=1,C_AXI_SUPPORTS_NARROW=0,C_AXI_HAS_REGION=0)::push_b_q) 1695000 : B PUSH (         0)
INFO: [Slave VIP_wr_driver] (axi_vip_pkg.axi_slv_wr_driver(C_AXI_ADDR_WIDTH=40,C_AXI_WDATA_WIDTH=128,C_AXI_RDATA_WIDTH=128,C_AXI_WID_WIDTH=6,C_AXI_RID_WIDTH=6,C_AXI_AWUSER_WIDTH=1,C_AXI_ARUSER_WIDTH=1,C_AXI_SUPPORTS_NARROW=0,C_AXI_HAS_REGION=0)::push_b_q) 1695000 : ID=0x00000021 - State 0b0111
Entries in BQ : NumEntries:         0 >>> 
 <<<
Command       : XIL_AXI_WRITE (42) A:0x0000000800000000 ID:0x00000021 len:0x03 XIL_AXI_SIZE_16BYTE XIL_AXI_BURST_TYPE_INCR C:0b0000 L:XIL_AXI_ALOCK_NOLOCK P:0b000
INFO: [Master VIP_wr_driver] (axi_vip_pkg.axi_mst_wr_driver(C_AXI_ADDR_WIDTH=40,C_AXI_WDATA_WIDTH=128,C_AXI_RDATA_WIDTH=128,C_AXI_WID_WIDTH=16,C_AXI_RID_WIDTH=16,C_AXI_AWUSER_WIDTH=16,C_AXI_ARUSER_WIDTH=16)::service_done_q.SERVICE_DONE_Q) 1705000 : SERVICE_DONE_Q: XIL_AXI_WRITE (38) A:0x0000004800000000 ID:0x0000042d len:0x03 XIL_AXI_SIZE_16BYTE XIL_AXI_BURST_TYPE_INCR C:0b0000 L:XIL_AXI_ALOCK_NOLOCK P:0b000
INFO: [Slave VIP_wr_driver] (axi_vip_pkg.axi_slv_wr_driver(C_AXI_ADDR_WIDTH=40,C_AXI_WDATA_WIDTH=128,C_AXI_RDATA_WIDTH=128,C_AXI_WID_WIDTH=6,C_AXI_RID_WIDTH=6,C_AXI_AWUSER_WIDTH=1,C_AXI_ARUSER_WIDTH=1,C_AXI_SUPPORTS_NARROW=0,C_AXI_HAS_REGION=0)::service_done_q.SERVICE_DONE_Q) 1705000 : SERVICE_DONE_Q: XIL_AXI_WRITE (42) A:0x0000000800000000 ID:0x00000021 len:0x03 XIL_AXI_SIZE_16BYTE XIL_AXI_BURST_TYPE_INCR C:0b0000 L:XIL_AXI_ALOCK_NOLOCK P:0b000
$finish called at time : 1755 ns : File "/home/denis/github/MemorEDF/rtl/MemorEDF/MemorEDF.srcs/sim_1/new/TB_MemorEDF.sv" Line 184
