Vivado Simulator 2017.4
Time resolution is 1 ps
INFO: ID width is 16 bigger than 16, AXI protocol Checker will not be instantiated in this case 
XilinxAXIVIP: Found at Path: TB_MemorEDF.DUT.design_1_i.axi_vip_0.inst
INFO: ID width is 16 bigger than 16, AXI protocol Checker will not be instantiated in this case 
XilinxAXIVIP: Found at Path: TB_MemorEDF.DUT.design_1_i.axi_vip_1.inst
INFO: ID width is 16 bigger than 16, AXI protocol Checker will not be instantiated in this case 
XilinxAXIVIP: Found at Path: TB_MemorEDF.DUT.design_1_i.axi_vip_2.inst
INFO: [Master VIP_rd_driver] (.axi_vip_pkg.axi_mst_rd_driver(C_AXI_WDATA_WIDTH=128,C_AXI_RDATA_WIDTH=128,C_AXI_WID_WIDTH=16,C_AXI_RID_WIDTH=16,C_AXI_AWUSER_WIDTH=16,C_AXI_ARUSER_WIDTH=16)::run_phase.Block10873_279.) 25001 : run()
INFO: [Master VIP_wr_driver] (.axi_vip_pkg.axi_mst_wr_driver(C_AXI_WDATA_WIDTH=128,C_AXI_RDATA_WIDTH=128,C_AXI_WID_WIDTH=16,C_AXI_RID_WIDTH=16,C_AXI_AWUSER_WIDTH=16,C_AXI_ARUSER_WIDTH=16)::run_phase.Block9793_233.) 25001 : run()
INFO: [Master VIP_monitor] (.axi_vip_pkg.axi_monitor(C_AXI_WDATA_WIDTH=128,C_AXI_RDATA_WIDTH=128,C_AXI_WID_WIDTH=16,C_AXI_RID_WIDTH=16,C_AXI_AWUSER_WIDTH=16,C_AXI_ARUSER_WIDTH=16)::run_phase.Block8620_200.) 25001 : run()
INFO: [Slave VIP_rd_driver] (.axi_vip_pkg.axi_slv_rd_driver(C_AXI_ADDR_WIDTH=40,C_AXI_WDATA_WIDTH=128,C_AXI_RDATA_WIDTH=128,C_AXI_WID_WIDTH=16,C_AXI_RID_WIDTH=16,C_AXI_AWUSER_WIDTH=16,C_AXI_ARUSER_WIDTH=16,C_AXI_HAS_REGION=0)::run_phase.Block14104_377.) 25001 : run()
INFO: [Slave VIP_wr_driver] (.axi_vip_pkg.axi_slv_wr_driver(C_AXI_ADDR_WIDTH=40,C_AXI_WDATA_WIDTH=128,C_AXI_RDATA_WIDTH=128,C_AXI_WID_WIDTH=16,C_AXI_RID_WIDTH=16,C_AXI_AWUSER_WIDTH=16,C_AXI_ARUSER_WIDTH=16,C_AXI_HAS_REGION=0)::run_phase.Block12612_326.) 25001 : run()
INFO: [Slave VIP_monitor] (.axi_vip_pkg.axi_monitor(C_AXI_ADDR_WIDTH=40,C_AXI_WDATA_WIDTH=128,C_AXI_RDATA_WIDTH=128,C_AXI_WID_WIDTH=16,C_AXI_RID_WIDTH=16,C_AXI_AWUSER_WIDTH=16,C_AXI_ARUSER_WIDTH=16,C_AXI_HAS_REGION=0)::run_phase.Block8620_217.) 25001 : run()
INFO: [Master VIP_rd_driver] (.axi_vip_pkg.axi_mst_rd_driver(C_AXI_WDATA_WIDTH=128,C_AXI_RDATA_WIDTH=128,C_AXI_WID_WIDTH=16,C_AXI_RID_WIDTH=16,C_AXI_AWUSER_WIDTH=16,C_AXI_ARUSER_WIDTH=16)::run_phase.Block10873_279.) 25001 : run()
INFO: [Master VIP_wr_driver] (.axi_vip_pkg.axi_mst_wr_driver(C_AXI_WDATA_WIDTH=128,C_AXI_RDATA_WIDTH=128,C_AXI_WID_WIDTH=16,C_AXI_RID_WIDTH=16,C_AXI_AWUSER_WIDTH=16,C_AXI_ARUSER_WIDTH=16)::run_phase.Block9793_233.) 25001 : run()
INFO: [Master VIP_monitor] (.axi_vip_pkg.axi_monitor(C_AXI_WDATA_WIDTH=128,C_AXI_RDATA_WIDTH=128,C_AXI_WID_WIDTH=16,C_AXI_RID_WIDTH=16,C_AXI_AWUSER_WIDTH=16,C_AXI_ARUSER_WIDTH=16)::run_phase.Block8620_200.) 25001 : run()
INFO: [Master VIP_wr_driver] (axi_vip_pkg.axi_mst_wr_driver(C_AXI_WDATA_WIDTH=128,C_AXI_RDATA_WIDTH=128,C_AXI_WID_WIDTH=16,C_AXI_RID_WIDTH=16,C_AXI_AWUSER_WIDTH=16,C_AXI_ARUSER_WIDTH=16)::get_and_drive.GET_AND_DRIVE) 40000 : Sending transaction: 
INFO: [Master VIP_wr_driver] (axi_vip_pkg.axi_mst_wr_driver(C_AXI_WDATA_WIDTH=128,C_AXI_RDATA_WIDTH=128,C_AXI_WID_WIDTH=16,C_AXI_RID_WIDTH=16,C_AXI_AWUSER_WIDTH=16,C_AXI_ARUSER_WIDTH=16)::get_and_drive.GET_AND_DRIVE) 40000 : ---------------------------------------------------------------------------------------------
  Name                         Value
---------------------------------------------------------------------------------------------
  CMD                          XIL_AXI_WRITE
  ADDR                         0x0000000000000000 
  WID                          0x00000000
  LEN                          0x00
  SIZE                         0x100
  BURST                        0x01
  CACHE                        0x0000
  LOCK                         0x00
  PROT                         0x000
  REGION                       0x0000
  QOS                          0x0000
  AWUSER                       0x0000
  BRESP                        XIL_AXI_RESP_OKAY
  DRIVER_RETURN_ITEM           XIL_AXI_PAYLOAD_RETURN 
  CREATION_TIME                40000
  SUBMIT_TIME                  0
  PAYLOAD                      16
    BEAT[          0]          0x00000000000000000000000000000100 (strb : 0b1111111111111111) :beat_delay:         0
--------------------------------------------------------------------------------------------
INFO: [Master VIP_wr_driver] (axi_vip_pkg.axi_mst_wr_driver(C_AXI_WDATA_WIDTH=128,C_AXI_RDATA_WIDTH=128,C_AXI_WID_WIDTH=16,C_AXI_RID_WIDTH=16,C_AXI_AWUSER_WIDTH=16,C_AXI_ARUSER_WIDTH=16)::w_channel.W_CHANNEL.Block10274_265.Block10274_266) 115000 : WREADY+WLAST (         0) id=0x00000000
INFO: [Master VIP_wr_driver] (axi_vip_pkg.axi_mst_wr_driver(C_AXI_WDATA_WIDTH=128,C_AXI_RDATA_WIDTH=128,C_AXI_WID_WIDTH=16,C_AXI_RID_WIDTH=16,C_AXI_AWUSER_WIDTH=16,C_AXI_ARUSER_WIDTH=16)::service_done_q.SERVICE_DONE_Q) 125000 : SERVICE_DONE_Q: XIL_AXI_WRITE (0) A:0x0000000000000000 ID:0x00000000 len:0x00 XIL_AXI_SIZE_16BYTE XIL_AXI_BURST_TYPE_INCR C:0b0000 L:XIL_AXI_ALOCK_NOLOCK P:0b000
INFO: [Master VIP_wr_driver] (axi_vip_pkg.axi_mst_wr_driver(C_AXI_WDATA_WIDTH=128,C_AXI_RDATA_WIDTH=128,C_AXI_WID_WIDTH=16,C_AXI_RID_WIDTH=16,C_AXI_AWUSER_WIDTH=16,C_AXI_ARUSER_WIDTH=16)::get_and_drive.GET_AND_DRIVE) 145000 : Sending transaction: 
INFO: [Master VIP_wr_driver] (axi_vip_pkg.axi_mst_wr_driver(C_AXI_WDATA_WIDTH=128,C_AXI_RDATA_WIDTH=128,C_AXI_WID_WIDTH=16,C_AXI_RID_WIDTH=16,C_AXI_AWUSER_WIDTH=16,C_AXI_ARUSER_WIDTH=16)::get_and_drive.GET_AND_DRIVE) 145000 : ---------------------------------------------------------------------------------------------
  Name                         Value
---------------------------------------------------------------------------------------------
  CMD                          XIL_AXI_WRITE
  ADDR                         0x0000000000000010 
  WID                          0x00000000
  LEN                          0x00
  SIZE                         0x100
  BURST                        0x01
  CACHE                        0x0000
  LOCK                         0x00
  PROT                         0x000
  REGION                       0x0000
  QOS                          0x0000
  AWUSER                       0x0000
  BRESP                        XIL_AXI_RESP_OKAY
  DRIVER_RETURN_ITEM           XIL_AXI_PAYLOAD_RETURN 
  CREATION_TIME                145000
  SUBMIT_TIME                  0
  PAYLOAD                      16
    BEAT[          0]          0x00000000000000000000000000000000 (strb : 0b1111111111111111) :beat_delay:         0
--------------------------------------------------------------------------------------------
INFO: [Master VIP_wr_driver] (axi_vip_pkg.axi_mst_wr_driver(C_AXI_WDATA_WIDTH=128,C_AXI_RDATA_WIDTH=128,C_AXI_WID_WIDTH=16,C_AXI_RID_WIDTH=16,C_AXI_AWUSER_WIDTH=16,C_AXI_ARUSER_WIDTH=16)::w_channel.W_CHANNEL.Block10274_265.Block10274_266) 225000 : WREADY+WLAST (         0) id=0x00000000
INFO: [Master VIP_wr_driver] (axi_vip_pkg.axi_mst_wr_driver(C_AXI_WDATA_WIDTH=128,C_AXI_RDATA_WIDTH=128,C_AXI_WID_WIDTH=16,C_AXI_RID_WIDTH=16,C_AXI_AWUSER_WIDTH=16,C_AXI_ARUSER_WIDTH=16)::service_done_q.SERVICE_DONE_Q) 235000 : SERVICE_DONE_Q: XIL_AXI_WRITE (4) A:0x0000000000000010 ID:0x00000000 len:0x00 XIL_AXI_SIZE_16BYTE XIL_AXI_BURST_TYPE_INCR C:0b0000 L:XIL_AXI_ALOCK_NOLOCK P:0b000
INFO: [Master VIP_wr_driver] (axi_vip_pkg.axi_mst_wr_driver(C_AXI_WDATA_WIDTH=128,C_AXI_RDATA_WIDTH=128,C_AXI_WID_WIDTH=16,C_AXI_RID_WIDTH=16,C_AXI_AWUSER_WIDTH=16,C_AXI_ARUSER_WIDTH=16)::get_and_drive.GET_AND_DRIVE) 255000 : Sending transaction: 
INFO: [Master VIP_wr_driver] (axi_vip_pkg.axi_mst_wr_driver(C_AXI_WDATA_WIDTH=128,C_AXI_RDATA_WIDTH=128,C_AXI_WID_WIDTH=16,C_AXI_RID_WIDTH=16,C_AXI_AWUSER_WIDTH=16,C_AXI_ARUSER_WIDTH=16)::get_and_drive.GET_AND_DRIVE) 255000 : ---------------------------------------------------------------------------------------------
  Name                         Value
---------------------------------------------------------------------------------------------
  CMD                          XIL_AXI_WRITE
  ADDR                         0x0000000000000020 
  WID                          0x00000000
  LEN                          0x00
  SIZE                         0x100
  BURST                        0x01
  CACHE                        0x0000
  LOCK                         0x00
  PROT                         0x000
  REGION                       0x0000
  QOS                          0x0000
  AWUSER                       0x0000
  BRESP                        XIL_AXI_RESP_OKAY
  DRIVER_RETURN_ITEM           XIL_AXI_PAYLOAD_RETURN 
  CREATION_TIME                255000
  SUBMIT_TIME                  0
  PAYLOAD                      16
    BEAT[          0]          0x0000000000000000000000000f0e0d0c (strb : 0b1111111111111111) :beat_delay:         0
--------------------------------------------------------------------------------------------
INFO: [Master VIP_wr_driver] (axi_vip_pkg.axi_mst_wr_driver(C_AXI_WDATA_WIDTH=128,C_AXI_RDATA_WIDTH=128,C_AXI_WID_WIDTH=16,C_AXI_RID_WIDTH=16,C_AXI_AWUSER_WIDTH=16,C_AXI_ARUSER_WIDTH=16)::w_channel.W_CHANNEL.Block10274_265.Block10274_266) 335000 : WREADY+WLAST (         0) id=0x00000000
INFO: [Master VIP_wr_driver] (axi_vip_pkg.axi_mst_wr_driver(C_AXI_WDATA_WIDTH=128,C_AXI_RDATA_WIDTH=128,C_AXI_WID_WIDTH=16,C_AXI_RID_WIDTH=16,C_AXI_AWUSER_WIDTH=16,C_AXI_ARUSER_WIDTH=16)::service_done_q.SERVICE_DONE_Q) 345000 : SERVICE_DONE_Q: XIL_AXI_WRITE (8) A:0x0000000000000020 ID:0x00000000 len:0x00 XIL_AXI_SIZE_16BYTE XIL_AXI_BURST_TYPE_INCR C:0b0000 L:XIL_AXI_ALOCK_NOLOCK P:0b000
INFO: [Master VIP_wr_driver] (axi_vip_pkg.axi_mst_wr_driver(C_AXI_WDATA_WIDTH=128,C_AXI_RDATA_WIDTH=128,C_AXI_WID_WIDTH=16,C_AXI_RID_WIDTH=16,C_AXI_AWUSER_WIDTH=16,C_AXI_ARUSER_WIDTH=16)::get_and_drive.GET_AND_DRIVE) 365000 : Sending transaction: 
INFO: [Master VIP_wr_driver] (axi_vip_pkg.axi_mst_wr_driver(C_AXI_WDATA_WIDTH=128,C_AXI_RDATA_WIDTH=128,C_AXI_WID_WIDTH=16,C_AXI_RID_WIDTH=16,C_AXI_AWUSER_WIDTH=16,C_AXI_ARUSER_WIDTH=16)::get_and_drive.GET_AND_DRIVE) 365000 : ---------------------------------------------------------------------------------------------
  Name                         Value
---------------------------------------------------------------------------------------------
  CMD                          XIL_AXI_WRITE
  ADDR                         0x0000000000000024 
  WID                          0x00000000
  LEN                          0x00
  SIZE                         0x100
  BURST                        0x01
  CACHE                        0x0000
  LOCK                         0x00
  PROT                         0x000
  REGION                       0x0000
  QOS                          0x0000
  AWUSER                       0x0000
  BRESP                        XIL_AXI_RESP_OKAY
  DRIVER_RETURN_ITEM           XIL_AXI_PAYLOAD_RETURN 
  CREATION_TIME                365000
  SUBMIT_TIME                  0
  PAYLOAD                      16
    BEAT[          0]          0x00000000000000000000000200000000 (strb : 0b1111111111110000) :beat_delay:         0
--------------------------------------------------------------------------------------------
INFO: [Master VIP_wr_driver] (axi_vip_pkg.axi_mst_wr_driver(C_AXI_WDATA_WIDTH=128,C_AXI_RDATA_WIDTH=128,C_AXI_WID_WIDTH=16,C_AXI_RID_WIDTH=16,C_AXI_AWUSER_WIDTH=16,C_AXI_ARUSER_WIDTH=16)::w_channel.W_CHANNEL.Block10274_265.Block10274_266) 445000 : WREADY+WLAST (         0) id=0x00000000
INFO: [Master VIP_wr_driver] (axi_vip_pkg.axi_mst_wr_driver(C_AXI_WDATA_WIDTH=128,C_AXI_RDATA_WIDTH=128,C_AXI_WID_WIDTH=16,C_AXI_RID_WIDTH=16,C_AXI_AWUSER_WIDTH=16,C_AXI_ARUSER_WIDTH=16)::service_done_q.SERVICE_DONE_Q) 455000 : SERVICE_DONE_Q: XIL_AXI_WRITE (12) A:0x0000000000000024 ID:0x00000000 len:0x00 XIL_AXI_SIZE_16BYTE XIL_AXI_BURST_TYPE_INCR C:0b0000 L:XIL_AXI_ALOCK_NOLOCK P:0b000
INFO: [Master VIP_rd_driver] (axi_vip_pkg.axi_mst_rd_driver(C_AXI_WDATA_WIDTH=128,C_AXI_RDATA_WIDTH=128,C_AXI_WID_WIDTH=16,C_AXI_RID_WIDTH=16,C_AXI_AWUSER_WIDTH=16,C_AXI_ARUSER_WIDTH=16)::ar_channel.AR_CHANNEL) 535001 : ARVALID id=0x00000000
INFO: [Master VIP_rd_driver] (axi_vip_pkg.axi_mst_rd_driver(C_AXI_WDATA_WIDTH=128,C_AXI_RDATA_WIDTH=128,C_AXI_WID_WIDTH=16,C_AXI_RID_WIDTH=16,C_AXI_AWUSER_WIDTH=16,C_AXI_ARUSER_WIDTH=16)::ar_channel.AR_CHANNEL) 595001 : ARVALID id=0x00000000
INFO: [Master VIP_rd_driver] (axi_vip_pkg.axi_mst_rd_driver(C_AXI_WDATA_WIDTH=128,C_AXI_RDATA_WIDTH=128,C_AXI_WID_WIDTH=16,C_AXI_RID_WIDTH=16,C_AXI_AWUSER_WIDTH=16,C_AXI_ARUSER_WIDTH=16)::ar_channel.AR_CHANNEL) 655001 : ARVALID id=0x00000000
INFO: [Master VIP_rd_driver] (axi_vip_pkg.axi_mst_rd_driver(C_AXI_WDATA_WIDTH=128,C_AXI_RDATA_WIDTH=128,C_AXI_WID_WIDTH=16,C_AXI_RID_WIDTH=16,C_AXI_AWUSER_WIDTH=16,C_AXI_ARUSER_WIDTH=16)::ar_channel.AR_CHANNEL) 715001 : ARVALID id=0x00000000
Data match, test succeeded
Warning: [continuous_wrburst_00000000] (axi_vip_pkg.axi_transaction::set_addr) 835000 : Attempted to send ADDR (0x0000000400000000) which is wider than addr_width (        32). Truncating ADDR to (0x0)
Time: 835 ns  Iteration: 0  Process: /axi_vip_pkg/axi_mst_wr_driver(C_AXI_WDATA_WIDTH=128,C_AXI_RDATA_WIDTH=128,C_AXI_WID_WIDTH=16,C_AXI_RID_WIDTH=16,C_AXI_AWUSER_WIDTH=16,C_AXI_ARUSER_WIDTH=16)::get_and_drive/GET_AND_DRIVE  File: /wrk/2017.4/nightly/2017_12_15_2086221/prep/rdi/vivado/data/xilinx_vip/hdl/axi_vip_pkg.sv
INFO: [Master VIP_wr_driver] (axi_vip_pkg.axi_mst_wr_driver(C_AXI_WDATA_WIDTH=128,C_AXI_RDATA_WIDTH=128,C_AXI_WID_WIDTH=16,C_AXI_RID_WIDTH=16,C_AXI_AWUSER_WIDTH=16,C_AXI_ARUSER_WIDTH=16)::get_and_drive.GET_AND_DRIVE) 835000 : Sending transaction: 
INFO: [Master VIP_wr_driver] (axi_vip_pkg.axi_mst_wr_driver(C_AXI_WDATA_WIDTH=128,C_AXI_RDATA_WIDTH=128,C_AXI_WID_WIDTH=16,C_AXI_RID_WIDTH=16,C_AXI_AWUSER_WIDTH=16,C_AXI_ARUSER_WIDTH=16)::get_and_drive.GET_AND_DRIVE) 835000 : ---------------------------------------------------------------------------------------------
  Name                         Value
---------------------------------------------------------------------------------------------
  CMD                          XIL_AXI_WRITE
  ADDR                         0x0000000000000000 
  WID                          0x000001ad
  LEN                          0x00
  SIZE                         0x010
  BURST                        0x01
  CACHE                        0x0110
  LOCK                         0x00
  PROT                         0x000
  REGION                       0x1101
  QOS                          0x1101
  AWUSER                       0x90cdb121ef2ed3dbb825a776457edc8e12ccec2061d7f0c4b212f96a8c7fc51ebfec0d7e8233ed0a4ae324944de3789adcbc05bae7d945ccfc4569fdbcd60b77c6da9f847b9a18f4fa1559f2635fb4c312307626c9c4bd978d99bf10aaa4b15bf23327e1d06333a9dcc603b27f2554f42f24185b897be7185d79a0b150fdd2a
  BRESP                        XIL_AXI_RESP_OKAY
  DRIVER_RETURN_ITEM           XIL_AXI_NO_RETURN 
  CREATION_TIME                835000
  SUBMIT_TIME                  0
  PAYLOAD                      4
    BEAT[          0]          0xcf1dae02 (strb : 0b1111) :beat_delay:         0
--------------------------------------------------------------------------------------------
Warning: [continuous_wrburst_00000001] (axi_vip_pkg.axi_transaction::set_addr) 835000 : Attempted to send ADDR (0x0000000400000004) which is wider than addr_width (        32). Truncating ADDR to (0x4)
Time: 835 ns  Iteration: 0  Process: /axi_vip_pkg/axi_mst_wr_driver(C_AXI_WDATA_WIDTH=128,C_AXI_RDATA_WIDTH=128,C_AXI_WID_WIDTH=16,C_AXI_RID_WIDTH=16,C_AXI_AWUSER_WIDTH=16,C_AXI_ARUSER_WIDTH=16)::get_and_drive/GET_AND_DRIVE  File: /wrk/2017.4/nightly/2017_12_15_2086221/prep/rdi/vivado/data/xilinx_vip/hdl/axi_vip_pkg.sv
INFO: [Master VIP_wr_driver] (axi_vip_pkg.axi_mst_wr_driver(C_AXI_WDATA_WIDTH=128,C_AXI_RDATA_WIDTH=128,C_AXI_WID_WIDTH=16,C_AXI_RID_WIDTH=16,C_AXI_AWUSER_WIDTH=16,C_AXI_ARUSER_WIDTH=16)::get_and_drive.GET_AND_DRIVE) 835000 : Sending transaction: 
INFO: [Master VIP_wr_driver] (axi_vip_pkg.axi_mst_wr_driver(C_AXI_WDATA_WIDTH=128,C_AXI_RDATA_WIDTH=128,C_AXI_WID_WIDTH=16,C_AXI_RID_WIDTH=16,C_AXI_AWUSER_WIDTH=16,C_AXI_ARUSER_WIDTH=16)::get_and_drive.GET_AND_DRIVE) 835000 : ---------------------------------------------------------------------------------------------
  Name                         Value
---------------------------------------------------------------------------------------------
  CMD                          XIL_AXI_WRITE
  ADDR                         0x0000000000000004 
  WID                          0x000001ad
  LEN                          0x00
  SIZE                         0x010
  BURST                        0x01
  CACHE                        0x0010
  LOCK                         0x00
  PROT                         0x110
  REGION                       0x0000
  QOS                          0x1101
  AWUSER                       0xdc037cb8caabd895dcf0a6b9fa0edef455dfd9ab77dd21ef983c7e3072a931e5c4c2fc8971fe91e3730059e61d3fcb3aba88cc754c179b98910d7622384503702c38ed58934a7226ebfae0d7af47ea5eb1aabe6309080f12622957c40208570414e96b29ac0420580f875f1fdc4adcb89557d02a83e91e07b4153c68326ccf64
  BRESP                        XIL_AXI_RESP_OKAY
  DRIVER_RETURN_ITEM           XIL_AXI_NO_RETURN 
  CREATION_TIME                835000
  SUBMIT_TIME                  0
  PAYLOAD                      4
    BEAT[          0]          0xaa6a4150 (strb : 0b1111) :beat_delay:         0
--------------------------------------------------------------------------------------------
Warning: [continuous_wrburst_00000002] (axi_vip_pkg.axi_transaction::set_addr) 835000 : Attempted to send ADDR (0x0000000400000008) which is wider than addr_width (        32). Truncating ADDR to (0x8)
Time: 835 ns  Iteration: 0  Process: /axi_vip_pkg/axi_mst_wr_driver(C_AXI_WDATA_WIDTH=128,C_AXI_RDATA_WIDTH=128,C_AXI_WID_WIDTH=16,C_AXI_RID_WIDTH=16,C_AXI_AWUSER_WIDTH=16,C_AXI_ARUSER_WIDTH=16)::get_and_drive/GET_AND_DRIVE  File: /wrk/2017.4/nightly/2017_12_15_2086221/prep/rdi/vivado/data/xilinx_vip/hdl/axi_vip_pkg.sv
INFO: [Master VIP_wr_driver] (axi_vip_pkg.axi_mst_wr_driver(C_AXI_WDATA_WIDTH=128,C_AXI_RDATA_WIDTH=128,C_AXI_WID_WIDTH=16,C_AXI_RID_WIDTH=16,C_AXI_AWUSER_WIDTH=16,C_AXI_ARUSER_WIDTH=16)::get_and_drive.GET_AND_DRIVE) 835000 : Sending transaction: 
INFO: [Master VIP_wr_driver] (axi_vip_pkg.axi_mst_wr_driver(C_AXI_WDATA_WIDTH=128,C_AXI_RDATA_WIDTH=128,C_AXI_WID_WIDTH=16,C_AXI_RID_WIDTH=16,C_AXI_AWUSER_WIDTH=16,C_AXI_ARUSER_WIDTH=16)::get_and_drive.GET_AND_DRIVE) 835000 : ---------------------------------------------------------------------------------------------
  Name                         Value
---------------------------------------------------------------------------------------------
  CMD                          XIL_AXI_WRITE
  ADDR                         0x0000000000000008 
  WID                          0x000001ad
  LEN                          0x00
  SIZE                         0x010
  BURST                        0x01
  CACHE                        0x0001
  LOCK                         0x00
  PROT                         0x110
  REGION                       0x1111
  QOS                          0x1101
  AWUSER                       0x1d4a433ae1911ec392c920258720b60e28734b5087fa8c0f0979c512b99f4e73559965ab025ea304fefdeefd18a6cb31b8302a70bf8b447f3517136a07aa6d0f7ad3ebf5b75a166e4501658ab2c33665539dbda77c547bf8f3a7dae79fb3ee3ff53772ea7d1799fab498266968ad19d190afa221d97850b24fb6bf9f64d0f9c9
  BRESP                        XIL_AXI_RESP_OKAY
  DRIVER_RETURN_ITEM           XIL_AXI_NO_RETURN 
  CREATION_TIME                835000
  SUBMIT_TIME                  0
  PAYLOAD                      4
    BEAT[          0]          0xf15c30b8 (strb : 0b1111) :beat_delay:         0
--------------------------------------------------------------------------------------------
Warning: [continuous_wrburst_00000003] (axi_vip_pkg.axi_transaction::set_addr) 835000 : Attempted to send ADDR (0x000000040000000c) which is wider than addr_width (        32). Truncating ADDR to (0xc)
Time: 835 ns  Iteration: 0  Process: /axi_vip_pkg/axi_mst_wr_driver(C_AXI_WDATA_WIDTH=128,C_AXI_RDATA_WIDTH=128,C_AXI_WID_WIDTH=16,C_AXI_RID_WIDTH=16,C_AXI_AWUSER_WIDTH=16,C_AXI_ARUSER_WIDTH=16)::get_and_drive/GET_AND_DRIVE  File: /wrk/2017.4/nightly/2017_12_15_2086221/prep/rdi/vivado/data/xilinx_vip/hdl/axi_vip_pkg.sv
INFO: [Master VIP_wr_driver] (axi_vip_pkg.axi_mst_wr_driver(C_AXI_WDATA_WIDTH=128,C_AXI_RDATA_WIDTH=128,C_AXI_WID_WIDTH=16,C_AXI_RID_WIDTH=16,C_AXI_AWUSER_WIDTH=16,C_AXI_ARUSER_WIDTH=16)::get_and_drive.GET_AND_DRIVE) 835000 : Sending transaction: 
INFO: [Master VIP_wr_driver] (axi_vip_pkg.axi_mst_wr_driver(C_AXI_WDATA_WIDTH=128,C_AXI_RDATA_WIDTH=128,C_AXI_WID_WIDTH=16,C_AXI_RID_WIDTH=16,C_AXI_AWUSER_WIDTH=16,C_AXI_ARUSER_WIDTH=16)::get_and_drive.GET_AND_DRIVE) 835000 : ---------------------------------------------------------------------------------------------
  Name                         Value
---------------------------------------------------------------------------------------------
  CMD                          XIL_AXI_WRITE
  ADDR                         0x000000000000000c 
  WID                          0x000001ad
  LEN                          0x00
  SIZE                         0x010
  BURST                        0x01
  CACHE                        0x0010
  LOCK                         0x00
  PROT                         0x001
  REGION                       0x1001
  QOS                          0x1001
  AWUSER                       0xc4e92c89efd8b4df6dfa2ddbae9f805d78772df0e3019cc644a95189de3c40bcf4502ae85150bfa22e43d55c220f2544760a1beca8dfde5128268f50233451466eadb3ddb4467e688663100ca58fa84ba36a6446aa1de6545d53b1ba23b0d147f50a64eabe45167cb3ef806796772a2c4226a98478e4d7f1d2de54a50c75df18
  BRESP                        XIL_AXI_RESP_OKAY
  DRIVER_RETURN_ITEM           XIL_AXI_NO_RETURN 
  CREATION_TIME                835000
  SUBMIT_TIME                  0
  PAYLOAD                      4
    BEAT[          0]          0x11c9f832 (strb : 0b1111) :beat_delay:         0
--------------------------------------------------------------------------------------------
Warning: [continuous_wrburst_00000004] (axi_vip_pkg.axi_transaction::set_addr) 835000 : Attempted to send ADDR (0x0000000400000010) which is wider than addr_width (        32). Truncating ADDR to (0x10)
Time: 835 ns  Iteration: 0  Process: /axi_vip_pkg/axi_mst_wr_driver(C_AXI_WDATA_WIDTH=128,C_AXI_RDATA_WIDTH=128,C_AXI_WID_WIDTH=16,C_AXI_RID_WIDTH=16,C_AXI_AWUSER_WIDTH=16,C_AXI_ARUSER_WIDTH=16)::get_and_drive/GET_AND_DRIVE  File: /wrk/2017.4/nightly/2017_12_15_2086221/prep/rdi/vivado/data/xilinx_vip/hdl/axi_vip_pkg.sv
INFO: [Master VIP_wr_driver] (axi_vip_pkg.axi_mst_wr_driver(C_AXI_WDATA_WIDTH=128,C_AXI_RDATA_WIDTH=128,C_AXI_WID_WIDTH=16,C_AXI_RID_WIDTH=16,C_AXI_AWUSER_WIDTH=16,C_AXI_ARUSER_WIDTH=16)::get_and_drive.GET_AND_DRIVE) 835000 : Sending transaction: 
INFO: [Master VIP_wr_driver] (axi_vip_pkg.axi_mst_wr_driver(C_AXI_WDATA_WIDTH=128,C_AXI_RDATA_WIDTH=128,C_AXI_WID_WIDTH=16,C_AXI_RID_WIDTH=16,C_AXI_AWUSER_WIDTH=16,C_AXI_ARUSER_WIDTH=16)::get_and_drive.GET_AND_DRIVE) 835000 : ---------------------------------------------------------------------------------------------
  Name                         Value
---------------------------------------------------------------------------------------------
  CMD                          XIL_AXI_WRITE
  ADDR                         0x0000000000000010 
  WID                          0x000001ad
  LEN                          0x00
  SIZE                         0x010
  BURST                        0x01
  CACHE                        0x1110
  LOCK                         0x00
  PROT                         0x110
  REGION                       0x0011
  QOS                          0x0101
  AWUSER                       0x3afa797525708b4a8952061231bc29631d8b773b85b2040b930c2826fd4080fa2cbd8b5975be3deb2bb637571317af262c7e0d58c303d2864b75639678e7b7f10da7111b0cd12d197a0da1f411b05d2320136740cab86e952ad5a755958f242bc572a88a16b37d2d2b6ae7562743514e78dd25f15f07f9bed92594b20b71e916
  BRESP                        XIL_AXI_RESP_OKAY
  DRIVER_RETURN_ITEM           XIL_AXI_NO_RETURN 
  CREATION_TIME                835000
  SUBMIT_TIME                  0
  PAYLOAD                      4
    BEAT[          0]          0x3cb70727 (strb : 0b1111) :beat_delay:         0
--------------------------------------------------------------------------------------------
Warning: [continuous_wrburst_00000005] (axi_vip_pkg.axi_transaction::set_addr) 835000 : Attempted to send ADDR (0x0000000400000014) which is wider than addr_width (        32). Truncating ADDR to (0x14)
Time: 835 ns  Iteration: 0  Process: /axi_vip_pkg/axi_mst_wr_driver(C_AXI_WDATA_WIDTH=128,C_AXI_RDATA_WIDTH=128,C_AXI_WID_WIDTH=16,C_AXI_RID_WIDTH=16,C_AXI_AWUSER_WIDTH=16,C_AXI_ARUSER_WIDTH=16)::get_and_drive/GET_AND_DRIVE  File: /wrk/2017.4/nightly/2017_12_15_2086221/prep/rdi/vivado/data/xilinx_vip/hdl/axi_vip_pkg.sv
INFO: [Master VIP_wr_driver] (axi_vip_pkg.axi_mst_wr_driver(C_AXI_WDATA_WIDTH=128,C_AXI_RDATA_WIDTH=128,C_AXI_WID_WIDTH=16,C_AXI_RID_WIDTH=16,C_AXI_AWUSER_WIDTH=16,C_AXI_ARUSER_WIDTH=16)::get_and_drive.GET_AND_DRIVE) 835000 : Sending transaction: 
INFO: [Master VIP_wr_driver] (axi_vip_pkg.axi_mst_wr_driver(C_AXI_WDATA_WIDTH=128,C_AXI_RDATA_WIDTH=128,C_AXI_WID_WIDTH=16,C_AXI_RID_WIDTH=16,C_AXI_AWUSER_WIDTH=16,C_AXI_ARUSER_WIDTH=16)::get_and_drive.GET_AND_DRIVE) 835000 : ---------------------------------------------------------------------------------------------
  Name                         Value
---------------------------------------------------------------------------------------------
  CMD                          XIL_AXI_WRITE
  ADDR                         0x0000000000000014 
  WID                          0x000001ad
  LEN                          0x00
  SIZE                         0x010
  BURST                        0x01
  CACHE                        0x0001
  LOCK                         0x00
  PROT                         0x010
  REGION                       0x0110
  QOS                          0x1100
  AWUSER                       0x1167352226bf554df391b6e7827950043970cb72b7d0726f71012de254abeba9bc1c44789676402c933046269495fa2989fb541369f53fd3d8919ab12100694251b671a3e743b2ce78507bf0798fd5f3c080ca81bf4da07e65a4fbcb9b68a436cd4c569a02f8cb05dfe7f0bfdd92fcbb42bdcb8500e8b901a366ee46311ec162
  BRESP                        XIL_AXI_RESP_OKAY
  DRIVER_RETURN_ITEM           XIL_AXI_NO_RETURN 
  CREATION_TIME                835000
  SUBMIT_TIME                  0
  PAYLOAD                      4
    BEAT[          0]          0xe8dde12d (strb : 0b1111) :beat_delay:         0
--------------------------------------------------------------------------------------------
Warning: [continuous_wrburst_00000006] (axi_vip_pkg.axi_transaction::set_addr) 835000 : Attempted to send ADDR (0x0000000400000018) which is wider than addr_width (        32). Truncating ADDR to (0x18)
Time: 835 ns  Iteration: 0  Process: /axi_vip_pkg/axi_mst_wr_driver(C_AXI_WDATA_WIDTH=128,C_AXI_RDATA_WIDTH=128,C_AXI_WID_WIDTH=16,C_AXI_RID_WIDTH=16,C_AXI_AWUSER_WIDTH=16,C_AXI_ARUSER_WIDTH=16)::get_and_drive/GET_AND_DRIVE  File: /wrk/2017.4/nightly/2017_12_15_2086221/prep/rdi/vivado/data/xilinx_vip/hdl/axi_vip_pkg.sv
INFO: [Master VIP_wr_driver] (axi_vip_pkg.axi_mst_wr_driver(C_AXI_WDATA_WIDTH=128,C_AXI_RDATA_WIDTH=128,C_AXI_WID_WIDTH=16,C_AXI_RID_WIDTH=16,C_AXI_AWUSER_WIDTH=16,C_AXI_ARUSER_WIDTH=16)::get_and_drive.GET_AND_DRIVE) 835000 : Sending transaction: 
INFO: [Master VIP_wr_driver] (axi_vip_pkg.axi_mst_wr_driver(C_AXI_WDATA_WIDTH=128,C_AXI_RDATA_WIDTH=128,C_AXI_WID_WIDTH=16,C_AXI_RID_WIDTH=16,C_AXI_AWUSER_WIDTH=16,C_AXI_ARUSER_WIDTH=16)::get_and_drive.GET_AND_DRIVE) 835000 : ---------------------------------------------------------------------------------------------
  Name                         Value
---------------------------------------------------------------------------------------------
  CMD                          XIL_AXI_WRITE
  ADDR                         0x0000000000000018 
  WID                          0x000001ad
  LEN                          0x00
  SIZE                         0x010
  BURST                        0x01
  CACHE                        0x1111
  LOCK                         0x00
  PROT                         0x110
  REGION                       0x0001
  QOS                          0x1111
  AWUSER                       0x8c59f2186dc783db7728efee8776f40e13fe992776a78fedc5e9268bd27beea4f85f1cf07db42bfbc4ce6a898059740068568fd0ff40bafe8fb5b21fa78c464f4030c980e81460d076feb1ed305eeb602d7e595a948e0229773fdbee976da42e97a8962fe78846cf67ba63cf81ea7803e14596c25cfd8db9538e3da767a12bcf
  BRESP                        XIL_AXI_RESP_OKAY
  DRIVER_RETURN_ITEM           XIL_AXI_NO_RETURN 
  CREATION_TIME                835000
  SUBMIT_TIME                  0
  PAYLOAD                      4
    BEAT[          0]          0xd31daf3c (strb : 0b1111) :beat_delay:         0
--------------------------------------------------------------------------------------------
Warning: [continuous_wrburst_00000007] (axi_vip_pkg.axi_transaction::set_addr) 835000 : Attempted to send ADDR (0x000000040000001c) which is wider than addr_width (        32). Truncating ADDR to (0x1c)
Time: 835 ns  Iteration: 0  Process: /axi_vip_pkg/axi_mst_wr_driver(C_AXI_WDATA_WIDTH=128,C_AXI_RDATA_WIDTH=128,C_AXI_WID_WIDTH=16,C_AXI_RID_WIDTH=16,C_AXI_AWUSER_WIDTH=16,C_AXI_ARUSER_WIDTH=16)::get_and_drive/GET_AND_DRIVE  File: /wrk/2017.4/nightly/2017_12_15_2086221/prep/rdi/vivado/data/xilinx_vip/hdl/axi_vip_pkg.sv
INFO: [Master VIP_wr_driver] (axi_vip_pkg.axi_mst_wr_driver(C_AXI_WDATA_WIDTH=128,C_AXI_RDATA_WIDTH=128,C_AXI_WID_WIDTH=16,C_AXI_RID_WIDTH=16,C_AXI_AWUSER_WIDTH=16,C_AXI_ARUSER_WIDTH=16)::get_and_drive.GET_AND_DRIVE) 835000 : Sending transaction: 
INFO: [Master VIP_wr_driver] (axi_vip_pkg.axi_mst_wr_driver(C_AXI_WDATA_WIDTH=128,C_AXI_RDATA_WIDTH=128,C_AXI_WID_WIDTH=16,C_AXI_RID_WIDTH=16,C_AXI_AWUSER_WIDTH=16,C_AXI_ARUSER_WIDTH=16)::get_and_drive.GET_AND_DRIVE) 835000 : ---------------------------------------------------------------------------------------------
  Name                         Value
---------------------------------------------------------------------------------------------
  CMD                          XIL_AXI_WRITE
  ADDR                         0x000000000000001c 
  WID                          0x000001ad
  LEN                          0x00
  SIZE                         0x010
  BURST                        0x01
  CACHE                        0x1110
  LOCK                         0x00
  PROT                         0x100
  REGION                       0x0110
  QOS                          0x0111
  AWUSER                       0x24cb7749d34664a6d5b1b0abaabc8a557ff5bbff13851d27dc786ab86da3c1dba9e984538a1ab814abb5d0573c71837894084828e89a7ad1d4a630a9701f75e09d2e3a3a973d642e1a02a3343a56f97485e6500b65e63dcb8114f80206d5370d935e3c2666e587cd738bc9e7708f0fe1d51a74aab77d866ec60e648cee9526dd
  BRESP                        XIL_AXI_RESP_OKAY
  DRIVER_RETURN_ITEM           XIL_AXI_NO_RETURN 
  CREATION_TIME                835000
  SUBMIT_TIME                  0
  PAYLOAD                      4
    BEAT[          0]          0xa7712681 (strb : 0b1111) :beat_delay:         0
--------------------------------------------------------------------------------------------
INFO: [Master VIP_wr_driver] (axi_vip_pkg.axi_mst_wr_driver(C_AXI_WDATA_WIDTH=128,C_AXI_RDATA_WIDTH=128,C_AXI_WID_WIDTH=16,C_AXI_RID_WIDTH=16,C_AXI_AWUSER_WIDTH=16,C_AXI_ARUSER_WIDTH=16)::w_channel.W_CHANNEL.Block10274_265.Block10274_266) 875000 : WREADY+WLAST (         0) id=0x000001ad
INFO: [Master VIP_wr_driver] (axi_vip_pkg.axi_mst_wr_driver(C_AXI_WDATA_WIDTH=128,C_AXI_RDATA_WIDTH=128,C_AXI_WID_WIDTH=16,C_AXI_RID_WIDTH=16,C_AXI_AWUSER_WIDTH=16,C_AXI_ARUSER_WIDTH=16)::w_channel.W_CHANNEL.Block10274_265.Block10274_266) 905000 : WREADY+WLAST (         0) id=0x000001ad
INFO: [Master VIP_wr_driver] (axi_vip_pkg.axi_mst_wr_driver(C_AXI_WDATA_WIDTH=128,C_AXI_RDATA_WIDTH=128,C_AXI_WID_WIDTH=16,C_AXI_RID_WIDTH=16,C_AXI_AWUSER_WIDTH=16,C_AXI_ARUSER_WIDTH=16)::w_channel.W_CHANNEL.Block10274_265.Block10274_266) 935000 : WREADY+WLAST (         0) id=0x000001ad
INFO: [Master VIP_wr_driver] (axi_vip_pkg.axi_mst_wr_driver(C_AXI_WDATA_WIDTH=128,C_AXI_RDATA_WIDTH=128,C_AXI_WID_WIDTH=16,C_AXI_RID_WIDTH=16,C_AXI_AWUSER_WIDTH=16,C_AXI_ARUSER_WIDTH=16)::w_channel.W_CHANNEL.Block10274_265.Block10274_266) 965000 : WREADY+WLAST (         0) id=0x000001ad
INFO: [Master VIP_wr_driver] (axi_vip_pkg.axi_mst_wr_driver(C_AXI_WDATA_WIDTH=128,C_AXI_RDATA_WIDTH=128,C_AXI_WID_WIDTH=16,C_AXI_RID_WIDTH=16,C_AXI_AWUSER_WIDTH=16,C_AXI_ARUSER_WIDTH=16)::w_channel.W_CHANNEL.Block10274_265.Block10274_266) 995000 : WREADY+WLAST (         0) id=0x000001ad
INFO: [Slave VIP_wr_driver] (axi_vip_pkg.axi_slv_wr_driver(C_AXI_ADDR_WIDTH=40,C_AXI_WDATA_WIDTH=128,C_AXI_RDATA_WIDTH=128,C_AXI_WID_WIDTH=16,C_AXI_RID_WIDTH=16,C_AXI_AWUSER_WIDTH=16,C_AXI_ARUSER_WIDTH=16,C_AXI_HAS_REGION=0)::aw_channel.AW_CHANNEL) 1005000 : AWVALID >>>
XIL_AXI_WRITE (53) A:0x0000000000000000 ID:0x000001ad len:0x00 XIL_AXI_SIZE_4BYTE XIL_AXI_BURST_TYPE_INCR C:0b0110 L:XIL_AXI_ALOCK_NOLOCK P:0b000<<<
INFO: [Slave VIP_wr_driver] (axi_vip_pkg.axi_slv_wr_driver(C_AXI_ADDR_WIDTH=40,C_AXI_WDATA_WIDTH=128,C_AXI_RDATA_WIDTH=128,C_AXI_WID_WIDTH=16,C_AXI_RID_WIDTH=16,C_AXI_AWUSER_WIDTH=16,C_AXI_ARUSER_WIDTH=16,C_AXI_HAS_REGION=0)::w_channel.W_CHANNEL) 1005000 : W LAST -- write_beat     Last:1 D:0x000000000000000000000000cf1dae02 BE:0b0000000000001111 
INFO: [Slave VIP_wr_driver] (axi_vip_pkg.axi_slv_wr_driver(C_AXI_ADDR_WIDTH=40,C_AXI_WDATA_WIDTH=128,C_AXI_RDATA_WIDTH=128,C_AXI_WID_WIDTH=16,C_AXI_RID_WIDTH=16,C_AXI_AWUSER_WIDTH=16,C_AXI_ARUSER_WIDTH=16,C_AXI_HAS_REGION=0)::push_reactive_q) 1005000 : PUSH_REACTIVE_Q: PUSH (         0) >>> XIL_AXI_WRITE (53) A:0x0000000000000000 ID:0x000001ad len:0x00 XIL_AXI_SIZE_4BYTE XIL_AXI_BURST_TYPE_INCR C:0b0110 L:XIL_AXI_ALOCK_NOLOCK P:0b000 <<<
INFO: [Slave VIP_wr_driver] (axi_vip_pkg.axi_slv_wr_driver(C_AXI_ADDR_WIDTH=40,C_AXI_WDATA_WIDTH=128,C_AXI_RDATA_WIDTH=128,C_AXI_WID_WIDTH=16,C_AXI_RID_WIDTH=16,C_AXI_AWUSER_WIDTH=16,C_AXI_ARUSER_WIDTH=16,C_AXI_HAS_REGION=0)::pop_reactive_q) 1005000 : POP_REACTIVE_Q: (         1) >>> XIL_AXI_WRITE (53) A:0x0000000000000000 ID:0x000001ad len:0x00 XIL_AXI_SIZE_4BYTE XIL_AXI_BURST_TYPE_INCR C:0b0110 L:XIL_AXI_ALOCK_NOLOCK P:0b000 <<<
INFO: [Slave VIP_wr_driver] (axi_vip_pkg.axi_slv_wr_driver(C_AXI_ADDR_WIDTH=40,C_AXI_WDATA_WIDTH=128,C_AXI_RDATA_WIDTH=128,C_AXI_WID_WIDTH=16,C_AXI_RID_WIDTH=16,C_AXI_AWUSER_WIDTH=16,C_AXI_ARUSER_WIDTH=16,C_AXI_HAS_REGION=0)::get_and_drive.GET_AND_DRIVE) 1005000 : GNI : XIL_AXI_WRITE (53) A:0x0000000000000000 ID:0x000001ad len:0x00 XIL_AXI_SIZE_4BYTE XIL_AXI_BURST_TYPE_INCR C:0b0110 L:XIL_AXI_ALOCK_NOLOCK P:0b000
INFO: [Slave VIP_wr_driver] (axi_vip_pkg.axi_slv_wr_driver(C_AXI_ADDR_WIDTH=40,C_AXI_WDATA_WIDTH=128,C_AXI_RDATA_WIDTH=128,C_AXI_WID_WIDTH=16,C_AXI_RID_WIDTH=16,C_AXI_AWUSER_WIDTH=16,C_AXI_ARUSER_WIDTH=16,C_AXI_HAS_REGION=0)::push_b_q) 1005000 : B PUSH (         0)
INFO: [Slave VIP_wr_driver] (axi_vip_pkg.axi_slv_wr_driver(C_AXI_ADDR_WIDTH=40,C_AXI_WDATA_WIDTH=128,C_AXI_RDATA_WIDTH=128,C_AXI_WID_WIDTH=16,C_AXI_RID_WIDTH=16,C_AXI_AWUSER_WIDTH=16,C_AXI_ARUSER_WIDTH=16,C_AXI_HAS_REGION=0)::push_b_q) 1005000 : ID=0x000001ad - State 0b0111
Entries in BQ : NumEntries:         0 >>> 
 <<<
Command       : XIL_AXI_WRITE (53) A:0x0000000000000000 ID:0x000001ad len:0x00 XIL_AXI_SIZE_4BYTE XIL_AXI_BURST_TYPE_INCR C:0b0110 L:XIL_AXI_ALOCK_NOLOCK P:0b000
INFO: [Master VIP_wr_driver] (axi_vip_pkg.axi_mst_wr_driver(C_AXI_WDATA_WIDTH=128,C_AXI_RDATA_WIDTH=128,C_AXI_WID_WIDTH=16,C_AXI_RID_WIDTH=16,C_AXI_AWUSER_WIDTH=16,C_AXI_ARUSER_WIDTH=16)::service_done_q.SERVICE_DONE_Q) 1015000 : SERVICE_DONE_Q: XIL_AXI_WRITE (32) A:0x0000000000000000 ID:0x000001ad len:0x00 XIL_AXI_SIZE_4BYTE XIL_AXI_BURST_TYPE_INCR C:0b0110 L:XIL_AXI_ALOCK_NOLOCK P:0b000
INFO: [Slave VIP_wr_driver] (axi_vip_pkg.axi_slv_wr_driver(C_AXI_ADDR_WIDTH=40,C_AXI_WDATA_WIDTH=128,C_AXI_RDATA_WIDTH=128,C_AXI_WID_WIDTH=16,C_AXI_RID_WIDTH=16,C_AXI_AWUSER_WIDTH=16,C_AXI_ARUSER_WIDTH=16,C_AXI_HAS_REGION=0)::service_done_q.SERVICE_DONE_Q) 1015000 : SERVICE_DONE_Q: XIL_AXI_WRITE (53) A:0x0000000000000000 ID:0x000001ad len:0x00 XIL_AXI_SIZE_4BYTE XIL_AXI_BURST_TYPE_INCR C:0b0110 L:XIL_AXI_ALOCK_NOLOCK P:0b000
INFO: [Master VIP_wr_driver] (axi_vip_pkg.axi_mst_wr_driver(C_AXI_WDATA_WIDTH=128,C_AXI_RDATA_WIDTH=128,C_AXI_WID_WIDTH=16,C_AXI_RID_WIDTH=16,C_AXI_AWUSER_WIDTH=16,C_AXI_ARUSER_WIDTH=16)::w_channel.W_CHANNEL.Block10274_265.Block10274_266) 1025000 : WREADY+WLAST (         0) id=0x000001ad
INFO: [Master VIP_wr_driver] (axi_vip_pkg.axi_mst_wr_driver(C_AXI_WDATA_WIDTH=128,C_AXI_RDATA_WIDTH=128,C_AXI_WID_WIDTH=16,C_AXI_RID_WIDTH=16,C_AXI_AWUSER_WIDTH=16,C_AXI_ARUSER_WIDTH=16)::w_channel.W_CHANNEL.Block10274_265.Block10274_266) 1055000 : WREADY+WLAST (         0) id=0x000001ad
INFO: [Slave VIP_wr_driver] (axi_vip_pkg.axi_slv_wr_driver(C_AXI_ADDR_WIDTH=40,C_AXI_WDATA_WIDTH=128,C_AXI_RDATA_WIDTH=128,C_AXI_WID_WIDTH=16,C_AXI_RID_WIDTH=16,C_AXI_AWUSER_WIDTH=16,C_AXI_ARUSER_WIDTH=16,C_AXI_HAS_REGION=0)::w_channel.W_CHANNEL) 1075000 : W LAST -- write_beat     Last:1 D:0x0000000000000000aa6a415000000000 BE:0b0000000011110000 
INFO: [Slave VIP_wr_driver] (axi_vip_pkg.axi_slv_wr_driver(C_AXI_ADDR_WIDTH=40,C_AXI_WDATA_WIDTH=128,C_AXI_RDATA_WIDTH=128,C_AXI_WID_WIDTH=16,C_AXI_RID_WIDTH=16,C_AXI_AWUSER_WIDTH=16,C_AXI_ARUSER_WIDTH=16,C_AXI_HAS_REGION=0)::aw_channel.AW_CHANNEL) 1075000 : AWVALID >>>
XIL_AXI_WRITE (61) A:0x0000000000000004 ID:0x000001ad len:0x00 XIL_AXI_SIZE_4BYTE XIL_AXI_BURST_TYPE_INCR C:0b0010 L:XIL_AXI_ALOCK_NOLOCK P:0b110<<<
INFO: [Slave VIP_wr_driver] (axi_vip_pkg.axi_slv_wr_driver(C_AXI_ADDR_WIDTH=40,C_AXI_WDATA_WIDTH=128,C_AXI_RDATA_WIDTH=128,C_AXI_WID_WIDTH=16,C_AXI_RID_WIDTH=16,C_AXI_AWUSER_WIDTH=16,C_AXI_ARUSER_WIDTH=16,C_AXI_HAS_REGION=0)::push_reactive_q) 1075000 : PUSH_REACTIVE_Q: PUSH (         0) >>> XIL_AXI_WRITE (61) A:0x0000000000000004 ID:0x000001ad len:0x00 XIL_AXI_SIZE_4BYTE XIL_AXI_BURST_TYPE_INCR C:0b0010 L:XIL_AXI_ALOCK_NOLOCK P:0b110 <<<
INFO: [Slave VIP_wr_driver] (axi_vip_pkg.axi_slv_wr_driver(C_AXI_ADDR_WIDTH=40,C_AXI_WDATA_WIDTH=128,C_AXI_RDATA_WIDTH=128,C_AXI_WID_WIDTH=16,C_AXI_RID_WIDTH=16,C_AXI_AWUSER_WIDTH=16,C_AXI_ARUSER_WIDTH=16,C_AXI_HAS_REGION=0)::pop_reactive_q) 1075000 : POP_REACTIVE_Q: (         1) >>> XIL_AXI_WRITE (61) A:0x0000000000000004 ID:0x000001ad len:0x00 XIL_AXI_SIZE_4BYTE XIL_AXI_BURST_TYPE_INCR C:0b0010 L:XIL_AXI_ALOCK_NOLOCK P:0b110 <<<
INFO: [Slave VIP_wr_driver] (axi_vip_pkg.axi_slv_wr_driver(C_AXI_ADDR_WIDTH=40,C_AXI_WDATA_WIDTH=128,C_AXI_RDATA_WIDTH=128,C_AXI_WID_WIDTH=16,C_AXI_RID_WIDTH=16,C_AXI_AWUSER_WIDTH=16,C_AXI_ARUSER_WIDTH=16,C_AXI_HAS_REGION=0)::get_and_drive.GET_AND_DRIVE) 1075000 : GNI : XIL_AXI_WRITE (61) A:0x0000000000000004 ID:0x000001ad len:0x00 XIL_AXI_SIZE_4BYTE XIL_AXI_BURST_TYPE_INCR C:0b0010 L:XIL_AXI_ALOCK_NOLOCK P:0b110
INFO: [Slave VIP_wr_driver] (axi_vip_pkg.axi_slv_wr_driver(C_AXI_ADDR_WIDTH=40,C_AXI_WDATA_WIDTH=128,C_AXI_RDATA_WIDTH=128,C_AXI_WID_WIDTH=16,C_AXI_RID_WIDTH=16,C_AXI_AWUSER_WIDTH=16,C_AXI_ARUSER_WIDTH=16,C_AXI_HAS_REGION=0)::push_b_q) 1075000 : B PUSH (         0)
INFO: [Slave VIP_wr_driver] (axi_vip_pkg.axi_slv_wr_driver(C_AXI_ADDR_WIDTH=40,C_AXI_WDATA_WIDTH=128,C_AXI_RDATA_WIDTH=128,C_AXI_WID_WIDTH=16,C_AXI_RID_WIDTH=16,C_AXI_AWUSER_WIDTH=16,C_AXI_ARUSER_WIDTH=16,C_AXI_HAS_REGION=0)::push_b_q) 1075000 : ID=0x000001ad - State 0b0111
Entries in BQ : NumEntries:         0 >>> 
 <<<
Command       : XIL_AXI_WRITE (61) A:0x0000000000000004 ID:0x000001ad len:0x00 XIL_AXI_SIZE_4BYTE XIL_AXI_BURST_TYPE_INCR C:0b0010 L:XIL_AXI_ALOCK_NOLOCK P:0b110
INFO: [Master VIP_wr_driver] (axi_vip_pkg.axi_mst_wr_driver(C_AXI_WDATA_WIDTH=128,C_AXI_RDATA_WIDTH=128,C_AXI_WID_WIDTH=16,C_AXI_RID_WIDTH=16,C_AXI_AWUSER_WIDTH=16,C_AXI_ARUSER_WIDTH=16)::w_channel.W_CHANNEL.Block10274_265.Block10274_266) 1085000 : WREADY+WLAST (         0) id=0x000001ad
INFO: [Master VIP_wr_driver] (axi_vip_pkg.axi_mst_wr_driver(C_AXI_WDATA_WIDTH=128,C_AXI_RDATA_WIDTH=128,C_AXI_WID_WIDTH=16,C_AXI_RID_WIDTH=16,C_AXI_AWUSER_WIDTH=16,C_AXI_ARUSER_WIDTH=16)::service_done_q.SERVICE_DONE_Q) 1085000 : SERVICE_DONE_Q: XIL_AXI_WRITE (34) A:0x0000000000000004 ID:0x000001ad len:0x00 XIL_AXI_SIZE_4BYTE XIL_AXI_BURST_TYPE_INCR C:0b0010 L:XIL_AXI_ALOCK_NOLOCK P:0b110
INFO: [Slave VIP_wr_driver] (axi_vip_pkg.axi_slv_wr_driver(C_AXI_ADDR_WIDTH=40,C_AXI_WDATA_WIDTH=128,C_AXI_RDATA_WIDTH=128,C_AXI_WID_WIDTH=16,C_AXI_RID_WIDTH=16,C_AXI_AWUSER_WIDTH=16,C_AXI_ARUSER_WIDTH=16,C_AXI_HAS_REGION=0)::service_done_q.SERVICE_DONE_Q) 1085000 : SERVICE_DONE_Q: XIL_AXI_WRITE (61) A:0x0000000000000004 ID:0x000001ad len:0x00 XIL_AXI_SIZE_4BYTE XIL_AXI_BURST_TYPE_INCR C:0b0010 L:XIL_AXI_ALOCK_NOLOCK P:0b110
INFO: [Slave VIP_wr_driver] (axi_vip_pkg.axi_slv_wr_driver(C_AXI_ADDR_WIDTH=40,C_AXI_WDATA_WIDTH=128,C_AXI_RDATA_WIDTH=128,C_AXI_WID_WIDTH=16,C_AXI_RID_WIDTH=16,C_AXI_AWUSER_WIDTH=16,C_AXI_ARUSER_WIDTH=16,C_AXI_HAS_REGION=0)::aw_channel.AW_CHANNEL) 1145000 : AWVALID >>>
XIL_AXI_WRITE (64) A:0x0000000000000008 ID:0x000001ad len:0x00 XIL_AXI_SIZE_4BYTE XIL_AXI_BURST_TYPE_INCR C:0b0001 L:XIL_AXI_ALOCK_NOLOCK P:0b110<<<
INFO: [Slave VIP_wr_driver] (axi_vip_pkg.axi_slv_wr_driver(C_AXI_ADDR_WIDTH=40,C_AXI_WDATA_WIDTH=128,C_AXI_RDATA_WIDTH=128,C_AXI_WID_WIDTH=16,C_AXI_RID_WIDTH=16,C_AXI_AWUSER_WIDTH=16,C_AXI_ARUSER_WIDTH=16,C_AXI_HAS_REGION=0)::w_channel.W_CHANNEL) 1145000 : W LAST -- write_beat     Last:1 D:0x00000000f15c30b80000000000000000 BE:0b0000111100000000 
INFO: [Slave VIP_wr_driver] (axi_vip_pkg.axi_slv_wr_driver(C_AXI_ADDR_WIDTH=40,C_AXI_WDATA_WIDTH=128,C_AXI_RDATA_WIDTH=128,C_AXI_WID_WIDTH=16,C_AXI_RID_WIDTH=16,C_AXI_AWUSER_WIDTH=16,C_AXI_ARUSER_WIDTH=16,C_AXI_HAS_REGION=0)::push_reactive_q) 1145000 : PUSH_REACTIVE_Q: PUSH (         0) >>> XIL_AXI_WRITE (64) A:0x0000000000000008 ID:0x000001ad len:0x00 XIL_AXI_SIZE_4BYTE XIL_AXI_BURST_TYPE_INCR C:0b0001 L:XIL_AXI_ALOCK_NOLOCK P:0b110 <<<
INFO: [Slave VIP_wr_driver] (axi_vip_pkg.axi_slv_wr_driver(C_AXI_ADDR_WIDTH=40,C_AXI_WDATA_WIDTH=128,C_AXI_RDATA_WIDTH=128,C_AXI_WID_WIDTH=16,C_AXI_RID_WIDTH=16,C_AXI_AWUSER_WIDTH=16,C_AXI_ARUSER_WIDTH=16,C_AXI_HAS_REGION=0)::pop_reactive_q) 1145000 : POP_REACTIVE_Q: (         1) >>> XIL_AXI_WRITE (64) A:0x0000000000000008 ID:0x000001ad len:0x00 XIL_AXI_SIZE_4BYTE XIL_AXI_BURST_TYPE_INCR C:0b0001 L:XIL_AXI_ALOCK_NOLOCK P:0b110 <<<
INFO: [Slave VIP_wr_driver] (axi_vip_pkg.axi_slv_wr_driver(C_AXI_ADDR_WIDTH=40,C_AXI_WDATA_WIDTH=128,C_AXI_RDATA_WIDTH=128,C_AXI_WID_WIDTH=16,C_AXI_RID_WIDTH=16,C_AXI_AWUSER_WIDTH=16,C_AXI_ARUSER_WIDTH=16,C_AXI_HAS_REGION=0)::get_and_drive.GET_AND_DRIVE) 1145000 : GNI : XIL_AXI_WRITE (64) A:0x0000000000000008 ID:0x000001ad len:0x00 XIL_AXI_SIZE_4BYTE XIL_AXI_BURST_TYPE_INCR C:0b0001 L:XIL_AXI_ALOCK_NOLOCK P:0b110
INFO: [Slave VIP_wr_driver] (axi_vip_pkg.axi_slv_wr_driver(C_AXI_ADDR_WIDTH=40,C_AXI_WDATA_WIDTH=128,C_AXI_RDATA_WIDTH=128,C_AXI_WID_WIDTH=16,C_AXI_RID_WIDTH=16,C_AXI_AWUSER_WIDTH=16,C_AXI_ARUSER_WIDTH=16,C_AXI_HAS_REGION=0)::push_b_q) 1145000 : B PUSH (         0)
INFO: [Slave VIP_wr_driver] (axi_vip_pkg.axi_slv_wr_driver(C_AXI_ADDR_WIDTH=40,C_AXI_WDATA_WIDTH=128,C_AXI_RDATA_WIDTH=128,C_AXI_WID_WIDTH=16,C_AXI_RID_WIDTH=16,C_AXI_AWUSER_WIDTH=16,C_AXI_ARUSER_WIDTH=16,C_AXI_HAS_REGION=0)::push_b_q) 1145000 : ID=0x000001ad - State 0b0111
Entries in BQ : NumEntries:         0 >>> 
 <<<
Command       : XIL_AXI_WRITE (64) A:0x0000000000000008 ID:0x000001ad len:0x00 XIL_AXI_SIZE_4BYTE XIL_AXI_BURST_TYPE_INCR C:0b0001 L:XIL_AXI_ALOCK_NOLOCK P:0b110
INFO: [Master VIP_wr_driver] (axi_vip_pkg.axi_mst_wr_driver(C_AXI_WDATA_WIDTH=128,C_AXI_RDATA_WIDTH=128,C_AXI_WID_WIDTH=16,C_AXI_RID_WIDTH=16,C_AXI_AWUSER_WIDTH=16,C_AXI_ARUSER_WIDTH=16)::service_done_q.SERVICE_DONE_Q) 1155000 : SERVICE_DONE_Q: XIL_AXI_WRITE (36) A:0x0000000000000008 ID:0x000001ad len:0x00 XIL_AXI_SIZE_4BYTE XIL_AXI_BURST_TYPE_INCR C:0b0001 L:XIL_AXI_ALOCK_NOLOCK P:0b110
INFO: [Slave VIP_wr_driver] (axi_vip_pkg.axi_slv_wr_driver(C_AXI_ADDR_WIDTH=40,C_AXI_WDATA_WIDTH=128,C_AXI_RDATA_WIDTH=128,C_AXI_WID_WIDTH=16,C_AXI_RID_WIDTH=16,C_AXI_AWUSER_WIDTH=16,C_AXI_ARUSER_WIDTH=16,C_AXI_HAS_REGION=0)::service_done_q.SERVICE_DONE_Q) 1155000 : SERVICE_DONE_Q: XIL_AXI_WRITE (64) A:0x0000000000000008 ID:0x000001ad len:0x00 XIL_AXI_SIZE_4BYTE XIL_AXI_BURST_TYPE_INCR C:0b0001 L:XIL_AXI_ALOCK_NOLOCK P:0b110
INFO: [Slave VIP_wr_driver] (axi_vip_pkg.axi_slv_wr_driver(C_AXI_ADDR_WIDTH=40,C_AXI_WDATA_WIDTH=128,C_AXI_RDATA_WIDTH=128,C_AXI_WID_WIDTH=16,C_AXI_RID_WIDTH=16,C_AXI_AWUSER_WIDTH=16,C_AXI_ARUSER_WIDTH=16,C_AXI_HAS_REGION=0)::w_channel.W_CHANNEL) 1215000 : W LAST -- write_beat     Last:1 D:0x11c9f832000000000000000000000000 BE:0b1111000000000000 
INFO: [Slave VIP_wr_driver] (axi_vip_pkg.axi_slv_wr_driver(C_AXI_ADDR_WIDTH=40,C_AXI_WDATA_WIDTH=128,C_AXI_RDATA_WIDTH=128,C_AXI_WID_WIDTH=16,C_AXI_RID_WIDTH=16,C_AXI_AWUSER_WIDTH=16,C_AXI_ARUSER_WIDTH=16,C_AXI_HAS_REGION=0)::aw_channel.AW_CHANNEL) 1215000 : AWVALID >>>
XIL_AXI_WRITE (69) A:0x000000000000000c ID:0x000001ad len:0x00 XIL_AXI_SIZE_4BYTE XIL_AXI_BURST_TYPE_INCR C:0b0010 L:XIL_AXI_ALOCK_NOLOCK P:0b001<<<
INFO: [Slave VIP_wr_driver] (axi_vip_pkg.axi_slv_wr_driver(C_AXI_ADDR_WIDTH=40,C_AXI_WDATA_WIDTH=128,C_AXI_RDATA_WIDTH=128,C_AXI_WID_WIDTH=16,C_AXI_RID_WIDTH=16,C_AXI_AWUSER_WIDTH=16,C_AXI_ARUSER_WIDTH=16,C_AXI_HAS_REGION=0)::push_reactive_q) 1215000 : PUSH_REACTIVE_Q: PUSH (         0) >>> XIL_AXI_WRITE (69) A:0x000000000000000c ID:0x000001ad len:0x00 XIL_AXI_SIZE_4BYTE XIL_AXI_BURST_TYPE_INCR C:0b0010 L:XIL_AXI_ALOCK_NOLOCK P:0b001 <<<
INFO: [Slave VIP_wr_driver] (axi_vip_pkg.axi_slv_wr_driver(C_AXI_ADDR_WIDTH=40,C_AXI_WDATA_WIDTH=128,C_AXI_RDATA_WIDTH=128,C_AXI_WID_WIDTH=16,C_AXI_RID_WIDTH=16,C_AXI_AWUSER_WIDTH=16,C_AXI_ARUSER_WIDTH=16,C_AXI_HAS_REGION=0)::pop_reactive_q) 1215000 : POP_REACTIVE_Q: (         1) >>> XIL_AXI_WRITE (69) A:0x000000000000000c ID:0x000001ad len:0x00 XIL_AXI_SIZE_4BYTE XIL_AXI_BURST_TYPE_INCR C:0b0010 L:XIL_AXI_ALOCK_NOLOCK P:0b001 <<<
INFO: [Slave VIP_wr_driver] (axi_vip_pkg.axi_slv_wr_driver(C_AXI_ADDR_WIDTH=40,C_AXI_WDATA_WIDTH=128,C_AXI_RDATA_WIDTH=128,C_AXI_WID_WIDTH=16,C_AXI_RID_WIDTH=16,C_AXI_AWUSER_WIDTH=16,C_AXI_ARUSER_WIDTH=16,C_AXI_HAS_REGION=0)::get_and_drive.GET_AND_DRIVE) 1215000 : GNI : XIL_AXI_WRITE (69) A:0x000000000000000c ID:0x000001ad len:0x00 XIL_AXI_SIZE_4BYTE XIL_AXI_BURST_TYPE_INCR C:0b0010 L:XIL_AXI_ALOCK_NOLOCK P:0b001
INFO: [Slave VIP_wr_driver] (axi_vip_pkg.axi_slv_wr_driver(C_AXI_ADDR_WIDTH=40,C_AXI_WDATA_WIDTH=128,C_AXI_RDATA_WIDTH=128,C_AXI_WID_WIDTH=16,C_AXI_RID_WIDTH=16,C_AXI_AWUSER_WIDTH=16,C_AXI_ARUSER_WIDTH=16,C_AXI_HAS_REGION=0)::push_b_q) 1215000 : B PUSH (         0)
INFO: [Slave VIP_wr_driver] (axi_vip_pkg.axi_slv_wr_driver(C_AXI_ADDR_WIDTH=40,C_AXI_WDATA_WIDTH=128,C_AXI_RDATA_WIDTH=128,C_AXI_WID_WIDTH=16,C_AXI_RID_WIDTH=16,C_AXI_AWUSER_WIDTH=16,C_AXI_ARUSER_WIDTH=16,C_AXI_HAS_REGION=0)::push_b_q) 1215000 : ID=0x000001ad - State 0b0111
Entries in BQ : NumEntries:         0 >>> 
 <<<
Command       : XIL_AXI_WRITE (69) A:0x000000000000000c ID:0x000001ad len:0x00 XIL_AXI_SIZE_4BYTE XIL_AXI_BURST_TYPE_INCR C:0b0010 L:XIL_AXI_ALOCK_NOLOCK P:0b001
INFO: [Master VIP_wr_driver] (axi_vip_pkg.axi_mst_wr_driver(C_AXI_WDATA_WIDTH=128,C_AXI_RDATA_WIDTH=128,C_AXI_WID_WIDTH=16,C_AXI_RID_WIDTH=16,C_AXI_AWUSER_WIDTH=16,C_AXI_ARUSER_WIDTH=16)::service_done_q.SERVICE_DONE_Q) 1225000 : SERVICE_DONE_Q: XIL_AXI_WRITE (38) A:0x000000000000000c ID:0x000001ad len:0x00 XIL_AXI_SIZE_4BYTE XIL_AXI_BURST_TYPE_INCR C:0b0010 L:XIL_AXI_ALOCK_NOLOCK P:0b001
INFO: [Slave VIP_wr_driver] (axi_vip_pkg.axi_slv_wr_driver(C_AXI_ADDR_WIDTH=40,C_AXI_WDATA_WIDTH=128,C_AXI_RDATA_WIDTH=128,C_AXI_WID_WIDTH=16,C_AXI_RID_WIDTH=16,C_AXI_AWUSER_WIDTH=16,C_AXI_ARUSER_WIDTH=16,C_AXI_HAS_REGION=0)::service_done_q.SERVICE_DONE_Q) 1225000 : SERVICE_DONE_Q: XIL_AXI_WRITE (69) A:0x000000000000000c ID:0x000001ad len:0x00 XIL_AXI_SIZE_4BYTE XIL_AXI_BURST_TYPE_INCR C:0b0010 L:XIL_AXI_ALOCK_NOLOCK P:0b001
INFO: [Slave VIP_wr_driver] (axi_vip_pkg.axi_slv_wr_driver(C_AXI_ADDR_WIDTH=40,C_AXI_WDATA_WIDTH=128,C_AXI_RDATA_WIDTH=128,C_AXI_WID_WIDTH=16,C_AXI_RID_WIDTH=16,C_AXI_AWUSER_WIDTH=16,C_AXI_ARUSER_WIDTH=16,C_AXI_HAS_REGION=0)::aw_channel.AW_CHANNEL) 1285000 : AWVALID >>>
XIL_AXI_WRITE (72) A:0x0000000000000010 ID:0x000001ad len:0x00 XIL_AXI_SIZE_4BYTE XIL_AXI_BURST_TYPE_INCR C:0b1110 L:XIL_AXI_ALOCK_NOLOCK P:0b110<<<
INFO: [Slave VIP_wr_driver] (axi_vip_pkg.axi_slv_wr_driver(C_AXI_ADDR_WIDTH=40,C_AXI_WDATA_WIDTH=128,C_AXI_RDATA_WIDTH=128,C_AXI_WID_WIDTH=16,C_AXI_RID_WIDTH=16,C_AXI_AWUSER_WIDTH=16,C_AXI_ARUSER_WIDTH=16,C_AXI_HAS_REGION=0)::w_channel.W_CHANNEL) 1285000 : W LAST -- write_beat     Last:1 D:0x0000000000000000000000003cb70727 BE:0b0000000000001111 
INFO: [Slave VIP_wr_driver] (axi_vip_pkg.axi_slv_wr_driver(C_AXI_ADDR_WIDTH=40,C_AXI_WDATA_WIDTH=128,C_AXI_RDATA_WIDTH=128,C_AXI_WID_WIDTH=16,C_AXI_RID_WIDTH=16,C_AXI_AWUSER_WIDTH=16,C_AXI_ARUSER_WIDTH=16,C_AXI_HAS_REGION=0)::push_reactive_q) 1285000 : PUSH_REACTIVE_Q: PUSH (         0) >>> XIL_AXI_WRITE (72) A:0x0000000000000010 ID:0x000001ad len:0x00 XIL_AXI_SIZE_4BYTE XIL_AXI_BURST_TYPE_INCR C:0b1110 L:XIL_AXI_ALOCK_NOLOCK P:0b110 <<<
INFO: [Slave VIP_wr_driver] (axi_vip_pkg.axi_slv_wr_driver(C_AXI_ADDR_WIDTH=40,C_AXI_WDATA_WIDTH=128,C_AXI_RDATA_WIDTH=128,C_AXI_WID_WIDTH=16,C_AXI_RID_WIDTH=16,C_AXI_AWUSER_WIDTH=16,C_AXI_ARUSER_WIDTH=16,C_AXI_HAS_REGION=0)::pop_reactive_q) 1285000 : POP_REACTIVE_Q: (         1) >>> XIL_AXI_WRITE (72) A:0x0000000000000010 ID:0x000001ad len:0x00 XIL_AXI_SIZE_4BYTE XIL_AXI_BURST_TYPE_INCR C:0b1110 L:XIL_AXI_ALOCK_NOLOCK P:0b110 <<<
INFO: [Slave VIP_wr_driver] (axi_vip_pkg.axi_slv_wr_driver(C_AXI_ADDR_WIDTH=40,C_AXI_WDATA_WIDTH=128,C_AXI_RDATA_WIDTH=128,C_AXI_WID_WIDTH=16,C_AXI_RID_WIDTH=16,C_AXI_AWUSER_WIDTH=16,C_AXI_ARUSER_WIDTH=16,C_AXI_HAS_REGION=0)::get_and_drive.GET_AND_DRIVE) 1285000 : GNI : XIL_AXI_WRITE (72) A:0x0000000000000010 ID:0x000001ad len:0x00 XIL_AXI_SIZE_4BYTE XIL_AXI_BURST_TYPE_INCR C:0b1110 L:XIL_AXI_ALOCK_NOLOCK P:0b110
INFO: [Slave VIP_wr_driver] (axi_vip_pkg.axi_slv_wr_driver(C_AXI_ADDR_WIDTH=40,C_AXI_WDATA_WIDTH=128,C_AXI_RDATA_WIDTH=128,C_AXI_WID_WIDTH=16,C_AXI_RID_WIDTH=16,C_AXI_AWUSER_WIDTH=16,C_AXI_ARUSER_WIDTH=16,C_AXI_HAS_REGION=0)::push_b_q) 1285000 : B PUSH (         0)
INFO: [Slave VIP_wr_driver] (axi_vip_pkg.axi_slv_wr_driver(C_AXI_ADDR_WIDTH=40,C_AXI_WDATA_WIDTH=128,C_AXI_RDATA_WIDTH=128,C_AXI_WID_WIDTH=16,C_AXI_RID_WIDTH=16,C_AXI_AWUSER_WIDTH=16,C_AXI_ARUSER_WIDTH=16,C_AXI_HAS_REGION=0)::push_b_q) 1285000 : ID=0x000001ad - State 0b0111
Entries in BQ : NumEntries:         0 >>> 
 <<<
Command       : XIL_AXI_WRITE (72) A:0x0000000000000010 ID:0x000001ad len:0x00 XIL_AXI_SIZE_4BYTE XIL_AXI_BURST_TYPE_INCR C:0b1110 L:XIL_AXI_ALOCK_NOLOCK P:0b110
INFO: [Master VIP_wr_driver] (axi_vip_pkg.axi_mst_wr_driver(C_AXI_WDATA_WIDTH=128,C_AXI_RDATA_WIDTH=128,C_AXI_WID_WIDTH=16,C_AXI_RID_WIDTH=16,C_AXI_AWUSER_WIDTH=16,C_AXI_ARUSER_WIDTH=16)::service_done_q.SERVICE_DONE_Q) 1295000 : SERVICE_DONE_Q: XIL_AXI_WRITE (40) A:0x0000000000000010 ID:0x000001ad len:0x00 XIL_AXI_SIZE_4BYTE XIL_AXI_BURST_TYPE_INCR C:0b1110 L:XIL_AXI_ALOCK_NOLOCK P:0b110
INFO: [Slave VIP_wr_driver] (axi_vip_pkg.axi_slv_wr_driver(C_AXI_ADDR_WIDTH=40,C_AXI_WDATA_WIDTH=128,C_AXI_RDATA_WIDTH=128,C_AXI_WID_WIDTH=16,C_AXI_RID_WIDTH=16,C_AXI_AWUSER_WIDTH=16,C_AXI_ARUSER_WIDTH=16,C_AXI_HAS_REGION=0)::service_done_q.SERVICE_DONE_Q) 1295000 : SERVICE_DONE_Q: XIL_AXI_WRITE (72) A:0x0000000000000010 ID:0x000001ad len:0x00 XIL_AXI_SIZE_4BYTE XIL_AXI_BURST_TYPE_INCR C:0b1110 L:XIL_AXI_ALOCK_NOLOCK P:0b110
INFO: [Slave VIP_wr_driver] (axi_vip_pkg.axi_slv_wr_driver(C_AXI_ADDR_WIDTH=40,C_AXI_WDATA_WIDTH=128,C_AXI_RDATA_WIDTH=128,C_AXI_WID_WIDTH=16,C_AXI_RID_WIDTH=16,C_AXI_AWUSER_WIDTH=16,C_AXI_ARUSER_WIDTH=16,C_AXI_HAS_REGION=0)::w_channel.W_CHANNEL) 1355000 : W LAST -- write_beat     Last:1 D:0x0000000000000000e8dde12d00000000 BE:0b0000000011110000 
INFO: [Slave VIP_wr_driver] (axi_vip_pkg.axi_slv_wr_driver(C_AXI_ADDR_WIDTH=40,C_AXI_WDATA_WIDTH=128,C_AXI_RDATA_WIDTH=128,C_AXI_WID_WIDTH=16,C_AXI_RID_WIDTH=16,C_AXI_AWUSER_WIDTH=16,C_AXI_ARUSER_WIDTH=16,C_AXI_HAS_REGION=0)::aw_channel.AW_CHANNEL) 1355000 : AWVALID >>>
XIL_AXI_WRITE (77) A:0x0000000000000014 ID:0x000001ad len:0x00 XIL_AXI_SIZE_4BYTE XIL_AXI_BURST_TYPE_INCR C:0b0001 L:XIL_AXI_ALOCK_NOLOCK P:0b010<<<
INFO: [Slave VIP_wr_driver] (axi_vip_pkg.axi_slv_wr_driver(C_AXI_ADDR_WIDTH=40,C_AXI_WDATA_WIDTH=128,C_AXI_RDATA_WIDTH=128,C_AXI_WID_WIDTH=16,C_AXI_RID_WIDTH=16,C_AXI_AWUSER_WIDTH=16,C_AXI_ARUSER_WIDTH=16,C_AXI_HAS_REGION=0)::push_reactive_q) 1355000 : PUSH_REACTIVE_Q: PUSH (         0) >>> XIL_AXI_WRITE (77) A:0x0000000000000014 ID:0x000001ad len:0x00 XIL_AXI_SIZE_4BYTE XIL_AXI_BURST_TYPE_INCR C:0b0001 L:XIL_AXI_ALOCK_NOLOCK P:0b010 <<<
INFO: [Slave VIP_wr_driver] (axi_vip_pkg.axi_slv_wr_driver(C_AXI_ADDR_WIDTH=40,C_AXI_WDATA_WIDTH=128,C_AXI_RDATA_WIDTH=128,C_AXI_WID_WIDTH=16,C_AXI_RID_WIDTH=16,C_AXI_AWUSER_WIDTH=16,C_AXI_ARUSER_WIDTH=16,C_AXI_HAS_REGION=0)::pop_reactive_q) 1355000 : POP_REACTIVE_Q: (         1) >>> XIL_AXI_WRITE (77) A:0x0000000000000014 ID:0x000001ad len:0x00 XIL_AXI_SIZE_4BYTE XIL_AXI_BURST_TYPE_INCR C:0b0001 L:XIL_AXI_ALOCK_NOLOCK P:0b010 <<<
INFO: [Slave VIP_wr_driver] (axi_vip_pkg.axi_slv_wr_driver(C_AXI_ADDR_WIDTH=40,C_AXI_WDATA_WIDTH=128,C_AXI_RDATA_WIDTH=128,C_AXI_WID_WIDTH=16,C_AXI_RID_WIDTH=16,C_AXI_AWUSER_WIDTH=16,C_AXI_ARUSER_WIDTH=16,C_AXI_HAS_REGION=0)::get_and_drive.GET_AND_DRIVE) 1355000 : GNI : XIL_AXI_WRITE (77) A:0x0000000000000014 ID:0x000001ad len:0x00 XIL_AXI_SIZE_4BYTE XIL_AXI_BURST_TYPE_INCR C:0b0001 L:XIL_AXI_ALOCK_NOLOCK P:0b010
INFO: [Slave VIP_wr_driver] (axi_vip_pkg.axi_slv_wr_driver(C_AXI_ADDR_WIDTH=40,C_AXI_WDATA_WIDTH=128,C_AXI_RDATA_WIDTH=128,C_AXI_WID_WIDTH=16,C_AXI_RID_WIDTH=16,C_AXI_AWUSER_WIDTH=16,C_AXI_ARUSER_WIDTH=16,C_AXI_HAS_REGION=0)::push_b_q) 1355000 : B PUSH (         0)
INFO: [Slave VIP_wr_driver] (axi_vip_pkg.axi_slv_wr_driver(C_AXI_ADDR_WIDTH=40,C_AXI_WDATA_WIDTH=128,C_AXI_RDATA_WIDTH=128,C_AXI_WID_WIDTH=16,C_AXI_RID_WIDTH=16,C_AXI_AWUSER_WIDTH=16,C_AXI_ARUSER_WIDTH=16,C_AXI_HAS_REGION=0)::push_b_q) 1355000 : ID=0x000001ad - State 0b0111
Entries in BQ : NumEntries:         0 >>> 
 <<<
Command       : XIL_AXI_WRITE (77) A:0x0000000000000014 ID:0x000001ad len:0x00 XIL_AXI_SIZE_4BYTE XIL_AXI_BURST_TYPE_INCR C:0b0001 L:XIL_AXI_ALOCK_NOLOCK P:0b010
INFO: [Master VIP_wr_driver] (axi_vip_pkg.axi_mst_wr_driver(C_AXI_WDATA_WIDTH=128,C_AXI_RDATA_WIDTH=128,C_AXI_WID_WIDTH=16,C_AXI_RID_WIDTH=16,C_AXI_AWUSER_WIDTH=16,C_AXI_ARUSER_WIDTH=16)::service_done_q.SERVICE_DONE_Q) 1365000 : SERVICE_DONE_Q: XIL_AXI_WRITE (42) A:0x0000000000000014 ID:0x000001ad len:0x00 XIL_AXI_SIZE_4BYTE XIL_AXI_BURST_TYPE_INCR C:0b0001 L:XIL_AXI_ALOCK_NOLOCK P:0b010
INFO: [Slave VIP_wr_driver] (axi_vip_pkg.axi_slv_wr_driver(C_AXI_ADDR_WIDTH=40,C_AXI_WDATA_WIDTH=128,C_AXI_RDATA_WIDTH=128,C_AXI_WID_WIDTH=16,C_AXI_RID_WIDTH=16,C_AXI_AWUSER_WIDTH=16,C_AXI_ARUSER_WIDTH=16,C_AXI_HAS_REGION=0)::service_done_q.SERVICE_DONE_Q) 1365000 : SERVICE_DONE_Q: XIL_AXI_WRITE (77) A:0x0000000000000014 ID:0x000001ad len:0x00 XIL_AXI_SIZE_4BYTE XIL_AXI_BURST_TYPE_INCR C:0b0001 L:XIL_AXI_ALOCK_NOLOCK P:0b010
INFO: [Slave VIP_wr_driver] (axi_vip_pkg.axi_slv_wr_driver(C_AXI_ADDR_WIDTH=40,C_AXI_WDATA_WIDTH=128,C_AXI_RDATA_WIDTH=128,C_AXI_WID_WIDTH=16,C_AXI_RID_WIDTH=16,C_AXI_AWUSER_WIDTH=16,C_AXI_ARUSER_WIDTH=16,C_AXI_HAS_REGION=0)::aw_channel.AW_CHANNEL) 1425000 : AWVALID >>>
XIL_AXI_WRITE (80) A:0x0000000000000018 ID:0x000001ad len:0x00 XIL_AXI_SIZE_4BYTE XIL_AXI_BURST_TYPE_INCR C:0b1111 L:XIL_AXI_ALOCK_NOLOCK P:0b110<<<
INFO: [Slave VIP_wr_driver] (axi_vip_pkg.axi_slv_wr_driver(C_AXI_ADDR_WIDTH=40,C_AXI_WDATA_WIDTH=128,C_AXI_RDATA_WIDTH=128,C_AXI_WID_WIDTH=16,C_AXI_RID_WIDTH=16,C_AXI_AWUSER_WIDTH=16,C_AXI_ARUSER_WIDTH=16,C_AXI_HAS_REGION=0)::w_channel.W_CHANNEL) 1425000 : W LAST -- write_beat     Last:1 D:0x00000000d31daf3c0000000000000000 BE:0b0000111100000000 
INFO: [Slave VIP_wr_driver] (axi_vip_pkg.axi_slv_wr_driver(C_AXI_ADDR_WIDTH=40,C_AXI_WDATA_WIDTH=128,C_AXI_RDATA_WIDTH=128,C_AXI_WID_WIDTH=16,C_AXI_RID_WIDTH=16,C_AXI_AWUSER_WIDTH=16,C_AXI_ARUSER_WIDTH=16,C_AXI_HAS_REGION=0)::push_reactive_q) 1425000 : PUSH_REACTIVE_Q: PUSH (         0) >>> XIL_AXI_WRITE (80) A:0x0000000000000018 ID:0x000001ad len:0x00 XIL_AXI_SIZE_4BYTE XIL_AXI_BURST_TYPE_INCR C:0b1111 L:XIL_AXI_ALOCK_NOLOCK P:0b110 <<<
INFO: [Slave VIP_wr_driver] (axi_vip_pkg.axi_slv_wr_driver(C_AXI_ADDR_WIDTH=40,C_AXI_WDATA_WIDTH=128,C_AXI_RDATA_WIDTH=128,C_AXI_WID_WIDTH=16,C_AXI_RID_WIDTH=16,C_AXI_AWUSER_WIDTH=16,C_AXI_ARUSER_WIDTH=16,C_AXI_HAS_REGION=0)::pop_reactive_q) 1425000 : POP_REACTIVE_Q: (         1) >>> XIL_AXI_WRITE (80) A:0x0000000000000018 ID:0x000001ad len:0x00 XIL_AXI_SIZE_4BYTE XIL_AXI_BURST_TYPE_INCR C:0b1111 L:XIL_AXI_ALOCK_NOLOCK P:0b110 <<<
INFO: [Slave VIP_wr_driver] (axi_vip_pkg.axi_slv_wr_driver(C_AXI_ADDR_WIDTH=40,C_AXI_WDATA_WIDTH=128,C_AXI_RDATA_WIDTH=128,C_AXI_WID_WIDTH=16,C_AXI_RID_WIDTH=16,C_AXI_AWUSER_WIDTH=16,C_AXI_ARUSER_WIDTH=16,C_AXI_HAS_REGION=0)::get_and_drive.GET_AND_DRIVE) 1425000 : GNI : XIL_AXI_WRITE (80) A:0x0000000000000018 ID:0x000001ad len:0x00 XIL_AXI_SIZE_4BYTE XIL_AXI_BURST_TYPE_INCR C:0b1111 L:XIL_AXI_ALOCK_NOLOCK P:0b110
INFO: [Slave VIP_wr_driver] (axi_vip_pkg.axi_slv_wr_driver(C_AXI_ADDR_WIDTH=40,C_AXI_WDATA_WIDTH=128,C_AXI_RDATA_WIDTH=128,C_AXI_WID_WIDTH=16,C_AXI_RID_WIDTH=16,C_AXI_AWUSER_WIDTH=16,C_AXI_ARUSER_WIDTH=16,C_AXI_HAS_REGION=0)::push_b_q) 1425000 : B PUSH (         0)
INFO: [Slave VIP_wr_driver] (axi_vip_pkg.axi_slv_wr_driver(C_AXI_ADDR_WIDTH=40,C_AXI_WDATA_WIDTH=128,C_AXI_RDATA_WIDTH=128,C_AXI_WID_WIDTH=16,C_AXI_RID_WIDTH=16,C_AXI_AWUSER_WIDTH=16,C_AXI_ARUSER_WIDTH=16,C_AXI_HAS_REGION=0)::push_b_q) 1425000 : ID=0x000001ad - State 0b0111
Entries in BQ : NumEntries:         0 >>> 
 <<<
Command       : XIL_AXI_WRITE (80) A:0x0000000000000018 ID:0x000001ad len:0x00 XIL_AXI_SIZE_4BYTE XIL_AXI_BURST_TYPE_INCR C:0b1111 L:XIL_AXI_ALOCK_NOLOCK P:0b110
INFO: [Master VIP_wr_driver] (axi_vip_pkg.axi_mst_wr_driver(C_AXI_WDATA_WIDTH=128,C_AXI_RDATA_WIDTH=128,C_AXI_WID_WIDTH=16,C_AXI_RID_WIDTH=16,C_AXI_AWUSER_WIDTH=16,C_AXI_ARUSER_WIDTH=16)::service_done_q.SERVICE_DONE_Q) 1435000 : SERVICE_DONE_Q: XIL_AXI_WRITE (44) A:0x0000000000000018 ID:0x000001ad len:0x00 XIL_AXI_SIZE_4BYTE XIL_AXI_BURST_TYPE_INCR C:0b1111 L:XIL_AXI_ALOCK_NOLOCK P:0b110
INFO: [Slave VIP_wr_driver] (axi_vip_pkg.axi_slv_wr_driver(C_AXI_ADDR_WIDTH=40,C_AXI_WDATA_WIDTH=128,C_AXI_RDATA_WIDTH=128,C_AXI_WID_WIDTH=16,C_AXI_RID_WIDTH=16,C_AXI_AWUSER_WIDTH=16,C_AXI_ARUSER_WIDTH=16,C_AXI_HAS_REGION=0)::service_done_q.SERVICE_DONE_Q) 1435000 : SERVICE_DONE_Q: XIL_AXI_WRITE (80) A:0x0000000000000018 ID:0x000001ad len:0x00 XIL_AXI_SIZE_4BYTE XIL_AXI_BURST_TYPE_INCR C:0b1111 L:XIL_AXI_ALOCK_NOLOCK P:0b110
INFO: [Slave VIP_wr_driver] (axi_vip_pkg.axi_slv_wr_driver(C_AXI_ADDR_WIDTH=40,C_AXI_WDATA_WIDTH=128,C_AXI_RDATA_WIDTH=128,C_AXI_WID_WIDTH=16,C_AXI_RID_WIDTH=16,C_AXI_AWUSER_WIDTH=16,C_AXI_ARUSER_WIDTH=16,C_AXI_HAS_REGION=0)::w_channel.W_CHANNEL) 1495000 : W LAST -- write_beat     Last:1 D:0xa7712681000000000000000000000000 BE:0b1111000000000000 
INFO: [Slave VIP_wr_driver] (axi_vip_pkg.axi_slv_wr_driver(C_AXI_ADDR_WIDTH=40,C_AXI_WDATA_WIDTH=128,C_AXI_RDATA_WIDTH=128,C_AXI_WID_WIDTH=16,C_AXI_RID_WIDTH=16,C_AXI_AWUSER_WIDTH=16,C_AXI_ARUSER_WIDTH=16,C_AXI_HAS_REGION=0)::aw_channel.AW_CHANNEL) 1495000 : AWVALID >>>
XIL_AXI_WRITE (85) A:0x000000000000001c ID:0x000001ad len:0x00 XIL_AXI_SIZE_4BYTE XIL_AXI_BURST_TYPE_INCR C:0b1110 L:XIL_AXI_ALOCK_NOLOCK P:0b100<<<
INFO: [Slave VIP_wr_driver] (axi_vip_pkg.axi_slv_wr_driver(C_AXI_ADDR_WIDTH=40,C_AXI_WDATA_WIDTH=128,C_AXI_RDATA_WIDTH=128,C_AXI_WID_WIDTH=16,C_AXI_RID_WIDTH=16,C_AXI_AWUSER_WIDTH=16,C_AXI_ARUSER_WIDTH=16,C_AXI_HAS_REGION=0)::push_reactive_q) 1495000 : PUSH_REACTIVE_Q: PUSH (         0) >>> XIL_AXI_WRITE (85) A:0x000000000000001c ID:0x000001ad len:0x00 XIL_AXI_SIZE_4BYTE XIL_AXI_BURST_TYPE_INCR C:0b1110 L:XIL_AXI_ALOCK_NOLOCK P:0b100 <<<
INFO: [Slave VIP_wr_driver] (axi_vip_pkg.axi_slv_wr_driver(C_AXI_ADDR_WIDTH=40,C_AXI_WDATA_WIDTH=128,C_AXI_RDATA_WIDTH=128,C_AXI_WID_WIDTH=16,C_AXI_RID_WIDTH=16,C_AXI_AWUSER_WIDTH=16,C_AXI_ARUSER_WIDTH=16,C_AXI_HAS_REGION=0)::pop_reactive_q) 1495000 : POP_REACTIVE_Q: (         1) >>> XIL_AXI_WRITE (85) A:0x000000000000001c ID:0x000001ad len:0x00 XIL_AXI_SIZE_4BYTE XIL_AXI_BURST_TYPE_INCR C:0b1110 L:XIL_AXI_ALOCK_NOLOCK P:0b100 <<<
INFO: [Slave VIP_wr_driver] (axi_vip_pkg.axi_slv_wr_driver(C_AXI_ADDR_WIDTH=40,C_AXI_WDATA_WIDTH=128,C_AXI_RDATA_WIDTH=128,C_AXI_WID_WIDTH=16,C_AXI_RID_WIDTH=16,C_AXI_AWUSER_WIDTH=16,C_AXI_ARUSER_WIDTH=16,C_AXI_HAS_REGION=0)::get_and_drive.GET_AND_DRIVE) 1495000 : GNI : XIL_AXI_WRITE (85) A:0x000000000000001c ID:0x000001ad len:0x00 XIL_AXI_SIZE_4BYTE XIL_AXI_BURST_TYPE_INCR C:0b1110 L:XIL_AXI_ALOCK_NOLOCK P:0b100
INFO: [Slave VIP_wr_driver] (axi_vip_pkg.axi_slv_wr_driver(C_AXI_ADDR_WIDTH=40,C_AXI_WDATA_WIDTH=128,C_AXI_RDATA_WIDTH=128,C_AXI_WID_WIDTH=16,C_AXI_RID_WIDTH=16,C_AXI_AWUSER_WIDTH=16,C_AXI_ARUSER_WIDTH=16,C_AXI_HAS_REGION=0)::push_b_q) 1495000 : B PUSH (         0)
INFO: [Slave VIP_wr_driver] (axi_vip_pkg.axi_slv_wr_driver(C_AXI_ADDR_WIDTH=40,C_AXI_WDATA_WIDTH=128,C_AXI_RDATA_WIDTH=128,C_AXI_WID_WIDTH=16,C_AXI_RID_WIDTH=16,C_AXI_AWUSER_WIDTH=16,C_AXI_ARUSER_WIDTH=16,C_AXI_HAS_REGION=0)::push_b_q) 1495000 : ID=0x000001ad - State 0b0111
Entries in BQ : NumEntries:         0 >>> 
 <<<
Command       : XIL_AXI_WRITE (85) A:0x000000000000001c ID:0x000001ad len:0x00 XIL_AXI_SIZE_4BYTE XIL_AXI_BURST_TYPE_INCR C:0b1110 L:XIL_AXI_ALOCK_NOLOCK P:0b100
INFO: [Master VIP_wr_driver] (axi_vip_pkg.axi_mst_wr_driver(C_AXI_WDATA_WIDTH=128,C_AXI_RDATA_WIDTH=128,C_AXI_WID_WIDTH=16,C_AXI_RID_WIDTH=16,C_AXI_AWUSER_WIDTH=16,C_AXI_ARUSER_WIDTH=16)::service_done_q.SERVICE_DONE_Q) 1505000 : SERVICE_DONE_Q: XIL_AXI_WRITE (46) A:0x000000000000001c ID:0x000001ad len:0x00 XIL_AXI_SIZE_4BYTE XIL_AXI_BURST_TYPE_INCR C:0b1110 L:XIL_AXI_ALOCK_NOLOCK P:0b100
INFO: [Slave VIP_wr_driver] (axi_vip_pkg.axi_slv_wr_driver(C_AXI_ADDR_WIDTH=40,C_AXI_WDATA_WIDTH=128,C_AXI_RDATA_WIDTH=128,C_AXI_WID_WIDTH=16,C_AXI_RID_WIDTH=16,C_AXI_AWUSER_WIDTH=16,C_AXI_ARUSER_WIDTH=16,C_AXI_HAS_REGION=0)::service_done_q.SERVICE_DONE_Q) 1505000 : SERVICE_DONE_Q: XIL_AXI_WRITE (85) A:0x000000000000001c ID:0x000001ad len:0x00 XIL_AXI_SIZE_4BYTE XIL_AXI_BURST_TYPE_INCR C:0b1110 L:XIL_AXI_ALOCK_NOLOCK P:0b100
Warning: [continuous_rdburst_00000000] (axi_vip_pkg.axi_transaction::set_addr) 1525000 : Attempted to send ADDR (0x0000000400000000) which is wider than addr_width (        32). Truncating ADDR to (0x0)
Time: 1525 ns  Iteration: 0  Process: /axi_vip_pkg/axi_mst_rd_driver(C_AXI_WDATA_WIDTH=128,C_AXI_RDATA_WIDTH=128,C_AXI_WID_WIDTH=16,C_AXI_RID_WIDTH=16,C_AXI_AWUSER_WIDTH=16,C_AXI_ARUSER_WIDTH=16)::get_and_drive/GET_AND_DRIVE  File: /wrk/2017.4/nightly/2017_12_15_2086221/prep/rdi/vivado/data/xilinx_vip/hdl/axi_vip_pkg.sv
Warning: [continuous_rdburst_00000001] (axi_vip_pkg.axi_transaction::set_addr) 1525000 : Attempted to send ADDR (0x0000000400000004) which is wider than addr_width (        32). Truncating ADDR to (0x4)
Time: 1525 ns  Iteration: 0  Process: /axi_vip_pkg/axi_mst_rd_driver(C_AXI_WDATA_WIDTH=128,C_AXI_RDATA_WIDTH=128,C_AXI_WID_WIDTH=16,C_AXI_RID_WIDTH=16,C_AXI_AWUSER_WIDTH=16,C_AXI_ARUSER_WIDTH=16)::get_and_drive/GET_AND_DRIVE  File: /wrk/2017.4/nightly/2017_12_15_2086221/prep/rdi/vivado/data/xilinx_vip/hdl/axi_vip_pkg.sv
Warning: [continuous_rdburst_00000002] (axi_vip_pkg.axi_transaction::set_addr) 1525000 : Attempted to send ADDR (0x0000000400000008) which is wider than addr_width (        32). Truncating ADDR to (0x8)
Time: 1525 ns  Iteration: 0  Process: /axi_vip_pkg/axi_mst_rd_driver(C_AXI_WDATA_WIDTH=128,C_AXI_RDATA_WIDTH=128,C_AXI_WID_WIDTH=16,C_AXI_RID_WIDTH=16,C_AXI_AWUSER_WIDTH=16,C_AXI_ARUSER_WIDTH=16)::get_and_drive/GET_AND_DRIVE  File: /wrk/2017.4/nightly/2017_12_15_2086221/prep/rdi/vivado/data/xilinx_vip/hdl/axi_vip_pkg.sv
Warning: [continuous_rdburst_00000003] (axi_vip_pkg.axi_transaction::set_addr) 1525000 : Attempted to send ADDR (0x000000040000000c) which is wider than addr_width (        32). Truncating ADDR to (0xc)
Time: 1525 ns  Iteration: 0  Process: /axi_vip_pkg/axi_mst_rd_driver(C_AXI_WDATA_WIDTH=128,C_AXI_RDATA_WIDTH=128,C_AXI_WID_WIDTH=16,C_AXI_RID_WIDTH=16,C_AXI_AWUSER_WIDTH=16,C_AXI_ARUSER_WIDTH=16)::get_and_drive/GET_AND_DRIVE  File: /wrk/2017.4/nightly/2017_12_15_2086221/prep/rdi/vivado/data/xilinx_vip/hdl/axi_vip_pkg.sv
Warning: [continuous_rdburst_00000004] (axi_vip_pkg.axi_transaction::set_addr) 1525000 : Attempted to send ADDR (0x0000000400000010) which is wider than addr_width (        32). Truncating ADDR to (0x10)
Time: 1525 ns  Iteration: 0  Process: /axi_vip_pkg/axi_mst_rd_driver(C_AXI_WDATA_WIDTH=128,C_AXI_RDATA_WIDTH=128,C_AXI_WID_WIDTH=16,C_AXI_RID_WIDTH=16,C_AXI_AWUSER_WIDTH=16,C_AXI_ARUSER_WIDTH=16)::get_and_drive/GET_AND_DRIVE  File: /wrk/2017.4/nightly/2017_12_15_2086221/prep/rdi/vivado/data/xilinx_vip/hdl/axi_vip_pkg.sv
Warning: [continuous_rdburst_00000005] (axi_vip_pkg.axi_transaction::set_addr) 1525000 : Attempted to send ADDR (0x0000000400000014) which is wider than addr_width (        32). Truncating ADDR to (0x14)
Time: 1525 ns  Iteration: 0  Process: /axi_vip_pkg/axi_mst_rd_driver(C_AXI_WDATA_WIDTH=128,C_AXI_RDATA_WIDTH=128,C_AXI_WID_WIDTH=16,C_AXI_RID_WIDTH=16,C_AXI_AWUSER_WIDTH=16,C_AXI_ARUSER_WIDTH=16)::get_and_drive/GET_AND_DRIVE  File: /wrk/2017.4/nightly/2017_12_15_2086221/prep/rdi/vivado/data/xilinx_vip/hdl/axi_vip_pkg.sv
Warning: [continuous_rdburst_00000006] (axi_vip_pkg.axi_transaction::set_addr) 1525000 : Attempted to send ADDR (0x0000000400000018) which is wider than addr_width (        32). Truncating ADDR to (0x18)
Time: 1525 ns  Iteration: 0  Process: /axi_vip_pkg/axi_mst_rd_driver(C_AXI_WDATA_WIDTH=128,C_AXI_RDATA_WIDTH=128,C_AXI_WID_WIDTH=16,C_AXI_RID_WIDTH=16,C_AXI_AWUSER_WIDTH=16,C_AXI_ARUSER_WIDTH=16)::get_and_drive/GET_AND_DRIVE  File: /wrk/2017.4/nightly/2017_12_15_2086221/prep/rdi/vivado/data/xilinx_vip/hdl/axi_vip_pkg.sv
Warning: [continuous_rdburst_00000007] (axi_vip_pkg.axi_transaction::set_addr) 1525000 : Attempted to send ADDR (0x000000040000001c) which is wider than addr_width (        32). Truncating ADDR to (0x1c)
Time: 1525 ns  Iteration: 0  Process: /axi_vip_pkg/axi_mst_rd_driver(C_AXI_WDATA_WIDTH=128,C_AXI_RDATA_WIDTH=128,C_AXI_WID_WIDTH=16,C_AXI_RID_WIDTH=16,C_AXI_AWUSER_WIDTH=16,C_AXI_ARUSER_WIDTH=16)::get_and_drive/GET_AND_DRIVE  File: /wrk/2017.4/nightly/2017_12_15_2086221/prep/rdi/vivado/data/xilinx_vip/hdl/axi_vip_pkg.sv
INFO: [Master VIP_rd_driver] (axi_vip_pkg.axi_mst_rd_driver(C_AXI_WDATA_WIDTH=128,C_AXI_RDATA_WIDTH=128,C_AXI_WID_WIDTH=16,C_AXI_RID_WIDTH=16,C_AXI_AWUSER_WIDTH=16,C_AXI_ARUSER_WIDTH=16)::ar_channel.AR_CHANNEL) 1535001 : ARVALID id=0x000001ad
INFO: [Master VIP_rd_driver] (axi_vip_pkg.axi_mst_rd_driver(C_AXI_WDATA_WIDTH=128,C_AXI_RDATA_WIDTH=128,C_AXI_WID_WIDTH=16,C_AXI_RID_WIDTH=16,C_AXI_AWUSER_WIDTH=16,C_AXI_ARUSER_WIDTH=16)::ar_channel.AR_CHANNEL) 1555001 : ARVALID id=0x000001ad
INFO: [Master VIP_rd_driver] (axi_vip_pkg.axi_mst_rd_driver(C_AXI_WDATA_WIDTH=128,C_AXI_RDATA_WIDTH=128,C_AXI_WID_WIDTH=16,C_AXI_RID_WIDTH=16,C_AXI_AWUSER_WIDTH=16,C_AXI_ARUSER_WIDTH=16)::ar_channel.AR_CHANNEL) 1585001 : ARVALID id=0x000001ad
INFO: [Master VIP_rd_driver] (axi_vip_pkg.axi_mst_rd_driver(C_AXI_WDATA_WIDTH=128,C_AXI_RDATA_WIDTH=128,C_AXI_WID_WIDTH=16,C_AXI_RID_WIDTH=16,C_AXI_AWUSER_WIDTH=16,C_AXI_ARUSER_WIDTH=16)::ar_channel.AR_CHANNEL) 1615001 : ARVALID id=0x000001ad
INFO: [Master VIP_rd_driver] (axi_vip_pkg.axi_mst_rd_driver(C_AXI_WDATA_WIDTH=128,C_AXI_RDATA_WIDTH=128,C_AXI_WID_WIDTH=16,C_AXI_RID_WIDTH=16,C_AXI_AWUSER_WIDTH=16,C_AXI_ARUSER_WIDTH=16)::ar_channel.AR_CHANNEL) 1645001 : ARVALID id=0x000001ad
INFO: [Master VIP_rd_driver] (axi_vip_pkg.axi_mst_rd_driver(C_AXI_WDATA_WIDTH=128,C_AXI_RDATA_WIDTH=128,C_AXI_WID_WIDTH=16,C_AXI_RID_WIDTH=16,C_AXI_AWUSER_WIDTH=16,C_AXI_ARUSER_WIDTH=16)::ar_channel.AR_CHANNEL) 1675001 : ARVALID id=0x000001ad
INFO: [Slave VIP_rd_driver] (axi_vip_pkg.axi_slv_rd_driver(C_AXI_ADDR_WIDTH=40,C_AXI_WDATA_WIDTH=128,C_AXI_RDATA_WIDTH=128,C_AXI_WID_WIDTH=16,C_AXI_RID_WIDTH=16,C_AXI_AWUSER_WIDTH=16,C_AXI_ARUSER_WIDTH=16,C_AXI_HAS_REGION=0)::get_rd_reactive) 1685000 : ARVALID >>>
XIL_AXI_READ (109) A:0x0000000000000000 ID:0x000001ad len:0x00 XIL_AXI_SIZE_4BYTE XIL_AXI_BURST_TYPE_INCR C:0b0010 L:XIL_AXI_ALOCK_NOLOCK P:0b101<<<
INFO: [Slave VIP_rd_driver] (axi_vip_pkg.axi_slv_rd_driver(C_AXI_ADDR_WIDTH=40,C_AXI_WDATA_WIDTH=128,C_AXI_RDATA_WIDTH=128,C_AXI_WID_WIDTH=16,C_AXI_RID_WIDTH=16,C_AXI_AWUSER_WIDTH=16,C_AXI_ARUSER_WIDTH=16,C_AXI_HAS_REGION=0)::get_and_drive.GET_AND_DRIVE) 1685000 : GNI : XIL_AXI_READ (109) A:0x0000000000000000 ID:0x000001ad len:0x00 XIL_AXI_SIZE_4BYTE XIL_AXI_BURST_TYPE_INCR C:0b0010 L:XIL_AXI_ALOCK_NOLOCK P:0b101
INFO: [Master VIP_rd_driver] (axi_vip_pkg.axi_mst_rd_driver(C_AXI_WDATA_WIDTH=128,C_AXI_RDATA_WIDTH=128,C_AXI_WID_WIDTH=16,C_AXI_RID_WIDTH=16,C_AXI_AWUSER_WIDTH=16,C_AXI_ARUSER_WIDTH=16)::ar_channel.AR_CHANNEL) 1705001 : ARVALID id=0x000001ad
INFO: [Slave VIP_rd_driver] (axi_vip_pkg.axi_slv_rd_driver(C_AXI_ADDR_WIDTH=40,C_AXI_WDATA_WIDTH=128,C_AXI_RDATA_WIDTH=128,C_AXI_WID_WIDTH=16,C_AXI_RID_WIDTH=16,C_AXI_AWUSER_WIDTH=16,C_AXI_ARUSER_WIDTH=16,C_AXI_HAS_REGION=0)::drive_r_channel) 1735001 : RVALID (4294967295) id=0x000001ad, len   0
INFO: [Master VIP_rd_driver] (axi_vip_pkg.axi_mst_rd_driver(C_AXI_WDATA_WIDTH=128,C_AXI_RDATA_WIDTH=128,C_AXI_WID_WIDTH=16,C_AXI_RID_WIDTH=16,C_AXI_AWUSER_WIDTH=16,C_AXI_ARUSER_WIDTH=16)::ar_channel.AR_CHANNEL) 1735001 : ARVALID id=0x000001ad
INFO: [Slave VIP_rd_driver] (axi_vip_pkg.axi_slv_rd_driver(C_AXI_ADDR_WIDTH=40,C_AXI_WDATA_WIDTH=128,C_AXI_RDATA_WIDTH=128,C_AXI_WID_WIDTH=16,C_AXI_RID_WIDTH=16,C_AXI_AWUSER_WIDTH=16,C_AXI_ARUSER_WIDTH=16,C_AXI_HAS_REGION=0)::get_rd_reactive) 1755000 : ARVALID >>>
XIL_AXI_READ (114) A:0x0000000000000004 ID:0x000001ad len:0x00 XIL_AXI_SIZE_4BYTE XIL_AXI_BURST_TYPE_INCR C:0b1011 L:XIL_AXI_ALOCK_NOLOCK P:0b011<<<
INFO: [Slave VIP_rd_driver] (axi_vip_pkg.axi_slv_rd_driver(C_AXI_ADDR_WIDTH=40,C_AXI_WDATA_WIDTH=128,C_AXI_RDATA_WIDTH=128,C_AXI_WID_WIDTH=16,C_AXI_RID_WIDTH=16,C_AXI_AWUSER_WIDTH=16,C_AXI_ARUSER_WIDTH=16,C_AXI_HAS_REGION=0)::get_and_drive.GET_AND_DRIVE) 1755000 : GNI : XIL_AXI_READ (114) A:0x0000000000000004 ID:0x000001ad len:0x00 XIL_AXI_SIZE_4BYTE XIL_AXI_BURST_TYPE_INCR C:0b1011 L:XIL_AXI_ALOCK_NOLOCK P:0b011
INFO: [Slave VIP_rd_driver] (axi_vip_pkg.axi_slv_rd_driver(C_AXI_ADDR_WIDTH=40,C_AXI_WDATA_WIDTH=128,C_AXI_RDATA_WIDTH=128,C_AXI_WID_WIDTH=16,C_AXI_RID_WIDTH=16,C_AXI_AWUSER_WIDTH=16,C_AXI_ARUSER_WIDTH=16,C_AXI_HAS_REGION=0)::drive_r_channel) 1805001 : RVALID (4294967295) id=0x000001ad, len   0
INFO: [Slave VIP_rd_driver] (axi_vip_pkg.axi_slv_rd_driver(C_AXI_ADDR_WIDTH=40,C_AXI_WDATA_WIDTH=128,C_AXI_RDATA_WIDTH=128,C_AXI_WID_WIDTH=16,C_AXI_RID_WIDTH=16,C_AXI_AWUSER_WIDTH=16,C_AXI_ARUSER_WIDTH=16,C_AXI_HAS_REGION=0)::get_rd_reactive) 1825000 : ARVALID >>>
XIL_AXI_READ (118) A:0x0000000000000008 ID:0x000001ad len:0x00 XIL_AXI_SIZE_4BYTE XIL_AXI_BURST_TYPE_INCR C:0b0001 L:XIL_AXI_ALOCK_NOLOCK P:0b001<<<
INFO: [Slave VIP_rd_driver] (axi_vip_pkg.axi_slv_rd_driver(C_AXI_ADDR_WIDTH=40,C_AXI_WDATA_WIDTH=128,C_AXI_RDATA_WIDTH=128,C_AXI_WID_WIDTH=16,C_AXI_RID_WIDTH=16,C_AXI_AWUSER_WIDTH=16,C_AXI_ARUSER_WIDTH=16,C_AXI_HAS_REGION=0)::get_and_drive.GET_AND_DRIVE) 1825000 : GNI : XIL_AXI_READ (118) A:0x0000000000000008 ID:0x000001ad len:0x00 XIL_AXI_SIZE_4BYTE XIL_AXI_BURST_TYPE_INCR C:0b0001 L:XIL_AXI_ALOCK_NOLOCK P:0b001
INFO: [Slave VIP_rd_driver] (axi_vip_pkg.axi_slv_rd_driver(C_AXI_ADDR_WIDTH=40,C_AXI_WDATA_WIDTH=128,C_AXI_RDATA_WIDTH=128,C_AXI_WID_WIDTH=16,C_AXI_RID_WIDTH=16,C_AXI_AWUSER_WIDTH=16,C_AXI_ARUSER_WIDTH=16,C_AXI_HAS_REGION=0)::drive_r_channel) 1875001 : RVALID (4294967295) id=0x000001ad, len   0
INFO: [Slave VIP_rd_driver] (axi_vip_pkg.axi_slv_rd_driver(C_AXI_ADDR_WIDTH=40,C_AXI_WDATA_WIDTH=128,C_AXI_RDATA_WIDTH=128,C_AXI_WID_WIDTH=16,C_AXI_RID_WIDTH=16,C_AXI_AWUSER_WIDTH=16,C_AXI_ARUSER_WIDTH=16,C_AXI_HAS_REGION=0)::get_rd_reactive) 1895000 : ARVALID >>>
XIL_AXI_READ (121) A:0x000000000000000c ID:0x000001ad len:0x00 XIL_AXI_SIZE_4BYTE XIL_AXI_BURST_TYPE_INCR C:0b1110 L:XIL_AXI_ALOCK_NOLOCK P:0b110<<<
INFO: [Slave VIP_rd_driver] (axi_vip_pkg.axi_slv_rd_driver(C_AXI_ADDR_WIDTH=40,C_AXI_WDATA_WIDTH=128,C_AXI_RDATA_WIDTH=128,C_AXI_WID_WIDTH=16,C_AXI_RID_WIDTH=16,C_AXI_AWUSER_WIDTH=16,C_AXI_ARUSER_WIDTH=16,C_AXI_HAS_REGION=0)::get_and_drive.GET_AND_DRIVE) 1895000 : GNI : XIL_AXI_READ (121) A:0x000000000000000c ID:0x000001ad len:0x00 XIL_AXI_SIZE_4BYTE XIL_AXI_BURST_TYPE_INCR C:0b1110 L:XIL_AXI_ALOCK_NOLOCK P:0b110
INFO: [Slave VIP_rd_driver] (axi_vip_pkg.axi_slv_rd_driver(C_AXI_ADDR_WIDTH=40,C_AXI_WDATA_WIDTH=128,C_AXI_RDATA_WIDTH=128,C_AXI_WID_WIDTH=16,C_AXI_RID_WIDTH=16,C_AXI_AWUSER_WIDTH=16,C_AXI_ARUSER_WIDTH=16,C_AXI_HAS_REGION=0)::drive_r_channel) 1945001 : RVALID (4294967295) id=0x000001ad, len   0
INFO: [Slave VIP_rd_driver] (axi_vip_pkg.axi_slv_rd_driver(C_AXI_ADDR_WIDTH=40,C_AXI_WDATA_WIDTH=128,C_AXI_RDATA_WIDTH=128,C_AXI_WID_WIDTH=16,C_AXI_RID_WIDTH=16,C_AXI_AWUSER_WIDTH=16,C_AXI_ARUSER_WIDTH=16,C_AXI_HAS_REGION=0)::get_rd_reactive) 1965000 : ARVALID >>>
XIL_AXI_READ (124) A:0x0000000000000010 ID:0x000001ad len:0x00 XIL_AXI_SIZE_4BYTE XIL_AXI_BURST_TYPE_INCR C:0b0011 L:XIL_AXI_ALOCK_NOLOCK P:0b101<<<
INFO: [Slave VIP_rd_driver] (axi_vip_pkg.axi_slv_rd_driver(C_AXI_ADDR_WIDTH=40,C_AXI_WDATA_WIDTH=128,C_AXI_RDATA_WIDTH=128,C_AXI_WID_WIDTH=16,C_AXI_RID_WIDTH=16,C_AXI_AWUSER_WIDTH=16,C_AXI_ARUSER_WIDTH=16,C_AXI_HAS_REGION=0)::get_and_drive.GET_AND_DRIVE) 1965000 : GNI : XIL_AXI_READ (124) A:0x0000000000000010 ID:0x000001ad len:0x00 XIL_AXI_SIZE_4BYTE XIL_AXI_BURST_TYPE_INCR C:0b0011 L:XIL_AXI_ALOCK_NOLOCK P:0b101
INFO: [Slave VIP_rd_driver] (axi_vip_pkg.axi_slv_rd_driver(C_AXI_ADDR_WIDTH=40,C_AXI_WDATA_WIDTH=128,C_AXI_RDATA_WIDTH=128,C_AXI_WID_WIDTH=16,C_AXI_RID_WIDTH=16,C_AXI_AWUSER_WIDTH=16,C_AXI_ARUSER_WIDTH=16,C_AXI_HAS_REGION=0)::drive_r_channel) 2015001 : RVALID (4294967295) id=0x000001ad, len   0
INFO: [Slave VIP_rd_driver] (axi_vip_pkg.axi_slv_rd_driver(C_AXI_ADDR_WIDTH=40,C_AXI_WDATA_WIDTH=128,C_AXI_RDATA_WIDTH=128,C_AXI_WID_WIDTH=16,C_AXI_RID_WIDTH=16,C_AXI_AWUSER_WIDTH=16,C_AXI_ARUSER_WIDTH=16,C_AXI_HAS_REGION=0)::get_rd_reactive) 2035000 : ARVALID >>>
XIL_AXI_READ (127) A:0x0000000000000014 ID:0x000001ad len:0x00 XIL_AXI_SIZE_4BYTE XIL_AXI_BURST_TYPE_INCR C:0b0010 L:XIL_AXI_ALOCK_NOLOCK P:0b000<<<
INFO: [Slave VIP_rd_driver] (axi_vip_pkg.axi_slv_rd_driver(C_AXI_ADDR_WIDTH=40,C_AXI_WDATA_WIDTH=128,C_AXI_RDATA_WIDTH=128,C_AXI_WID_WIDTH=16,C_AXI_RID_WIDTH=16,C_AXI_AWUSER_WIDTH=16,C_AXI_ARUSER_WIDTH=16,C_AXI_HAS_REGION=0)::get_and_drive.GET_AND_DRIVE) 2035000 : GNI : XIL_AXI_READ (127) A:0x0000000000000014 ID:0x000001ad len:0x00 XIL_AXI_SIZE_4BYTE XIL_AXI_BURST_TYPE_INCR C:0b0010 L:XIL_AXI_ALOCK_NOLOCK P:0b000
INFO: [Slave VIP_rd_driver] (axi_vip_pkg.axi_slv_rd_driver(C_AXI_ADDR_WIDTH=40,C_AXI_WDATA_WIDTH=128,C_AXI_RDATA_WIDTH=128,C_AXI_WID_WIDTH=16,C_AXI_RID_WIDTH=16,C_AXI_AWUSER_WIDTH=16,C_AXI_ARUSER_WIDTH=16,C_AXI_HAS_REGION=0)::drive_r_channel) 2085001 : RVALID (4294967295) id=0x000001ad, len   0
INFO: [Slave VIP_rd_driver] (axi_vip_pkg.axi_slv_rd_driver(C_AXI_ADDR_WIDTH=40,C_AXI_WDATA_WIDTH=128,C_AXI_RDATA_WIDTH=128,C_AXI_WID_WIDTH=16,C_AXI_RID_WIDTH=16,C_AXI_AWUSER_WIDTH=16,C_AXI_ARUSER_WIDTH=16,C_AXI_HAS_REGION=0)::get_rd_reactive) 2105000 : ARVALID >>>
XIL_AXI_READ (130) A:0x0000000000000018 ID:0x000001ad len:0x00 XIL_AXI_SIZE_4BYTE XIL_AXI_BURST_TYPE_INCR C:0b0010 L:XIL_AXI_ALOCK_NOLOCK P:0b111<<<
INFO: [Slave VIP_rd_driver] (axi_vip_pkg.axi_slv_rd_driver(C_AXI_ADDR_WIDTH=40,C_AXI_WDATA_WIDTH=128,C_AXI_RDATA_WIDTH=128,C_AXI_WID_WIDTH=16,C_AXI_RID_WIDTH=16,C_AXI_AWUSER_WIDTH=16,C_AXI_ARUSER_WIDTH=16,C_AXI_HAS_REGION=0)::get_and_drive.GET_AND_DRIVE) 2105000 : GNI : XIL_AXI_READ (130) A:0x0000000000000018 ID:0x000001ad len:0x00 XIL_AXI_SIZE_4BYTE XIL_AXI_BURST_TYPE_INCR C:0b0010 L:XIL_AXI_ALOCK_NOLOCK P:0b111
INFO: [Slave VIP_rd_driver] (axi_vip_pkg.axi_slv_rd_driver(C_AXI_ADDR_WIDTH=40,C_AXI_WDATA_WIDTH=128,C_AXI_RDATA_WIDTH=128,C_AXI_WID_WIDTH=16,C_AXI_RID_WIDTH=16,C_AXI_AWUSER_WIDTH=16,C_AXI_ARUSER_WIDTH=16,C_AXI_HAS_REGION=0)::drive_r_channel) 2155001 : RVALID (4294967295) id=0x000001ad, len   0
INFO: [Slave VIP_rd_driver] (axi_vip_pkg.axi_slv_rd_driver(C_AXI_ADDR_WIDTH=40,C_AXI_WDATA_WIDTH=128,C_AXI_RDATA_WIDTH=128,C_AXI_WID_WIDTH=16,C_AXI_RID_WIDTH=16,C_AXI_AWUSER_WIDTH=16,C_AXI_ARUSER_WIDTH=16,C_AXI_HAS_REGION=0)::get_rd_reactive) 2175000 : ARVALID >>>
XIL_AXI_READ (133) A:0x000000000000001c ID:0x000001ad len:0x00 XIL_AXI_SIZE_4BYTE XIL_AXI_BURST_TYPE_INCR C:0b1010 L:XIL_AXI_ALOCK_NOLOCK P:0b001<<<
INFO: [Slave VIP_rd_driver] (axi_vip_pkg.axi_slv_rd_driver(C_AXI_ADDR_WIDTH=40,C_AXI_WDATA_WIDTH=128,C_AXI_RDATA_WIDTH=128,C_AXI_WID_WIDTH=16,C_AXI_RID_WIDTH=16,C_AXI_AWUSER_WIDTH=16,C_AXI_ARUSER_WIDTH=16,C_AXI_HAS_REGION=0)::get_and_drive.GET_AND_DRIVE) 2175000 : GNI : XIL_AXI_READ (133) A:0x000000000000001c ID:0x000001ad len:0x00 XIL_AXI_SIZE_4BYTE XIL_AXI_BURST_TYPE_INCR C:0b1010 L:XIL_AXI_ALOCK_NOLOCK P:0b001
INFO: [Slave VIP_rd_driver] (axi_vip_pkg.axi_slv_rd_driver(C_AXI_ADDR_WIDTH=40,C_AXI_WDATA_WIDTH=128,C_AXI_RDATA_WIDTH=128,C_AXI_WID_WIDTH=16,C_AXI_RID_WIDTH=16,C_AXI_AWUSER_WIDTH=16,C_AXI_ARUSER_WIDTH=16,C_AXI_HAS_REGION=0)::drive_r_channel) 2225001 : RVALID (4294967295) id=0x000001ad, len   0
INFO: [Master VIP_wr_driver] (axi_vip_pkg.axi_mst_wr_driver(C_AXI_WDATA_WIDTH=128,C_AXI_RDATA_WIDTH=128,C_AXI_WID_WIDTH=16,C_AXI_RID_WIDTH=16,C_AXI_AWUSER_WIDTH=16,C_AXI_ARUSER_WIDTH=16)::get_and_drive.GET_AND_DRIVE) 2255000 : Sending transaction: 
INFO: [Master VIP_wr_driver] (axi_vip_pkg.axi_mst_wr_driver(C_AXI_WDATA_WIDTH=128,C_AXI_RDATA_WIDTH=128,C_AXI_WID_WIDTH=16,C_AXI_RID_WIDTH=16,C_AXI_AWUSER_WIDTH=16,C_AXI_ARUSER_WIDTH=16)::get_and_drive.GET_AND_DRIVE) 2255000 : ---------------------------------------------------------------------------------------------
  Name                         Value
---------------------------------------------------------------------------------------------
  CMD                          XIL_AXI_WRITE
  ADDR                         0x0000000000000000 
  WID                          0x00000000
  LEN                          0x00
  SIZE                         0x100
  BURST                        0x01
  CACHE                        0x0000
  LOCK                         0x00
  PROT                         0x000
  REGION                       0x0000
  QOS                          0x0000
  AWUSER                       0x0000
  BRESP                        XIL_AXI_RESP_OKAY
  DRIVER_RETURN_ITEM           XIL_AXI_PAYLOAD_RETURN 
  CREATION_TIME                2255000
  SUBMIT_TIME                  0
  PAYLOAD                      16
    BEAT[          0]          0x00000000000000000001000000000000 (strb : 0b1111111111111111) :beat_delay:         0
--------------------------------------------------------------------------------------------
INFO: [Master VIP_wr_driver] (axi_vip_pkg.axi_mst_wr_driver(C_AXI_WDATA_WIDTH=128,C_AXI_RDATA_WIDTH=128,C_AXI_WID_WIDTH=16,C_AXI_RID_WIDTH=16,C_AXI_AWUSER_WIDTH=16,C_AXI_ARUSER_WIDTH=16)::w_channel.W_CHANNEL.Block10274_265.Block10274_266) 2335000 : WREADY+WLAST (         0) id=0x00000000
INFO: [Master VIP_wr_driver] (axi_vip_pkg.axi_mst_wr_driver(C_AXI_WDATA_WIDTH=128,C_AXI_RDATA_WIDTH=128,C_AXI_WID_WIDTH=16,C_AXI_RID_WIDTH=16,C_AXI_AWUSER_WIDTH=16,C_AXI_ARUSER_WIDTH=16)::service_done_q.SERVICE_DONE_Q) 2345000 : SERVICE_DONE_Q: XIL_AXI_WRITE (136) A:0x0000000000000000 ID:0x00000000 len:0x00 XIL_AXI_SIZE_16BYTE XIL_AXI_BURST_TYPE_INCR C:0b0000 L:XIL_AXI_ALOCK_NOLOCK P:0b000
1 )  Received 00000000000000000000000000000100 but expectd 0d000000000000001111111111111111
2 )  Received 00000000000000000000000000000000 but expectd 01000000000000002222222222222222
3 )  Received 0000000000000000000000020f0e0d0c but expectd 02000000000000003333333333333333
4 )  Received 0000000000000000000000020f0e0d0c but expectd 03000000000000004444444444444444
5 )  Received 00000000000000000000000000000000 but expectd 04000000000000005555555555555555
6 )  Received 00000000000000000000000000000000 but expectd 05000000000000006666666666666666
7 )  Received 00000000000000000000000000000000 but expectd 06000000000000007777777777777777
8 )  Received 00000000000000000000000000000000 but expectd 07000000000000008888888888888888
9 )  Received 00000000000000000000000000000000 but expectd 08000000000000009999999999999999
10)  Received 00000000000000000000000000000000 but expectd 0900000000000000aaaaaaaaaaaaaaaa
11)  Received 00000000000000000000000000000000 but expectd 0a00000000000000bbbbbbbbbbbbbbbb
12)  Received 00000000000000000000000000000000 but expectd 0b00000000000000cccccccccccccccc
13)  Received 00000000000000000000000000000000 but expectd 0c00000000000000dddddddddddddddd
